;$FILEVERSION=1.1
;$STARTTIME=46287.6751104282
;
;   Start time: 9/22/2026 16:12:09.541.0
;   Generated by PCAN-View v5.3.3.958
;
;   Message Number
;   |         Time Offset (ms)
;   |         |        Type
;   |         |        |        ID (hex)
;   |         |        |        |     Data Length
;   |         |        |        |     |   Data Bytes (hex) ...
;   |         |        |        |     |   |
;---+--   ----+----  --+--  ----+---  +  -+ -- -- -- -- -- -- --
     1)         0.4  Rx     18EF1CCD  8  A2 00 00 00 00 00 00 00 
     2)         1.2  Rx     18EF1C8F  8  0D 80 00 B4 38 DE 86 FC 
     3)         2.1  Rx     18EF1C8F  8  0D 81 16 00 23 00 82 03 
     4)         3.1  Rx     18EF1C8F  8  0D 82 14 00 08 00 0D 00 
     5)        20.5  Rx     18EF1CCD  8  A3 00 00 00 00 FA FF FA 
     6)        21.2  Rx     18EF1C8F  8  0D 90 00 D4 86 DE 86 FC 
     7)        22.1  Rx     18EF1C8F  8  0D 91 16 00 23 00 84 03 
     8)        23.1  Rx     18EF1C8F  8  0D 92 16 00 09 00 0E 00 
     9)        40.5  Rx     18EF1CCD  8  A1 40 FA FF FF FF 00 00 
    10)        41.2  Rx     18EF1C8F  8  0D A0 00 F4 D4 DE 86 FC 
    11)        42.1  Rx     18EF1C8F  8  0D A1 14 00 22 00 84 03 
    12)        43.1  Rx     18EF1C8F  8  0D A2 14 00 0A 00 0F 00 
    13)        61.2  Rx     18EF1C8F  8  0D B0 00 14 23 DF 86 FC 
    14)        62.1  Rx     18EF1C8F  8  0D B1 18 00 21 00 84 03 
    15)        63.1  Rx     18EF1C8F  8  0D B2 14 00 0D 00 0E 00 
    16)        73.1  Rx     18EFCD1C  8  A1 01 00 00 FA FF FF FF 
    17)        81.2  Rx     18EF1C8F  8  0D C0 00 34 71 DF 86 FC 
    18)        82.1  Rx     18EF1C8F  8  0D C1 16 00 21 00 84 03 
    19)        83.1  Rx     18EF1C8F  8  0D C2 15 00 0E 00 0C 00 
    20)        93.0  Rx     18EFCD1C  8  A0 00 14 00 00 00 00 00 
    21)        93.6  Rx     18EF1CCD  8  A0 00 14 00 79 07 00 00 
    22)       100.6  Rx     18EF1CCD  8  A2 00 00 00 00 00 00 00 
    23)       101.2  Rx     18EF1C8F  8  0D D0 00 57 BF DF 86 FC 
    24)       102.1  Rx     18EF1C8F  8  0D D1 17 00 23 00 84 03 
    25)       103.1  Rx     18EF1C8F  8  0D D2 15 00 0B 00 09 00 
    26)       113.0  Rx     18EFCD1C  8  A0 00 2A 00 00 00 00 00 
    27)       113.7  Rx     18EF1CCD  8  A0 00 2A 00 76 05 00 00 
    28)       120.7  Rx     18EF1CCD  8  A3 00 00 00 00 FA FF FA 
    29)       121.2  Rx     18EF1C8F  8  0D E0 00 74 0D E0 86 FC 
    30)       122.1  Rx     18EF1C8F  8  0D E1 15 00 22 00 84 03 
    31)       123.1  Rx     18EF1C8F  8  0D E2 14 00 0A 00 0B 00 
    32)       133.0  Rx     18EFCD1C  8  A0 00 1B 00 00 00 00 00 
    33)       133.7  Rx     18EF1CCD  8  A0 00 1B 00 00 00 00 00 
    34)       140.7  Rx     18EF1CCD  8  A1 40 FA FF FF FF 00 00 
    35)       141.3  Rx     18EF1C8F  8  0D F0 00 94 5B E0 86 FC 
    36)       142.1  Rx     18EF1C8F  8  0D F1 17 00 24 00 82 03 
    37)       143.1  Rx     18EF1C8F  8  0D F2 16 00 0A 00 0D 00 
    38)       153.0  Rx     18EFCD1C  8  A0 00 00 00 00 00 00 00 
    39)       153.7  Rx     18EF1CCD  8  A0 00 00 00 01 00 00 00 
    40)       161.2  Rx     18EF1C8F  8  0D 00 00 B4 A9 E0 86 FC 
    41)       162.1  Rx     18EF1C8F  8  0D 01 17 00 23 00 82 03 
    42)       163.1  Rx     18EF1C8F  8  0D 02 14 00 0A 00 10 00 
    43)       181.2  Rx     18EF1C8F  8  0D 10 00 D4 F7 E0 86 FC 
    44)       182.1  Rx     18EF1C8F  8  0D 11 15 00 22 00 82 03 
    45)       183.1  Rx     18EF1C8F  8  0D 12 15 00 0C 00 11 00 
    46)       200.9  Rx     18EF1CCD  8  A2 00 00 00 00 00 00 00 
    47)       201.4  Rx     18EF1C8F  8  0D 20 00 F7 45 E1 86 FC 
    48)       202.1  Rx     18EF1C8F  8  0D 21 16 00 22 00 83 03 
    49)       203.1  Rx     18EF1C8F  8  0D 22 14 00 0A 00 10 00 
    50)       214.4  Rx     18FEF31C  8  5E 29 80 99 AC CE 2C 89 
    51)       214.9  Rx     18FEE81C  8  97 4F 00 00 00 00 10 52 
    52)       215.5  Rx     18FEE61C  8  24 0C 0E 09 57 29 00 00 
    53)       216.1  Rx     19F8021C  8  EE FC 86 6C 00 00 FF FF 
    54)       221.0  Rx     18EF1CCD  8  A3 00 00 00 00 FA FF FA 
    55)       221.5  Rx     18EF1C8F  8  0D 30 00 17 94 E1 86 FC 
    56)       222.1  Rx     18EF1C8F  8  0D 31 15 00 23 00 83 03 
    57)       223.1  Rx     18EF1C8F  8  0D 32 15 00 0B 00 11 00 
    58)       241.0  Rx     18EF1CCD  8  A1 40 FA FF FF FF 00 00 
    59)       241.5  Rx     18EF1C8F  8  0D 40 00 37 E2 E1 86 FC 
    60)       242.1  Rx     18EF1C8F  8  0D 41 17 00 22 00 84 03 
    61)       243.1  Rx     18EF1C8F  8  0D 42 16 00 0B 00 10 00 
    62)       260.1  Rx     19F8051C  8  80 2F EE EE 50 53 AB 79 
    63)       260.7  Rx     19F8051C  8  81 1E 80 CE 24 2F E1 A6 
    64)       261.2  Rx     19F8051C  8  82 98 06 E0 65 4B B4 F3 
    65)       261.8  Rx     18EF1C8F  8  0D 50 00 54 30 E2 86 FC 
    66)       262.3  Rx     18EF1C8F  8  0D 51 16 00 22 00 81 03 
    67)       262.9  Rx     19F8051C  8  83 91 CB 02 41 40 68 08 
    68)       263.4  Rx     18EF1C8F  8  0D 52 14 00 0B 00 0C 00 
    69)       264.0  Rx     19F8051C  8  84 00 00 00 00 20 00 0A 
    70)       264.6  Rx     19F8051C  8  85 64 00 64 00 DC 05 00 
    71)       265.1  Rx     19F8051C  8  86 00 01 0F 00 00 00 FF 
    72)       273.1  Rx     18EFCD1C  8  A1 01 00 00 FA FF FF FF 
    73)       281.2  Rx     18EF1C8F  8  0D 60 00 77 7E E2 86 FC 
    74)       282.1  Rx     18EF1C8F  8  0D 61 17 00 23 00 83 03 
    75)       283.1  Rx     18EF1C8F  8  0D 62 15 00 0C 00 0B 00 
    76)       293.0  Rx     18EFCD1C  8  A0 00 14 00 00 00 00 00 
    77)       293.6  Rx     18EF1CCD  8  A0 00 14 00 77 07 00 00 
    78)       301.1  Rx     18EF1CCD  8  A2 00 00 00 00 00 00 00 
    79)       301.7  Rx     18EF1C8F  8  0D 70 00 97 CC E2 85 FC 
    80)       302.2  Rx     18EF1C8F  8  0D 71 16 00 23 00 84 03 
    81)       303.1  Rx     18EF1C8F  8  0D 72 16 00 0B 00 0E 00 
    82)       313.0  Rx     18EFCD1C  8  A0 00 2A 00 00 00 00 00 
    83)       313.7  Rx     18EF1CCD  8  A0 00 2A 00 77 05 00 00 
    84)       321.2  Rx     18EF1CCD  8  A3 00 00 00 00 FA FF FA 
    85)       321.7  Rx     18EF1C8F  8  0D 80 00 B4 1A E3 86 FC 
    86)       322.3  Rx     18EF1C8F  8  0D 81 15 00 21 00 82 03 
    87)       323.1  Rx     18EF1C8F  8  0D 82 14 00 0B 00 0E 00 
    88)       333.0  Rx     18EFCD1C  8  A0 00 1B 00 00 00 00 00 
    89)       333.7  Rx     18EF1CCD  8  A0 00 1B 00 00 00 00 00 
    90)       341.2  Rx     18EF1CCD  8  A1 40 FA FF FF FF 00 00 
    91)       341.8  Rx     18EF1C8F  8  0D 90 00 D7 68 E3 86 FC 
    92)       342.3  Rx     18EF1C8F  8  0D 91 17 00 23 00 82 03 
    93)       343.1  Rx     18EF1C8F  8  0D 92 13 00 09 00 0D 00 
    94)       353.0  Rx     18EFCD1C  8  A0 00 00 00 00 00 00 00 
    95)       353.6  Rx     18EF1CCD  8  A0 00 00 00 01 00 00 00 
    96)       361.2  Rx     18EF1C8F  8  0D A0 00 F4 B6 E3 86 FC 
    97)       362.1  Rx     18EF1C8F  8  0D A1 15 00 22 00 83 03 
    98)       363.1  Rx     18EF1C8F  8  0D A2 15 00 05 00 0D 00 
    99)       381.2  Rx     18EF1C8F  8  0D B0 00 14 05 E4 85 FC 
   100)       382.1  Rx     18EF1C8F  8  0D B1 15 00 24 00 83 03 
   101)       383.2  Rx     18EF1C8F  8  0D B2 17 00 07 00 0C 00 
   102)       401.2  Rx     18EF1C8F  8  0D C0 00 34 53 E4 85 FC 
   103)       401.8  Rx     18EF1CCD  8  A2 00 00 00 00 00 00 00 
   104)       402.4  Rx     18EF1C8F  8  0D C1 16 00 23 00 83 03 
   105)       403.1  Rx     18EF1C8F  8  0D C2 13 00 0B 00 0F 00 
   106)       421.2  Rx     18EF1C8F  8  0D D0 00 54 A1 E4 86 FC 
   107)       421.8  Rx     18EF1CCD  8  A3 00 00 00 00 FA FF FA 
   108)       422.3  Rx     18EF1C8F  8  0D D1 15 00 1F 00 83 03 
   109)       423.1  Rx     18EF1C8F  8  0D D2 14 00 0E 00 0E 00 
   110)       441.3  Rx     18EF1C8F  8  0D E0 00 74 EF E4 85 FC 
   111)       441.8  Rx     18EF1CCD  8  A1 40 FA FF FF FF 00 00 
   112)       442.4  Rx     18EF1C8F  8  0D E1 15 00 22 00 83 03 
   113)       443.2  Rx     18EF1C8F  8  0D E2 14 00 0A 00 0E 00 
   114)       461.2  Rx     18EF1C8F  8  0D F0 00 94 3D E5 86 FC 
   115)       462.2  Rx     18EF1C8F  8  0D F1 16 00 22 00 83 03 
   116)       463.1  Rx     18EF1C8F  8  0D F2 14 00 0C 00 0E 00 
   117)       473.2  Rx     18EFCD1C  8  A1 01 00 00 FA FF FF FF 
   118)       481.2  Rx     18EF1C8F  8  0D 00 00 B4 8B E5 86 FC 
   119)       482.1  Rx     18EF1C8F  8  0D 01 15 00 22 00 81 03 
   120)       483.2  Rx     18EF1C8F  8  0D 02 14 00 09 00 0F 00 
   121)       493.0  Rx     18EFCD1C  8  A0 00 14 00 00 00 00 00 
   122)       493.6  Rx     18EF1CCD  8  A0 00 14 00 79 07 00 00 
   123)       501.2  Rx     18EF1C8F  8  0D 10 00 D7 D9 E5 86 FC 
   124)       501.8  Rx     18EF1CCD  8  A2 00 00 00 00 00 00 00 
   125)       502.4  Rx     18EF1C8F  8  0D 11 15 00 21 00 83 03 
   126)       503.1  Rx     18EF1C8F  8  0D 12 14 00 0A 00 0E 00 
   127)       513.1  Rx     18EFCD1C  8  A0 00 2A 00 00 00 00 00 
   128)       513.7  Rx     18EF1CCD  8  A0 00 2A 00 75 05 00 00 
   129)       521.2  Rx     18EF1C8F  8  0D 20 00 F4 27 E6 86 FC 
   130)       521.8  Rx     18EF1CCD  8  A3 00 00 00 00 FA FF FA 
   131)       522.3  Rx     18EF1C8F  8  0D 21 15 00 23 00 81 03 
   132)       523.2  Rx     18EF1C8F  8  0D 22 15 00 0A 00 0C 00 
   133)       533.0  Rx     18EFCD1C  8  A0 00 1B 00 00 00 00 00 
   134)       533.7  Rx     18EF1CCD  8  A0 00 1B 00 00 00 00 00 
   135)       541.2  Rx     18EF1C8F  8  0D 30 00 14 76 E6 86 FC 
   136)       541.8  Rx     18EF1CCD  8  A1 40 FA FF FF FF 00 00 
   137)       542.4  Rx     18EF1C8F  8  0D 31 16 00 23 00 83 03 
   138)       543.1  Rx     18EF1C8F  8  0D 32 15 00 09 00 0E 00 
   139)       553.1  Rx     18EFCD1C  8  A0 00 00 00 00 00 00 00 
   140)       553.7  Rx     18EF1CCD  8  A0 00 00 00 01 00 00 00 
   141)       561.2  Rx     18EF1C8F  8  0D 40 00 37 C4 E6 86 FC 
   142)       562.1  Rx     18EF1C8F  8  0D 41 15 00 23 00 81 03 
   143)       563.2  Rx     18EF1C8F  8  0D 42 14 00 09 00 0E 00 
   144)       581.2  Rx     18EF1C8F  8  0D 50 00 54 12 E7 86 FC 
   145)       582.2  Rx     18EF1C8F  8  0D 51 17 00 21 00 83 03 
   146)       583.1  Rx     18EF1C8F  8  0D 52 15 00 09 00 0D 00 
   147)       601.2  Rx     18EF1C8F  8  0D 60 00 74 60 E7 86 FC 
   148)       601.8  Rx     18EF1CCD  8  A2 00 00 00 00 00 00 00 
   149)       602.4  Rx     18EF1C8F  8  0D 61 16 00 23 00 84 03 
   150)       603.2  Rx     18EF1C8F  8  0D 62 14 00 08 00 0E 00 
   151)       621.2  Rx     18EF1C8F  8  0D 70 00 94 AE E7 86 FC 
   152)       621.8  Rx     18EF1CCD  8  A3 00 00 00 00 FA FF FA 
   153)       622.4  Rx     18EF1C8F  8  0D 71 16 00 22 00 84 03 
   154)       623.1  Rx     18EF1C8F  8  0D 72 14 00 09 00 0F 00 
   155)       636.8  Rx     18EF8F1C  4  01 76 CF 00 
   156)       638.0  Rx     18EF1C8F  4  01 D0 76 00 
   157)       641.2  Rx     18EF1C8F  8  0D 80 00 B4 FC E7 86 FC 
   158)       641.9  Rx     18EF1CCD  8  A1 40 FA FF FF FF 00 00 
   159)       642.5  Rx     18EF1C8F  8  0D 81 13 00 23 00 83 03 
   160)       643.1  Rx     18EF1C8F  8  0D 82 14 00 0B 00 0D 00 
   161)       661.2  Rx     18EF1C8F  8  0D 90 00 D4 4A E8 86 FC 
   162)       662.1  Rx     18EF1C8F  8  0D 91 14 00 23 00 84 03 
   163)       663.1  Rx     18EF1C8F  8  0D 92 13 00 09 00 0D 00 
   164)       673.1  Rx     18EFCD1C  8  A1 01 00 00 FA FF FF FF 
   165)       681.2  Rx     18EF1C8F  8  0D A0 00 F4 98 E8 86 FC 
   166)       682.1  Rx     18EF1C8F  8  0D A1 17 00 24 00 83 03 
   167)       683.1  Rx     18EF1C8F  8  0D A2 15 00 0A 00 0E 00 
   168)       693.0  Rx     18EFCD1C  8  A0 00 14 00 00 00 00 00 
   169)       693.7  Rx     18EF1CCD  8  A0 00 14 00 79 07 00 00 
   170)       701.2  Rx     18EF1C8F  8  0D B0 00 17 E7 E8 86 FC 
   171)       702.0  Rx     18EF1CCD  8  A2 00 00 00 00 00 00 00 
   172)       702.6  Rx     18EF1C8F  8  0D B1 15 00 23 00 83 03 
   173)       703.2  Rx     18EF1C8F  8  0D B2 14 00 0B 00 0E 00 
   174)       713.1  Rx     18EFCD1C  8  A0 00 2A 00 00 00 00 00 
   175)       713.7  Rx     18EF1CCD  8  A0 00 2A 00 77 05 00 00 
   176)       721.2  Rx     18EF1C8F  8  0D C0 00 34 35 E9 86 FC 
   177)       722.1  Rx     18EF1CCD  8  A3 00 00 00 00 FA FF FA 
   178)       722.6  Rx     18EF1C8F  8  0D C1 17 00 23 00 85 03 
   179)       723.2  Rx     18EF1C8F  8  0D C2 14 00 0A 00 0D 00 
   180)       733.0  Rx     18EFCD1C  8  A0 00 1B 00 00 00 00 00 
   181)       733.7  Rx     18EF1CCD  8  A0 00 1B 00 00 00 00 00 
   182)       741.2  Rx     18EF1C8F  8  0D D0 00 57 83 E9 86 FC 
   183)       742.1  Rx     18EF1CCD  8  A1 40 FA FF FF FF 00 00 
   184)       742.6  Rx     18EF1C8F  8  0D D1 18 00 21 00 84 03 
   185)       743.2  Rx     18EF1C8F  8  0D D2 12 00 0C 00 0E 00 
   186)       753.0  Rx     18EFCD1C  8  A0 00 00 00 00 00 00 00 
   187)       753.7  Rx     18EF1CCD  8  A0 00 00 00 01 00 00 00 
   188)       761.2  Rx     18EF1C8F  8  0D E0 00 74 D1 E9 86 FC 
   189)       762.2  Rx     18EF1C8F  8  0D E1 17 00 21 00 83 03 
   190)       763.1  Rx     18EF1C8F  8  0D E2 14 00 0C 00 0C 00 
   191)       781.2  Rx     18EF1C8F  8  0D F0 00 94 1F EA 86 FC 
   192)       782.1  Rx     18EF1C8F  8  0D F1 17 00 20 00 83 03 
   193)       783.2  Rx     18EF1C8F  8  0D F2 16 00 0B 00 0F 00 
   194)       801.2  Rx     18EF1C8F  8  0D 00 00 B4 6D EA 86 FC 
   195)       802.1  Rx     18EF1C8F  8  0D 01 18 00 22 00 83 03 
   196)       802.7  Rx     18EF1CCD  8  A2 00 00 00 00 00 00 00 
   197)       803.3  Rx     18EF1C8F  8  0D 02 16 00 0C 00 0D 00 
   198)       821.2  Rx     18EF1C8F  8  0D 10 00 D4 BB EA 86 FC 
   199)       822.1  Rx     18EF1C8F  8  0D 11 17 00 22 00 84 03 
   200)       822.7  Rx     18EF1CCD  8  A3 00 00 00 00 FA FF FA 
   201)       823.3  Rx     18EF1C8F  8  0D 12 14 00 0C 00 11 00 
   202)       841.3  Rx     18EF1C8F  8  0D 20 00 F4 09 EB 86 FC 
   203)       842.1  Rx     18EF1C8F  8  0D 21 18 00 22 00 83 03 
   204)       842.7  Rx     18EF1CCD  8  A1 40 FA FF FF FF 00 00 
   205)       843.3  Rx     18EF1C8F  8  0D 22 16 00 0C 00 11 00 
   206)       861.2  Rx     18EF1C8F  8  0D 30 00 14 58 EB 86 FC 
   207)       862.2  Rx     18EF1C8F  8  0D 31 16 00 23 00 83 03 
   208)       863.1  Rx     18EF1C8F  8  0D 32 13 00 0B 00 10 00 
   209)       873.3  Rx     18EFCD1C  8  A1 01 00 00 FA FF FF FF 
   210)       881.2  Rx     18EF1C8F  8  0D 40 00 34 A6 EB 86 FC 
   211)       882.2  Rx     18EF1C8F  8  0D 41 16 00 23 00 82 03 
   212)       883.2  Rx     18EF1C8F  8  0D 42 12 00 0E 00 0E 00 
   213)       893.0  Rx     18EFCD1C  8  A0 00 14 00 00 00 00 00 
   214)       893.7  Rx     18EF1CCD  8  A0 00 14 00 7A 07 00 00 
   215)       901.3  Rx     18EF1C8F  8  0D 50 00 57 F4 EB 86 FC 
   216)       902.2  Rx     18EF1C8F  8  0D 51 13 00 21 00 81 03 
   217)       902.8  Rx     18EF1CCD  8  A2 00 00 00 00 00 00 00 
   218)       903.3  Rx     18EF1C8F  8  0D 52 14 00 09 00 0F 00 
   219)       913.1  Rx     18EFCD1C  8  A0 00 2A 00 00 00 00 00 
   220)       913.7  Rx     18EF1CCD  8  A0 00 2A 00 77 05 00 00 
   221)       921.2  Rx     18EF1C8F  8  0D 60 00 74 42 EC 86 FC 
   222)       922.2  Rx     18EF1C8F  8  0D 61 15 00 21 00 84 03 
   223)       922.7  Rx     18EF1CCD  8  A3 00 00 00 00 FA FF FA 
   224)       923.3  Rx     18EF1C8F  8  0D 62 15 00 08 00 0D 00 
   225)       933.0  Rx     18EFCD1C  8  A0 00 1B 00 00 00 00 00 
   226)       933.7  Rx     18EF1CCD  8  A0 00 1B 00 00 00 00 00 
   227)       941.3  Rx     18EF1C8F  8  0D 70 00 94 90 EC 86 FC 
   228)       942.2  Rx     18EF1C8F  8  0D 71 15 00 24 00 81 03 
   229)       942.8  Rx     18EF1CCD  8  A1 40 FA FF FF FF 00 00 
   230)       943.3  Rx     18EF1C8F  8  0D 72 16 00 06 00 0E 00 
   231)       953.1  Rx     18EFCD1C  8  A0 00 00 00 00 00 00 00 
   232)       953.7  Rx     18EF1CCD  8  A0 00 00 00 01 00 00 00 
   233)       961.2  Rx     18EF1C8F  8  0D 80 00 B7 DE EC 86 FC 
   234)       962.2  Rx     18EF1C8F  8  0D 81 13 00 22 00 85 03 
   235)       963.2  Rx     18EF1C8F  8  0D 82 15 00 0A 00 0C 00 
   236)       981.3  Rx     18EF1C8F  8  0D 90 00 D4 2C ED 86 FC 
   237)       982.2  Rx     18EF1C8F  8  0D 91 16 00 20 00 85 03 
   238)       983.2  Rx     18EF1C8F  8  0D 92 15 00 0B 00 0D 00 
   239)       992.9  Rx     18EFCD1C  4  01 30 E0 00 
   240)       993.4  Rx     18EF1CCD  4  01 E1 30 00 
   241)      1001.2  Rx     18EF1C8F  8  0D A0 00 F4 7A ED 86 FC 
   242)      1002.2  Rx     18EF1C8F  8  0D A1 15 00 21 00 86 03 
   243)      1002.8  Rx     18EF1CCD  8  A2 00 00 00 00 00 00 00 
   244)      1003.3  Rx     18EF1C8F  8  0D A2 15 00 0D 00 0D 00 
   245)      1021.3  Rx     18EF1C8F  8  0D B0 00 14 C9 ED 86 FC 
   246)      1022.2  Rx     18EF1C8F  8  0D B1 15 00 20 00 84 03 
   247)      1022.8  Rx     18EF1CCD  8  A3 00 00 00 00 FA FF FA 
   248)      1023.3  Rx     18EF1C8F  8  0D B2 13 00 0F 00 0C 00 
   249)      1041.3  Rx     18EF1C8F  8  0D C0 00 34 17 EE 86 FC 
   250)      1042.2  Rx     18EF1C8F  8  0D C1 15 00 21 00 84 03 
   251)      1042.8  Rx     18EF1CCD  8  A1 40 FA FF FF FF 00 00 
   252)      1043.4  Rx     18EF1C8F  8  0D C2 16 00 0B 00 0E 00 
   253)      1061.2  Rx     18EF1C8F  8  0D D0 00 54 65 EE 86 FC 
   254)      1062.2  Rx     18EF1C8F  8  0D D1 17 00 22 00 83 03 
   255)      1063.2  Rx     18EF1C8F  8  0D D2 16 00 0B 00 0E 00 
   256)      1073.2  Rx     18EFCD1C  8  A1 01 00 00 FA FF FF FF 
   257)      1081.3  Rx     18EF1C8F  8  0D E0 00 74 B3 EE 86 FC 
   258)      1082.2  Rx     18EF1C8F  8  0D E1 16 00 23 00 82 03 
   259)      1083.2  Rx     18EF1C8F  8  0D E2 15 00 08 00 0E 00 
   260)      1093.1  Rx     18EFCD1C  8  A0 00 14 00 00 00 00 00 
   261)      1093.7  Rx     18EF1CCD  8  A0 00 14 00 78 07 00 00 
   262)      1101.3  Rx     18EF1C8F  8  0D F0 00 97 01 EF 86 FC 
   263)      1102.2  Rx     18EF1C8F  8  0D F1 16 00 23 00 81 03 
   264)      1102.9  Rx     18EF1CCD  8  A2 00 00 00 00 00 00 00 
   265)      1103.5  Rx     18EF1C8F  8  0D F2 15 00 05 00 0E 00 
   266)      1113.1  Rx     18EFCD1C  8  A0 00 2A 00 00 00 00 00 
   267)      1113.7  Rx     18EF1CCD  8  A0 00 2A 00 76 05 00 00 
   268)      1121.3  Rx     18EF1C8F  8  0D 00 00 B4 4F EF 86 FC 
   269)      1122.2  Rx     18EF1C8F  8  0D 01 16 00 23 00 81 03 
   270)      1123.0  Rx     18EF1CCD  8  A3 00 00 00 00 FA FF FA 
   271)      1123.6  Rx     18EF1C8F  8  0D 02 16 00 05 00 0D 00 
   272)      1133.1  Rx     18EFCD1C  8  A0 00 1B 00 00 00 00 00 
   273)      1133.7  Rx     18EF1CCD  8  A0 00 1B 00 00 00 00 00 
   274)      1141.3  Rx     18EF1C8F  8  0D 10 00 D4 9D EF 86 FC 
   275)      1142.2  Rx     18EF1C8F  8  0D 11 18 00 24 00 7E 03 
   276)      1143.0  Rx     18EF1CCD  8  A1 40 FA FF FF FF 00 00 
   277)      1143.6  Rx     18EF1C8F  8  0D 12 16 00 05 00 0F 00 
   278)      1153.1  Rx     18EFCD1C  8  A0 00 00 00 00 00 00 00 
   279)      1153.7  Rx     18EF1CCD  8  A0 00 00 00 01 00 00 00 
   280)      1161.3  Rx     18EF1C8F  8  0D 20 00 F7 EB EF 86 FC 
   281)      1162.2  Rx     18EF1C8F  8  0D 21 17 00 24 00 83 03 
   282)      1163.2  Rx     18EF1C8F  8  0D 22 14 00 08 00 0C 00 
   283)      1181.3  Rx     18EF1C8F  8  0D 30 00 14 3A F0 86 FC 
   284)      1182.2  Rx     18EF1C8F  8  0D 31 18 00 22 00 85 03 
   285)      1183.2  Rx     18EF1C8F  8  0D 32 13 00 0D 00 0C 00 
   286)      1201.3  Rx     18EF1C8F  8  0D 40 00 34 88 F0 86 FC 
   287)      1202.2  Rx     18EF1C8F  8  0D 41 18 00 22 00 85 03 
   288)      1203.2  Rx     18EF1CCD  8  A2 00 00 00 00 00 00 00 
   289)      1203.8  Rx     18EF1C8F  8  0D 42 14 00 0D 00 0C 00 
   290)      1214.7  Rx     18FEF31C  8  5E 29 80 99 AC CE 2C 89 
   291)      1215.2  Rx     18FEE81C  8  97 4F 00 00 00 00 10 52 
   292)      1215.8  Rx     18FEE61C  8  28 0C 0E 09 57 29 00 00 
   293)      1216.3  Rx     19F0101C  8  F3 00 EE 50 63 D2 79 1E 
   294)      1216.9  Rx     19F8021C  8  F3 FC 86 6C 00 00 FF FF 
   295)      1221.3  Rx     18EF1C8F  8  0D 50 00 57 D6 F0 86 FC 
   296)      1222.2  Rx     18EF1C8F  8  0D 51 17 00 23 00 86 03 
   297)      1223.2  Rx     18EF1C8F  8  0D 52 11 00 0F 00 0B 00 
   298)      1223.8  Rx     18EF1CCD  8  A3 00 00 00 00 FA FF FA 
   299)      1241.3  Rx     18EF1C8F  8  0D 60 00 74 24 F1 86 FC 
   300)      1242.2  Rx     18EF1C8F  8  0D 61 17 00 23 00 85 03 
   301)      1243.2  Rx     18EF1C8F  8  0D 62 12 00 0E 00 0D 00 
   302)      1243.8  Rx     18EF1CCD  8  A1 40 FA FF FF FF 00 00 
   303)      1260.6  Rx     19F8051C  8  A0 2F F3 EE 50 63 D2 79 
   304)      1261.1  Rx     19F8051C  8  A1 1E 80 CE 24 2F E1 A6 
   305)      1261.7  Rx     18EF1C8F  8  0D 70 00 94 72 F1 86 FC 
   306)      1262.2  Rx     18EF1C8F  8  0D 71 17 00 1E 00 84 03 
   307)      1262.8  Rx     19F8051C  8  A2 98 06 E0 65 4B B4 F3 
   308)      1263.4  Rx     18EF1C8F  8  0D 72 13 00 0F 00 0D 00 
   309)      1263.9  Rx     19F8051C  8  A3 91 CB 02 41 40 68 08 
   310)      1264.5  Rx     19F8051C  8  A4 00 00 00 00 20 00 0A 
   311)      1265.0  Rx     19F8051C  8  A5 64 00 64 00 DC 05 00 
   312)      1265.6  Rx     19F8051C  8  A6 00 01 0F 00 00 00 FF 
   313)      1273.2  Rx     18EFCD1C  8  A1 01 00 00 FA FF FF FF 
   314)      1281.3  Rx     18EF1C8F  8  0D 80 00 B9 C0 F1 86 FC 
   315)      1282.2  Rx     18EF1C8F  8  0D 81 18 00 22 00 83 03 
   316)      1283.2  Rx     18EF1C8F  8  0D 82 15 00 0B 00 0F 00 
   317)      1293.1  Rx     18EFCD1C  8  A0 00 14 00 00 00 00 00 
   318)      1293.7  Rx     18EF1CCD  8  A0 00 14 00 79 07 00 00 
   319)      1301.3  Rx     18EF1C8F  8  0D 90 00 D4 0E F2 86 FC 
   320)      1302.2  Rx     18EF1C8F  8  0D 91 18 00 22 00 83 03 
   321)      1303.2  Rx     18EF1C8F  8  0D 92 16 00 03 00 10 00 
   322)      1303.8  Rx     18EF1CCD  8  A2 00 00 00 00 00 00 00 
   323)      1313.1  Rx     18EFCD1C  8  A0 00 2A 00 00 00 00 00 
   324)      1313.8  Rx     18EF1CCD  8  A0 00 2A 00 76 05 00 00 
   325)      1321.3  Rx     18EF1C8F  8  0D A0 00 F7 5C F2 86 FC 
   326)      1322.3  Rx     18EF1C8F  8  0D A1 16 00 21 00 83 03 
   327)      1323.2  Rx     18EF1C8F  8  0D A2 16 00 03 00 10 00 
   328)      1323.8  Rx     18EF1CCD  8  A3 00 00 00 00 FA FF FA 
   329)      1333.1  Rx     18EFCD1C  8  A0 00 1B 00 00 00 00 00 
   330)      1333.8  Rx     18EF1CCD  8  A0 00 1B 00 00 00 00 00 
   331)      1341.3  Rx     18EF1C8F  8  0D B0 00 14 AB F2 86 FC 
   332)      1342.2  Rx     18EF1C8F  8  0D B1 17 00 23 00 81 03 
   333)      1343.3  Rx     18EF1C8F  8  0D B2 17 00 06 00 10 00 
   334)      1343.8  Rx     18EF1CCD  8  A1 40 FA FF FF FF 00 00 
   335)      1353.1  Rx     18EFCD1C  8  A0 00 00 00 00 00 00 00 
   336)      1353.7  Rx     18EF1CCD  8  A0 00 00 00 01 00 00 00 
   337)      1361.4  Rx     18EF1C8F  8  0D C0 00 34 F9 F2 86 FC 
   338)      1362.3  Rx     18EF1C8F  8  0D C1 16 00 22 00 81 03 
   339)      1363.2  Rx     18EF1C8F  8  0D C2 17 00 0A 00 0F 00 
   340)      1381.3  Rx     18EF1C8F  8  0D D0 00 54 47 F3 86 FC 
   341)      1382.3  Rx     18EF1C8F  8  0D D1 18 00 22 00 82 03 
   342)      1383.3  Rx     18EF1C8F  8  0D D2 13 00 0F 00 10 00 
   343)      1401.4  Rx     18EF1C8F  8  0D E0 00 74 95 F3 86 FC 
   344)      1402.3  Rx     18EF1C8F  8  0D E1 15 00 23 00 82 03 
   345)      1403.3  Rx     18EF1C8F  8  0D E2 13 00 10 00 0D 00 
   346)      1403.8  Rx     18EF1CCD  8  A2 00 00 00 00 00 00 00 
   347)      1421.3  Rx     18EF1C8F  8  0D F0 00 94 E3 F3 86 FC 
   348)      1422.3  Rx     18EF1C8F  8  0D F1 15 00 21 00 83 03 
   349)      1423.3  Rx     18EF1C8F  8  0D F2 11 00 12 00 0F 00 
   350)      1423.9  Rx     18EF1CCD  8  A3 00 00 00 00 FA FF FA 
   351)      1441.4  Rx     18EF1C8F  8  0D 00 00 B4 31 F4 86 FC 
   352)      1442.3  Rx     18EF1C8F  8  0D 01 15 00 22 00 84 03 
   353)      1443.3  Rx     18EF1C8F  8  0D 02 10 00 11 00 10 00 
   354)      1443.8  Rx     18EF1CCD  8  A1 40 FA FF FF FF 00 00 
   355)      1461.4  Rx     18EF1C8F  8  0D 10 00 D4 7F F4 86 FC 
   356)      1462.3  Rx     18EF1C8F  8  0D 11 14 00 22 00 83 03 
   357)      1463.3  Rx     18EF1C8F  8  0D 12 13 00 0C 00 0E 00 
   358)      1473.2  Rx     18EFCD1C  8  A1 01 00 00 FA FF FF FF 
   359)      1481.4  Rx     18EF1C8F  8  0D 20 00 F7 CD F4 85 FC 
   360)      1482.3  Rx     18EF1C8F  8  0D 21 14 00 21 00 84 03 
   361)      1483.3  Rx     18EF1C8F  8  0D 22 15 00 0A 00 0E 00 
   362)      1493.2  Rx     18EFCD1C  8  A0 00 14 00 00 00 00 00 
   363)      1493.7  Rx     18EF1CCD  8  A0 00 14 00 7A 07 00 00 
   364)      1501.4  Rx     18EF1C8F  8  0D 30 00 14 1C F5 86 FC 
   365)      1502.3  Rx     18EF1C8F  8  0D 31 15 00 22 00 85 03 
   366)      1503.3  Rx     18EF1C8F  8  0D 32 14 00 06 00 0D 00 
   367)      1504.0  Rx     18EF1CCD  8  A2 00 00 00 00 00 00 00 
   368)      1513.2  Rx     18EFCD1C  8  A0 00 2A 00 00 00 00 00 
   369)      1513.9  Rx     18EF1CCD  8  A0 00 2A 00 76 05 00 00 
   370)      1521.4  Rx     18EF1C8F  8  0D 40 00 34 6A F5 86 FC 
   371)      1522.3  Rx     18EF1C8F  8  0D 41 15 00 22 00 84 03 
   372)      1523.3  Rx     18EF1C8F  8  0D 42 15 00 03 00 0E 00 
   373)      1524.0  Rx     18EF1CCD  8  A3 00 00 00 00 FA FF FA 
   374)      1533.2  Rx     18EFCD1C  8  A0 00 1B 00 00 00 00 00 
   375)      1533.8  Rx     18EF1CCD  8  A0 00 1B 00 00 00 00 00 
   376)      1541.4  Rx     18EF1C8F  8  0D 50 00 54 B8 F5 85 FC 
   377)      1542.3  Rx     18EF1C8F  8  0D 51 16 00 22 00 84 03 
   378)      1543.3  Rx     18EF1C8F  8  0D 52 17 00 07 00 0C 00 
   379)      1544.1  Rx     18EF1CCD  8  A1 40 FA FF FF FF 00 00 
   380)      1553.2  Rx     18EFCD1C  8  A0 00 00 00 00 00 00 00 
   381)      1553.8  Rx     18EF1CCD  8  A0 00 00 00 01 00 00 00 
   382)      1561.4  Rx     18EF1C8F  8  0D 60 00 77 06 F6 85 FC 
   383)      1562.3  Rx     18EF1C8F  8  0D 61 16 00 23 00 82 03 
   384)      1563.3  Rx     18EF1C8F  8  0D 62 15 00 09 00 0B 00 
   385)      1581.4  Rx     18EF1C8F  8  0D 70 00 94 54 F6 86 FC 
   386)      1582.3  Rx     18EF1C8F  8  0D 71 16 00 21 00 83 03 
   387)      1583.3  Rx     18EF1C8F  8  0D 72 16 00 0C 00 0C 00 
   388)      1601.4  Rx     18EF1C8F  8  0D 80 00 B4 A2 F6 86 FC 
   389)      1602.3  Rx     18EF1C8F  8  0D 81 14 00 22 00 81 03 
   390)      1603.3  Rx     18EF1C8F  8  0D 82 19 00 0D 00 0D 00 
   391)      1604.2  Rx     18EF1CCD  8  A2 00 00 00 00 00 00 00 
   392)      1621.4  Rx     18EF1C8F  8  0D 90 00 D4 F0 F6 85 FC 
   393)      1622.3  Rx     18EF1C8F  8  0D 91 17 00 22 00 83 03 
   394)      1623.3  Rx     18EF1C8F  8  0D 92 18 00 0E 00 0C 00 
   395)      1624.2  Rx     18EF1CCD  8  A3 00 00 00 00 FA FF FA 
   396)      1641.4  Rx     18EF1C8F  8  0D A0 00 F4 3E F7 86 FC 
   397)      1642.3  Rx     18EF1C8F  8  0D A1 16 00 22 00 82 03 
   398)      1643.3  Rx     18EF1C8F  8  0D A2 12 00 0E 00 0A 00 
   399)      1644.3  Rx     18EF1CCD  8  A1 40 FA FF FF FF 00 00 
   400)      1661.4  Rx     18EF1C8F  8  0D B0 00 17 8D F7 86 FC 
   401)      1662.3  Rx     18EF1C8F  8  0D B1 16 00 22 00 83 03 
   402)      1663.3  Rx     18EF1C8F  8  0D B2 12 00 0A 00 0C 00 
   403)      1673.3  Rx     18EFCD1C  8  A1 01 00 00 FA FF FF FF 
   404)      1681.4  Rx     18EF1C8F  8  0D C0 00 34 DB F7 86 FC 
   405)      1682.4  Rx     18EF1C8F  8  0D C1 17 00 21 00 82 03 
   406)      1683.3  Rx     18EF1C8F  8  0D C2 13 00 06 00 0E 00 
   407)      1693.2  Rx     18EFCD1C  8  A0 00 14 00 00 00 00 00 
   408)      1693.9  Rx     18EF1CCD  8  A0 00 14 00 79 07 00 00 
   409)      1701.4  Rx     18EF1C8F  8  0D D0 00 54 29 F8 86 FC 
   410)      1702.3  Rx     18EF1C8F  8  0D D1 18 00 23 00 84 03 
   411)      1703.4  Rx     18EF1C8F  8  0D D2 13 00 04 00 10 00 
   412)      1704.4  Rx     18EF1CCD  8  A2 00 00 00 00 00 00 00 
   413)      1713.2  Rx     18EFCD1C  8  A0 00 2A 00 00 00 00 00 
   414)      1713.9  Rx     18EF1CCD  8  A0 00 2A 00 76 05 00 00 
   415)      1721.5  Rx     18EF1C8F  8  0D E0 00 77 77 F8 86 FC 
   416)      1722.4  Rx     18EF1C8F  8  0D E1 17 00 23 00 84 03 
   417)      1723.3  Rx     18EF1C8F  8  0D E2 13 00 04 00 0F 00 
   418)      1724.5  Rx     18EF1CCD  8  A3 00 00 00 00 FA FF FA 
   419)      1733.2  Rx     18EFCD1C  8  A0 00 1B 00 00 00 00 00 
   420)      1733.9  Rx     18EF1CCD  8  A0 00 1B 00 00 00 00 00 
   421)      1741.4  Rx     18EF1C8F  8  0D F0 00 97 C5 F8 86 FC 
   422)      1742.4  Rx     18EF1C8F  8  0D F1 19 00 23 00 84 03 
   423)      1743.3  Rx     18EF1C8F  8  0D F2 14 00 04 00 0E 00 
   424)      1744.5  Rx     18EF1CCD  8  A1 40 FA FF FF FF 00 00 
   425)      1753.2  Rx     18EFCD1C  8  A0 00 00 00 00 00 00 00 
   426)      1753.9  Rx     18EF1CCD  8  A0 00 00 00 01 00 00 00 
   427)      1761.5  Rx     18EF1C8F  8  0D 00 00 B4 13 F9 86 FC 
   428)      1762.3  Rx     18EF1C8F  8  0D 01 18 00 23 00 84 03 
   429)      1763.4  Rx     18EF1C8F  8  0D 02 16 00 08 00 0F 00 
   430)      1781.4  Rx     18EF1C8F  8  0D 10 00 D4 61 F9 86 FC 
   431)      1782.4  Rx     18EF1C8F  8  0D 11 16 00 23 00 84 03 
   432)      1783.3  Rx     18EF1C8F  8  0D 12 16 00 0C 00 0F 00 
   433)      1801.4  Rx     18EF1C8F  8  0D 20 00 F4 AF F9 85 FC 
   434)      1802.3  Rx     18EF1C8F  8  0D 21 18 00 22 00 84 03 
   435)      1803.4  Rx     18EF1C8F  8  0D 22 17 00 08 00 0F 00 
   436)      1804.7  Rx     18EF1CCD  8  A2 00 00 00 00 00 00 00 
   437)      1821.5  Rx     18EF1C8F  8  0D 30 00 14 FE F9 86 FC 
   438)      1822.4  Rx     18EF1C8F  8  0D 31 16 00 22 00 82 03 
   439)      1823.4  Rx     18EF1C8F  8  0D 32 15 00 09 00 0E 00 
   440)      1824.7  Rx     18EF1CCD  8  A3 00 00 00 00 FA FF FA 
   441)      1841.4  Rx     18EF1C8F  8  0D 40 00 37 4C FA 86 FC 
   442)      1842.4  Rx     18EF1C8F  8  0D 41 15 00 23 00 83 03 
   443)      1843.4  Rx     18EF1C8F  8  0D 42 17 00 0D 00 0E 00 
   444)      1844.8  Rx     18EF1CCD  8  A1 40 FA FF FF FF 00 00 
   445)      1861.5  Rx     18EF1C8F  8  0D 50 00 54 9A FA 85 FC 
   446)      1862.4  Rx     18EF1C8F  8  0D 51 16 00 22 00 84 03 
   447)      1863.4  Rx     18EF1C8F  8  0D 52 15 00 0D 00 0D 00 
   448)      1873.5  Rx     18EFCD1C  8  A1 01 00 00 FA FF FF FF 
   449)      1881.5  Rx     18EF1C8F  8  0D 60 00 74 E8 FA 86 FC 
   450)      1882.4  Rx     18EF1C8F  8  0D 61 16 00 21 00 83 03 
   451)      1883.4  Rx     18EF1C8F  8  0D 62 15 00 0A 00 0F 00 
   452)      1893.2  Rx     18EFCD1C  8  A0 00 14 00 00 00 00 00 
   453)      1893.9  Rx     18EF1CCD  8  A0 00 14 00 7A 07 00 00 
   454)      1901.5  Rx     18EF1C8F  8  0D 70 00 97 36 FB 86 FC 
   455)      1902.4  Rx     18EF1C8F  8  0D 71 16 00 22 00 81 03 
   456)      1903.4  Rx     18EF1C8F  8  0D 72 15 00 08 00 11 00 
   457)      1904.9  Rx     18EF1CCD  8  A2 00 00 00 00 00 00 00 
   458)      1913.3  Rx     18EFCD1C  8  A0 00 2A 00 00 00 00 00 
   459)      1913.9  Rx     18EF1CCD  8  A0 00 2A 00 76 05 00 00 
   460)      1921.5  Rx     18EF1C8F  8  0D 80 00 B4 84 FB 86 FC 
   461)      1922.4  Rx     18EF1C8F  8  0D 81 17 00 21 00 81 03 
   462)      1923.4  Rx     18EF1C8F  8  0D 82 13 00 09 00 0F 00 
   463)      1925.0  Rx     18EF1CCD  8  A3 00 00 00 00 FA FF FA 
   464)      1933.3  Rx     18EFCD1C  8  A0 00 1B 00 00 00 00 00 
   465)      1934.0  Rx     18EF1CCD  8  A0 00 1B 00 00 00 00 00 
   466)      1941.5  Rx     18EF1C8F  8  0D 90 00 D4 D2 FB 86 FC 
   467)      1942.4  Rx     18EF1C8F  8  0D 91 16 00 21 00 81 03 
   468)      1943.4  Rx     18EF1C8F  8  0D 92 13 00 09 00 0D 00 
   469)      1945.0  Rx     18EF1CCD  8  A1 40 FA FF FF FF 00 00 
   470)      1953.3  Rx     18EFCD1C  8  A0 00 00 00 00 00 00 00 
   471)      1954.0  Rx     18EF1CCD  8  A0 00 00 00 01 00 00 00 
   472)      1961.5  Rx     18EF1C8F  8  0D A0 00 F7 20 FC 86 FC 
   473)      1962.4  Rx     18EF1C8F  8  0D A1 16 00 22 00 82 03 
   474)      1963.4  Rx     18EF1C8F  8  0D A2 13 00 0A 00 0E 00 
   475)      1981.5  Rx     18EF1C8F  8  0D B0 00 14 6F FC 86 FC 
   476)      1982.4  Rx     18EF1C8F  8  0D B1 16 00 22 00 82 03 
   477)      1983.4  Rx     18EF1C8F  8  0D B2 14 00 0D 00 0B 00 
   478)      2001.5  Rx     18EF1C8F  8  0D C0 00 34 BD FC 86 FC 
   479)      2002.4  Rx     18EF1C8F  8  0D C1 16 00 23 00 83 03 
   480)      2003.4  Rx     18EF1C8F  8  0D C2 12 00 0E 00 0C 00 
   481)      2005.2  Rx     18EF1CCD  8  A2 00 00 00 00 00 00 00 
   482)      2021.5  Rx     18EF1C8F  8  0D D0 00 54 0B FD 86 FC 
   483)      2022.4  Rx     18EF1C8F  8  0D D1 13 00 21 00 82 03 
   484)      2023.4  Rx     18EF1C8F  8  0D D2 12 00 0C 00 0D 00 
   485)      2025.2  Rx     18EF1CCD  8  A3 00 00 00 00 FA FF FA 
   486)      2041.5  Rx     18EF1C8F  8  0D E0 00 74 59 FD 86 FC 
   487)      2042.4  Rx     18EF1C8F  8  0D E1 16 00 22 00 83 03 
   488)      2043.4  Rx     18EF1C8F  8  0D E2 14 00 0D 00 0E 00 
   489)      2045.3  Rx     18EF1CCD  8  A1 40 FA FF FF FF 00 00 
   490)      2061.5  Rx     18EF1C8F  8  0D F0 00 94 A7 FD 86 FC 
   491)      2062.4  Rx     18EF1C8F  8  0D F1 14 00 22 00 84 03 
   492)      2063.4  Rx     18EF1C8F  8  0D F2 14 00 0A 00 0F 00 
   493)      2073.5  Rx     18EFCD1C  8  A1 01 00 00 FA FF FF FF 
   494)      2081.5  Rx     18EF1C8F  8  0D 00 00 B4 F5 FD 86 FC 
   495)      2082.4  Rx     18EF1C8F  8  0D 01 15 00 23 00 83 03 
   496)      2083.5  Rx     18EF1C8F  8  0D 02 17 00 09 00 0C 00 
   497)      2093.3  Rx     18EFCD1C  8  A0 00 14 00 00 00 00 00 
   498)      2093.9  Rx     18EF1CCD  8  A0 00 14 00 79 07 00 00 
   499)      2101.5  Rx     18EF1C8F  8  0D 10 00 D7 43 FE 86 FC 
   500)      2102.5  Rx     18EF1C8F  8  0D 11 15 00 21 00 83 03 
   501)      2103.4  Rx     18EF1C8F  8  0D 12 16 00 08 00 0E 00 
   502)      2105.4  Rx     18EF1CCD  8  A2 00 00 00 00 00 00 00 
   503)      2113.3  Rx     18EFCD1C  8  A0 00 2A 00 00 00 00 00 
   504)      2114.0  Rx     18EF1CCD  8  A0 00 2A 00 76 05 00 00 
   505)      2121.5  Rx     18EF1C8F  8  0D 20 00 F7 91 FE 86 FC 
   506)      2122.4  Rx     18EF1C8F  8  0D 21 16 00 22 00 83 03 
   507)      2123.5  Rx     18EF1C8F  8  0D 22 15 00 08 00 10 00 
   508)      2125.5  Rx     18EF1CCD  8  A3 00 00 00 00 FA FF FA 
   509)      2133.3  Rx     18EFCD1C  8  A0 00 1B 00 00 00 00 00 
   510)      2134.0  Rx     18EF1CCD  8  A0 00 1B 00 00 00 00 00 
   511)      2141.6  Rx     18EF1C8F  8  0D 30 00 14 E0 FE 86 FC 
   512)      2142.5  Rx     18EF1C8F  8  0D 31 16 00 23 00 85 03 
   513)      2143.4  Rx     18EF1C8F  8  0D 32 13 00 06 00 11 00 
   514)      2145.5  Rx     18EF1CCD  8  A1 40 FA FF FF FF 00 00 
   515)      2153.3  Rx     18EFCD1C  8  A0 00 00 00 00 00 00 00 
   516)      2154.0  Rx     18EF1CCD  8  A0 00 00 00 01 00 00 00 
   517)      2161.5  Rx     18EF1C8F  8  0D 40 00 37 2E FF 86 FC 
   518)      2162.5  Rx     18EF1C8F  8  0D 41 15 00 24 00 81 03 
   519)      2163.5  Rx     18EF1C8F  8  0D 42 14 00 0A 00 0F 00 
   520)      2181.6  Rx     18EF1C8F  8  0D 50 00 54 7C FF 85 FC 
   521)      2182.5  Rx     18EF1C8F  8  0D 51 17 00 22 00 84 03 
   522)      2183.5  Rx     18EF1C8F  8  0D 52 15 00 0F 00 0F 00 
   523)      2201.5  Rx     18EF1C8F  8  0D 60 00 74 CA FF 85 FC 
   524)      2202.5  Rx     18EF1C8F  8  0D 61 15 00 20 00 82 03 
   525)      2203.4  Rx     18EF1C8F  8  0D 62 16 00 0D 00 0E 00 
   526)      2205.6  Rx     18EF1CCD  8  A2 00 00 00 00 00 00 00 
   527)      2214.7  Rx     18FEF31C  8  5E 29 80 99 AC CE 2C 89 
   528)      2215.2  Rx     18FEE81C  8  97 4F 00 00 00 00 10 52 
   529)      2215.8  Rx     18FEE61C  8  2C 0C 0E 09 57 29 00 00 
   530)      2216.4  Rx     19F8021C  8  F8 FC 86 6C 00 00 FF FF 
   531)      2221.6  Rx     18EF1C8F  8  0D 70 00 97 18 00 86 FC 
   532)      2222.4  Rx     18EF1C8F  8  0D 71 17 00 22 00 83 03 
   533)      2223.5  Rx     18EF1C8F  8  0D 72 14 00 0A 00 0E 00 
   534)      2225.7  Rx     18EF1CCD  8  A3 00 00 00 00 FA FF FA 
   535)      2241.5  Rx     18EF1C8F  8  0D 80 00 B4 66 00 86 FC 
   536)      2242.5  Rx     18EF1C8F  8  0D 81 14 00 22 00 83 03 
   537)      2243.4  Rx     18EF1C8F  8  0D 82 14 00 0A 00 0B 00 
   538)      2245.7  Rx     18EF1CCD  8  A1 40 FA FF FF FF 00 00 
   539)      2261.5  Rx     18EF1C8F  8  0D 90 00 D7 B4 00 86 FC 
   540)      2262.1  Rx     19F8051C  8  C0 2F F8 EE 50 73 F9 79 
   541)      2262.7  Rx     18EF1C8F  8  0D 91 16 00 23 00 82 03 
   542)      2263.2  Rx     19F8051C  8  C1 1E 80 CE 24 2F E1 A6 
   543)      2263.8  Rx     18EF1C8F  8  0D 92 14 00 0D 00 0F 00 
   544)      2264.3  Rx     19F8051C  8  C2 98 06 E0 65 4B B4 F3 
   545)      2264.9  Rx     19F8051C  8  C3 91 CB 02 41 40 68 08 
   546)      2265.4  Rx     19F8051C  8  C4 00 00 00 00 20 00 0A 
   547)      2266.0  Rx     19F8051C  8  C5 64 00 64 00 DC 05 00 
   548)      2266.6  Rx     19F8051C  8  C6 00 01 0F 00 00 00 FF 
   549)      2273.4  Rx     18EFCD1C  8  A1 01 00 00 FA FF FF FF 
   550)      2281.5  Rx     18EF1C8F  8  0D A0 00 F9 02 01 86 FC 
   551)      2282.5  Rx     18EF1C8F  8  0D A1 17 00 22 00 82 03 
   552)      2283.4  Rx     18EF1C8F  8  0D A2 14 00 0A 00 0E 00 
   553)      2293.3  Rx     18EFCD1C  8  A0 00 14 00 00 00 00 00 
   554)      2293.9  Rx     18EF1CCD  8  A0 00 14 00 79 07 00 00 
   555)      2301.5  Rx     18EF1C8F  8  0D B0 00 14 51 01 86 FC 
   556)      2302.4  Rx     18EF1C8F  8  0D B1 15 00 22 00 82 03 
   557)      2303.5  Rx     18EF1C8F  8  0D B2 14 00 0A 00 0C 00 
   558)      2305.8  Rx     18EF1CCD  8  A2 00 00 00 00 00 00 00 
   559)      2313.3  Rx     18EFCD1C  8  A0 00 2A 00 00 00 00 00 
   560)      2313.9  Rx     18EF1CCD  8  A0 00 2A 00 77 05 00 00 
   561)      2321.5  Rx     18EF1C8F  8  0D C0 00 37 9F 01 86 FC 
   562)      2322.5  Rx     18EF1C8F  8  0D C1 17 00 22 00 83 03 
   563)      2323.4  Rx     18EF1C8F  8  0D C2 16 00 07 00 0E 00 
   564)      2325.9  Rx     18EF1CCD  8  A3 00 00 00 00 FA FF FA 
   565)      2333.3  Rx     18EFCD1C  8  A0 00 1B 00 00 00 00 00 
   566)      2334.0  Rx     18EF1CCD  8  A0 00 1B 00 00 00 00 00 
   567)      2341.5  Rx     18EF1C8F  8  0D D0 00 54 ED 01 86 FC 
   568)      2342.4  Rx     18EF1C8F  8  0D D1 19 00 23 00 83 03 
   569)      2343.5  Rx     18EF1C8F  8  0D D2 15 00 07 00 0E 00 
   570)      2345.9  Rx     18EF1CCD  8  A1 40 FA FF FF FF 00 00 
   571)      2353.3  Rx     18EFCD1C  8  A0 00 00 00 00 00 00 00 
   572)      2354.0  Rx     18EF1CCD  8  A0 00 00 00 01 00 00 00 
   573)      2361.5  Rx     18EF1C8F  8  0D E0 00 74 3B 02 86 FC 
   574)      2362.5  Rx     18EF1C8F  8  0D E1 17 00 21 00 84 03 
   575)      2363.4  Rx     18EF1C8F  8  0D E2 15 00 03 00 0B 00 
   576)      2381.5  Rx     18EF1C8F  8  0D F0 00 94 89 02 86 FC 
   577)      2382.4  Rx     18EF1C8F  8  0D F1 17 00 21 00 86 03 
   578)      2383.5  Rx     18EF1C8F  8  0D F2 13 00 09 00 0E 00 
   579)      2401.5  Rx     18EF1C8F  8  0D 00 00 B4 D7 02 86 FC 
   580)      2402.4  Rx     18EF1C8F  8  0D 01 16 00 21 00 85 03 
   581)      2403.4  Rx     18EF1C8F  8  0D 02 15 00 0C 00 0D 00 
   582)      2406.1  Rx     18EF1CCD  8  A2 00 00 00 00 00 00 00 
   583)      2421.5  Rx     18EF1C8F  8  0D 10 00 D4 25 03 86 FC 
   584)      2422.4  Rx     18EF1C8F  8  0D 11 16 00 22 00 83 03 
   585)      2423.4  Rx     18EF1C8F  8  0D 12 16 00 0B 00 0F 00 
   586)      2426.1  Rx     18EF1CCD  8  A3 00 00 00 00 FA FF FA 
   587)      2441.5  Rx     18EF1C8F  8  0D 20 00 F4 73 03 86 FC 
   588)      2442.4  Rx     18EF1C8F  8  0D 21 17 00 24 00 83 03 
   589)      2443.4  Rx     18EF1C8F  8  0D 22 16 00 0A 00 0F 00 
   590)      2446.1  Rx     18EF1CCD  8  A1 40 FA FF FF FF 00 00 
   591)      2461.5  Rx     18EF1C8F  8  0D 30 00 14 C2 03 86 FC 
   592)      2462.4  Rx     18EF1C8F  8  0D 31 16 00 23 00 83 03 
   593)      2463.4  Rx     18EF1C8F  8  0D 32 16 00 09 00 0C 00 
   594)      2473.3  Rx     18EFCD1C  8  A1 01 00 00 FA FF FF FF 
   595)      2481.5  Rx     18EF1C8F  8  0D 40 00 34 10 04 86 FC 
   596)      2482.4  Rx     18EF1C8F  8  0D 41 16 00 23 00 83 03 
   597)      2483.4  Rx     18EF1C8F  8  0D 42 16 00 08 00 10 00 
   598)      2493.3  Rx     18EFCD1C  8  A0 00 14 00 00 00 00 00 
   599)      2493.9  Rx     18EF1CCD  8  A0 00 14 00 79 07 00 00 
   600)      2501.5  Rx     18EF1C8F  8  0D 50 00 54 5E 04 86 FC 
   601)      2502.4  Rx     18EF1C8F  8  0D 51 16 00 23 00 81 03 
   602)      2503.4  Rx     18EF1C8F  8  0D 52 17 00 08 00 0F 00 
   603)      2506.3  Rx     18EF1CCD  8  A2 00 00 00 00 00 00 00 
   604)      2513.3  Rx     18EFCD1C  8  A0 00 2A 00 00 00 00 00 
   605)      2513.9  Rx     18EF1CCD  8  A0 00 2A 00 76 05 00 00 
   606)      2521.5  Rx     18EF1C8F  8  0D 60 00 77 AC 04 86 FC 
   607)      2522.4  Rx     18EF1C8F  8  0D 61 17 00 23 00 83 03 
   608)      2523.4  Rx     18EF1C8F  8  0D 62 14 00 0A 00 0E 00 
   609)      2526.3  Rx     18EF1CCD  8  A3 00 00 00 00 FA FF FA 
   610)      2533.3  Rx     18EFCD1C  8  A0 00 1B 00 00 00 00 00 
   611)      2533.9  Rx     18EF1CCD  8  A0 00 1B 00 00 00 00 00 
   612)      2541.5  Rx     18EF1C8F  8  0D 70 00 94 FA 04 86 FC 
   613)      2542.4  Rx     18EF1C8F  8  0D 71 16 00 24 00 84 03 
   614)      2543.4  Rx     18EF1C8F  8  0D 72 14 00 0B 00 10 00 
   615)      2546.3  Rx     18EF1CCD  8  A1 40 FA FF FF FF 00 00 
   616)      2553.3  Rx     18EFCD1C  8  A0 00 00 00 00 00 00 00 
   617)      2554.0  Rx     18EF1CCD  8  A0 00 00 00 01 00 00 00 
   618)      2561.5  Rx     18EF1C8F  8  0D 80 00 B7 48 05 86 FC 
   619)      2562.4  Rx     18EF1C8F  8  0D 81 18 00 22 00 82 03 
   620)      2563.4  Rx     18EF1C8F  8  0D 82 14 00 0C 00 0F 00 
   621)      2581.5  Rx     18EF1C8F  8  0D 90 00 D4 96 05 86 FC 
   622)      2582.4  Rx     18EF1C8F  8  0D 91 16 00 21 00 84 03 
   623)      2583.4  Rx     18EF1C8F  8  0D 92 14 00 0D 00 0E 00 
   624)      2601.5  Rx     18EF1C8F  8  0D A0 00 F4 E4 05 86 FC 
   625)      2602.4  Rx     18EF1C8F  8  0D A1 16 00 23 00 84 03 
   626)      2603.4  Rx     18EF1C8F  8  0D A2 14 00 0A 00 0F 00 
   627)      2606.5  Rx     18EF1CCD  8  A2 00 00 00 00 00 00 00 
   628)      2621.5  Rx     18EF1C8F  8  0D B0 00 14 33 06 86 FC 
   629)      2622.4  Rx     18EF1C8F  8  0D B1 17 00 21 00 83 03 
   630)      2623.4  Rx     18EF1C8F  8  0D B2 14 00 0B 00 0F 00 
   631)      2626.5  Rx     18EF1CCD  8  A3 00 00 00 00 FA FF FA 
   632)      2641.5  Rx     18EF1C8F  8  0D C0 00 37 81 06 86 FC 
   633)      2642.4  Rx     18EF1C8F  8  0D C1 13 00 22 00 84 03 
   634)      2643.4  Rx     18EF1C8F  8  0D C2 14 00 0D 00 0E 00 
   635)      2646.6  Rx     18EF1CCD  8  A1 40 FA FF FF FF 00 00 
   636)      2661.5  Rx     18EF1C8F  8  0D D0 00 54 CF 06 85 FC 
   637)      2662.4  Rx     18EF1C8F  8  0D D1 15 00 22 00 84 03 
   638)      2663.4  Rx     18EF1C8F  8  0D D2 13 00 0B 00 0E 00 
   639)      2673.3  Rx     18EFCD1C  8  A1 01 00 00 FA FF FF FF 
   640)      2681.5  Rx     18EF1C8F  8  0D E0 00 74 1D 07 86 FC 
   641)      2682.4  Rx     18EF1C8F  8  0D E1 14 00 23 00 86 03 
   642)      2683.4  Rx     18EF1C8F  8  0D E2 14 00 0A 00 0E 00 
   643)      2693.2  Rx     18EFCD1C  8  A0 00 14 00 00 00 00 00 
   644)      2693.9  Rx     18EF1CCD  8  A0 00 14 00 78 07 00 00 
   645)      2701.5  Rx     18EF1C8F  8  0D F0 00 94 6B 07 86 FC 
   646)      2702.4  Rx     18EF1C8F  8  0D F1 17 00 21 00 82 03 
   647)      2703.5  Rx     18EF1C8F  8  0D F2 15 00 06 00 10 00 
   648)      2706.7  Rx     18EF1CCD  8  A2 00 00 00 00 00 00 00 
   649)      2713.3  Rx     18EFCD1C  8  A0 00 2A 00 00 00 00 00 
   650)      2713.9  Rx     18EF1CCD  8  A0 00 2A 00 76 05 00 00 
   651)      2721.5  Rx     18EF1C8F  8  0D 00 00 B7 B9 07 86 FC 
   652)      2722.5  Rx     18EF1C8F  8  0D 01 14 00 21 00 85 03 
   653)      2723.4  Rx     18EF1C8F  8  0D 02 13 00 06 00 10 00 
   654)      2726.8  Rx     18EF1CCD  8  A3 00 00 00 00 FA FF FA 
   655)      2733.3  Rx     18EFCD1C  8  A0 00 1B 00 00 00 00 00 
   656)      2734.0  Rx     18EF1CCD  8  A0 00 1B 00 00 00 00 00 
   657)      2741.5  Rx     18EF1C8F  8  0D 10 00 D4 07 08 86 FC 
   658)      2742.4  Rx     18EF1C8F  8  0D 11 15 00 22 00 82 03 
   659)      2743.5  Rx     18EF1C8F  8  0D 12 14 00 07 00 0F 00 
   660)      2746.8  Rx     18EF1CCD  8  A1 40 FA FF FF FF 00 00 
   661)      2753.3  Rx     18EFCD1C  8  A0 00 00 00 00 00 00 00 
   662)      2753.9  Rx     18EF1CCD  8  A0 00 00 00 01 00 00 00 
   663)      2761.5  Rx     18EF1C8F  8  0D 20 00 F7 55 08 86 FC 
   664)      2762.5  Rx     18EF1C8F  8  0D 21 17 00 22 00 84 03 
   665)      2763.5  Rx     18EF1C8F  8  0D 22 14 00 0E 00 0D 00 
   666)      2781.5  Rx     18EF1C8F  8  0D 30 00 14 A4 08 86 FC 
   667)      2782.5  Rx     18EF1C8F  8  0D 31 16 00 23 00 82 03 
   668)      2783.5  Rx     18EF1C8F  8  0D 32 15 00 0B 00 0E 00 
   669)      2801.6  Rx     18EF1C8F  8  0D 40 00 34 F2 08 86 FC 
   670)      2802.5  Rx     18EF1C8F  8  0D 41 16 00 22 00 82 03 
   671)      2803.5  Rx     18EF1C8F  8  0D 42 15 00 09 00 0E 00 
   672)      2807.0  Rx     18EF1CCD  8  A2 00 00 00 00 00 00 00 
   673)      2821.6  Rx     18EF1C8F  8  0D 50 00 54 40 09 86 FC 
   674)      2822.5  Rx     18EF1C8F  8  0D 51 16 00 22 00 83 03 
   675)      2823.5  Rx     18EF1C8F  8  0D 52 14 00 08 00 0E 00 
   676)      2827.0  Rx     18EF1CCD  8  A3 00 00 00 00 FA FF FA 
   677)      2837.0  Rx     18EF8F1C  4  01 77 D0 00 
   678)      2837.4  Rx     18EF1C8F  4  01 D1 77 00 
   679)      2841.6  Rx     18EF1C8F  8  0D 60 00 74 8E 09 86 FC 
   680)      2842.5  Rx     18EF1C8F  8  0D 61 15 00 22 00 83 03 
   681)      2843.5  Rx     18EF1C8F  8  0D 62 16 00 0C 00 0D 00 
   682)      2847.0  Rx     18EF1CCD  8  A1 40 FA FF FF FF 00 00 
   683)      2861.6  Rx     18EF1C8F  8  0D 70 00 94 DC 09 86 FC 
   684)      2862.5  Rx     18EF1C8F  8  0D 71 16 00 21 00 82 03 
   685)      2863.5  Rx     18EF1C8F  8  0D 72 15 00 0A 00 0F 00 
   686)      2873.5  Rx     18EFCD1C  8  A1 01 00 00 FA FF FF FF 
   687)      2881.6  Rx     18EF1C8F  8  0D 80 00 B7 2A 0A 86 FC 
   688)      2882.5  Rx     18EF1C8F  8  0D 81 16 00 22 00 81 03 
   689)      2883.5  Rx     18EF1C8F  8  0D 82 15 00 08 00 0F 00 
   690)      2893.3  Rx     18EFCD1C  8  A0 00 14 00 00 00 00 00 
   691)      2893.9  Rx     18EF1CCD  8  A0 00 14 00 79 07 00 00 
   692)      2901.6  Rx     18EF1C8F  8  0D 90 00 D4 78 0A 86 FC 
   693)      2902.5  Rx     18EF1C8F  8  0D 91 17 00 22 00 83 03 
   694)      2903.5  Rx     18EF1C8F  8  0D 92 15 00 0A 00 0D 00 
   695)      2907.2  Rx     18EF1CCD  8  A2 00 00 00 00 00 00 00 
   696)      2913.3  Rx     18EFCD1C  8  A0 00 2A 00 00 00 00 00 
   697)      2914.0  Rx     18EF1CCD  8  A0 00 2A 00 76 05 00 00 
   698)      2921.6  Rx     18EF1C8F  8  0D A0 00 F4 C6 0A 86 FC 
   699)      2922.5  Rx     18EF1C8F  8  0D A1 17 00 22 00 86 03 
   700)      2923.5  Rx     18EF1C8F  8  0D A2 15 00 0B 00 0E 00 
   701)      2927.2  Rx     18EF1CCD  8  A3 00 00 00 00 FA FF FA 
   702)      2933.3  Rx     18EFCD1C  8  A0 00 1B 00 00 00 00 00 
   703)      2934.0  Rx     18EF1CCD  8  A0 00 1B 00 00 00 00 00 
   704)      2941.6  Rx     18EF1C8F  8  0D B0 00 17 15 0B 86 FC 
   705)      2942.5  Rx     18EF1C8F  8  0D B1 16 00 22 00 85 03 
   706)      2943.5  Rx     18EF1C8F  8  0D B2 14 00 0A 00 10 00 
   707)      2947.3  Rx     18EF1CCD  8  A1 40 FA FF FF FF 00 00 
   708)      2953.3  Rx     18EFCD1C  8  A0 00 00 00 00 00 00 00 
   709)      2954.0  Rx     18EF1CCD  8  A0 00 00 00 01 00 00 00 
   710)      2961.6  Rx     18EF1C8F  8  0D C0 00 37 63 0B 86 FC 
   711)      2962.5  Rx     18EF1C8F  8  0D C1 17 00 22 00 83 03 
   712)      2963.5  Rx     18EF1C8F  8  0D C2 14 00 0B 00 0F 00 
   713)      2981.6  Rx     18EF1C8F  8  0D D0 00 54 B1 0B 86 FC 
   714)      2982.5  Rx     18EF1C8F  8  0D D1 16 00 22 00 83 03 
   715)      2983.5  Rx     18EF1C8F  8  0D D2 15 00 0E 00 0C 00 
   716)      3001.6  Rx     18EF1C8F  8  0D E0 00 72 FF 0B 86 FC 
   717)      3002.5  Rx     18EF1C8F  8  0D E1 17 00 21 00 81 03 
   718)      3003.5  Rx     18EF1C8F  8  0D E2 14 00 0C 00 0E 00 
   719)      3007.5  Rx     18EF1CCD  8  A2 00 00 00 00 00 00 00 
   720)      3013.2  Rx     18EFCD1C  4  01 31 E1 00 
   721)      3013.7  Rx     18EF1CCD  4  01 E2 31 00 
   722)      3021.6  Rx     18EF1C8F  8  0D F0 00 97 4D 0C 86 FC 
   723)      3022.5  Rx     18EF1C8F  8  0D F1 14 00 22 00 82 03 
   724)      3023.5  Rx     18EF1C8F  8  0D F2 14 00 09 00 0F 00 
   725)      3027.5  Rx     18EF1CCD  8  A3 00 00 00 00 FA FF FA 
   726)      3041.6  Rx     18EF1C8F  8  0D 00 00 B4 9B 0C 86 FC 
   727)      3042.6  Rx     18EF1C8F  8  0D 01 16 00 24 00 82 03 
   728)      3043.5  Rx     18EF1C8F  8  0D 02 15 00 09 00 0F 00 
   729)      3047.5  Rx     18EF1CCD  8  A1 40 FA FF FF FF 00 00 
   730)      3061.6  Rx     18EF1C8F  8  0D 10 00 D7 E9 0C 86 FC 
   731)      3062.5  Rx     18EF1C8F  8  0D 11 16 00 23 00 83 03 
   732)      3063.6  Rx     18EF1C8F  8  0D 12 15 00 06 00 0E 00 
   733)      3073.4  Rx     18EFCD1C  8  A1 01 00 00 FA FF FF FF 
   734)      3081.6  Rx     18EF1C8F  8  0D 20 00 F4 37 0D 86 FC 
   735)      3082.5  Rx     18EF1C8F  8  0D 21 15 00 22 00 83 03 
   736)      3083.6  Rx     18EF1C8F  8  0D 22 15 00 0A 00 0E 00 
   737)      3093.4  Rx     18EFCD1C  8  A0 00 14 00 00 00 00 00 
   738)      3094.0  Rx     18EF1CCD  8  A0 00 14 00 79 07 00 00 
   739)      3101.6  Rx     18EF1C8F  8  0D 30 00 14 86 0D 86 FC 
   740)      3102.6  Rx     18EF1C8F  8  0D 31 16 00 23 00 83 03 
   741)      3103.5  Rx     18EF1C8F  8  0D 32 12 00 09 00 0D 00 
   742)      3107.7  Rx     18EF1CCD  8  A2 00 00 00 00 00 00 00 
   743)      3113.4  Rx     18EFCD1C  8  A0 00 2A 00 00 00 00 00 
   744)      3114.0  Rx     18EF1CCD  8  A0 00 2A 00 76 05 00 00 
   745)      3121.6  Rx     18EF1C8F  8  0D 40 00 37 D4 0D 86 FC 
   746)      3122.6  Rx     18EF1C8F  8  0D 41 15 00 23 00 81 03 
   747)      3123.6  Rx     18EF1C8F  8  0D 42 14 00 09 00 0C 00 
   748)      3127.8  Rx     18EF1CCD  8  A3 00 00 00 00 FA FF FA 
   749)      3133.4  Rx     18EFCD1C  8  A0 00 1B 00 00 00 00 00 
   750)      3134.0  Rx     18EF1CCD  8  A0 00 1B 00 00 00 00 00 
   751)      3141.7  Rx     18EF1C8F  8  0D 50 00 54 22 0E 86 FC 
   752)      3142.6  Rx     18EF1C8F  8  0D 51 17 00 22 00 83 03 
   753)      3143.6  Rx     18EF1C8F  8  0D 52 15 00 0C 00 0E 00 
   754)      3147.8  Rx     18EF1CCD  8  A1 40 FA FF FF FF 00 00 
   755)      3153.4  Rx     18EFCD1C  8  A0 00 00 00 00 00 00 00 
   756)      3154.0  Rx     18EF1CCD  8  A0 00 00 00 01 00 00 00 
   757)      3161.6  Rx     18EF1C8F  8  0D 60 00 77 70 0E 86 FC 
   758)      3162.6  Rx     18EF1C8F  8  0D 61 15 00 23 00 84 03 
   759)      3163.6  Rx     18EF1C8F  8  0D 62 13 00 0A 00 0E 00 
   760)      3181.7  Rx     18EF1C8F  8  0D 70 00 94 BE 0E 86 FC 
   761)      3182.6  Rx     18EF1C8F  8  0D 71 16 00 23 00 83 03 
   762)      3183.6  Rx     18EF1C8F  8  0D 72 15 00 0A 00 0D 00 
   763)      3201.7  Rx     18EF1C8F  8  0D 80 00 B4 0C 0F 86 FC 
   764)      3202.6  Rx     18EF1C8F  8  0D 81 15 00 21 00 84 03 
   765)      3203.6  Rx     18EF1C8F  8  0D 82 15 00 0B 00 0F 00 
   766)      3208.0  Rx     18EF1CCD  8  A2 00 00 00 00 00 00 00 
   767)      3214.8  Rx     18FEF31C  8  5E 29 80 99 AC CE 2C 89 
   768)      3215.3  Rx     18FEE81C  8  97 4F 00 00 00 00 10 52 
   769)      3215.9  Rx     18FEE61C  8  30 0C 0E 09 57 29 00 00 
   770)      3216.5  Rx     19F8021C  8  02 FC 86 6C 00 00 FF FF 
   771)      3221.7  Rx     18EF1C8F  8  0D 90 00 D7 5A 0F 86 FC 
   772)      3222.6  Rx     18EF1C8F  8  0D 91 17 00 24 00 84 03 
   773)      3223.6  Rx     18EF1C8F  8  0D 92 13 00 0A 00 0F 00 
   774)      3228.0  Rx     18EF1CCD  8  A3 00 00 00 00 FA FF FA 
   775)      3241.7  Rx     18EF1C8F  8  0D A0 00 F7 A8 0F 86 FC 
   776)      3242.6  Rx     18EF1C8F  8  0D A1 18 00 20 00 85 03 
   777)      3243.6  Rx     18EF1C8F  8  0D A2 13 00 0A 00 0D 00 
   778)      3248.1  Rx     18EF1CCD  8  A1 40 FA FF FF FF 00 00 
   779)      3260.2  Rx     19F8051C  8  E0 2F 02 EE 50 83 20 7A 
   780)      3260.7  Rx     19F8051C  8  E1 1E 80 CE 24 2F E1 A6 
   781)      3261.3  Rx     19F8051C  8  E2 98 06 E0 65 4B B4 F3 
   782)      3261.8  Rx     18EF1C8F  8  0D B0 00 14 F7 0F 86 FC 
   783)      3262.4  Rx     19F8051C  8  E3 91 CB 02 41 40 68 08 
   784)      3262.9  Rx     18EF1C8F  8  0D B1 17 00 24 00 83 03 
   785)      3263.5  Rx     19F8051C  8  E4 00 00 00 00 20 00 0A 
   786)      3264.0  Rx     18EF1C8F  8  0D B2 14 00 0A 00 0D 00 
   787)      3264.6  Rx     19F8051C  8  E5 64 00 64 00 DC 05 00 
   788)      3265.2  Rx     19F8051C  8  E6 00 01 0F 00 00 00 FF 
   789)      3273.5  Rx     18EFCD1C  8  A1 01 00 00 FA FF FF FF 
   790)      3281.7  Rx     18EF1C8F  8  0D C0 00 37 45 10 86 FC 
   791)      3282.6  Rx     18EF1C8F  8  0D C1 17 00 22 00 85 03 
   792)      3283.6  Rx     18EF1C8F  8  0D C2 13 00 08 00 12 00 
   793)      3293.4  Rx     18EFCD1C  8  A0 00 14 00 00 00 00 00 
   794)      3294.0  Rx     18EF1CCD  8  A0 00 14 00 79 07 00 00 
   795)      3301.7  Rx     18EF1C8F  8  0D D0 00 54 93 10 86 FC 
   796)      3302.6  Rx     18EF1C8F  8  0D D1 18 00 22 00 82 03 
   797)      3303.6  Rx     18EF1C8F  8  0D D2 14 00 0A 00 10 00 
   798)      3308.2  Rx     18EF1CCD  8  A2 00 00 00 00 00 00 00 
   799)      3313.4  Rx     18EFCD1C  8  A0 00 2A 00 00 00 00 00 
   800)      3314.2  Rx     18EF1CCD  8  A0 00 2A 00 77 05 00 00 
   801)      3321.7  Rx     18EF1C8F  8  0D E0 00 77 E1 10 86 FC 
   802)      3322.6  Rx     18EF1C8F  8  0D E1 15 00 23 00 84 03 
   803)      3323.6  Rx     18EF1C8F  8  0D E2 14 00 0B 00 0E 00 
   804)      3328.3  Rx     18EF1CCD  8  A3 00 00 00 00 FA FF FA 
   805)      3333.4  Rx     18EFCD1C  8  A0 00 1B 00 00 00 00 00 
   806)      3334.1  Rx     18EF1CCD  8  A0 00 1B 00 00 00 00 00 
   807)      3341.7  Rx     18EF1C8F  8  0D F0 00 94 2F 11 86 FC 
   808)      3342.6  Rx     18EF1C8F  8  0D F1 15 00 21 00 83 03 
   809)      3343.6  Rx     18EF1C8F  8  0D F2 15 00 0B 00 0F 00 
   810)      3348.2  Rx     18EF1CCD  8  A1 40 FA FF FF FF 00 00 
   811)      3353.4  Rx     18EFCD1C  8  A0 00 00 00 00 00 00 00 
   812)      3354.0  Rx     18EF1CCD  8  A0 00 00 00 01 00 00 00 
   813)      3361.7  Rx     18EF1C8F  8  0D 00 00 B4 7D 11 86 FC 
   814)      3362.6  Rx     18EF1C8F  8  0D 01 17 00 23 00 82 03 
   815)      3363.6  Rx     18EF1C8F  8  0D 02 14 00 0C 00 0D 00 
   816)      3381.7  Rx     18EF1C8F  8  0D 10 00 D4 CB 11 86 FC 
   817)      3382.6  Rx     18EF1C8F  8  0D 11 17 00 22 00 81 03 
   818)      3383.6  Rx     18EF1C8F  8  0D 12 15 00 0B 00 0C 00 
   819)      3401.7  Rx     18EF1C8F  8  0D 20 00 F4 19 12 86 FC 
   820)      3402.6  Rx     18EF1C8F  8  0D 21 14 00 22 00 82 03 
   821)      3403.6  Rx     18EF1C8F  8  0D 22 14 00 0A 00 0D 00 
   822)      3408.5  Rx     18EF1CCD  8  A2 00 00 00 00 00 00 00 
   823)      3421.7  Rx     18EF1C8F  8  0D 30 00 14 68 12 86 FC 
   824)      3422.7  Rx     18EF1C8F  8  0D 31 17 00 22 00 83 03 
   825)      3423.6  Rx     18EF1C8F  8  0D 32 15 00 0B 00 0F 00 
   826)      3428.5  Rx     18EF1CCD  8  A3 00 00 00 00 FA FF FA 
   827)      3441.7  Rx     18EF1C8F  8  0D 40 00 37 B6 12 86 FC 
   828)      3442.6  Rx     18EF1C8F  8  0D 41 15 00 22 00 84 03 
   829)      3443.7  Rx     18EF1C8F  8  0D 42 15 00 0A 00 0F 00 
   830)      3448.6  Rx     18EF1CCD  8  A1 40 FA FF FF FF 00 00 
   831)      3461.8  Rx     18EF1C8F  8  0D 50 00 54 04 13 85 FC 
   832)      3462.7  Rx     18EF1C8F  8  0D 51 16 00 21 00 82 03 
   833)      3463.6  Rx     18EF1C8F  8  0D 52 15 00 0A 00 0E 00 
   834)      3473.6  Rx     18EFCD1C  8  A1 01 00 00 FA FF FF FF 
   835)      3481.7  Rx     18EF1C8F  8  0D 60 00 74 52 13 86 FC 
   836)      3482.6  Rx     18EF1C8F  8  0D 61 15 00 22 00 82 03 
   837)      3483.7  Rx     18EF1C8F  8  0D 62 15 00 0C 00 10 00 
   838)      3493.5  Rx     18EFCD1C  8  A0 00 14 00 00 00 00 00 
   839)      3494.1  Rx     18EF1CCD  8  A0 00 14 00 79 07 00 00 
   840)      3501.8  Rx     18EF1C8F  8  0D 70 00 97 A0 13 86 FC 
   841)      3502.7  Rx     18EF1C8F  8  0D 71 17 00 21 00 83 03 
   842)      3503.7  Rx     18EF1C8F  8  0D 72 12 00 09 00 0E 00 
   843)      3508.7  Rx     18EF1CCD  8  A2 00 00 00 00 00 00 00 
   844)      3513.5  Rx     18EFCD1C  8  A0 00 2A 00 00 00 00 00 
   845)      3514.2  Rx     18EF1CCD  8  A0 00 2A 00 75 05 00 00 
   846)      3521.8  Rx     18EF1C8F  8  0D 80 00 B4 EE 13 86 FC 
   847)      3522.7  Rx     18EF1C8F  8  0D 81 16 00 22 00 84 03 
   848)      3523.7  Rx     18EF1C8F  8  0D 82 0F 00 07 00 0E 00 
   849)      3528.8  Rx     18EF1CCD  8  A3 00 00 00 00 FA FF FA 
   850)      3533.5  Rx     18EFCD1C  8  A0 00 1B 00 00 00 00 00 
   851)      3534.1  Rx     18EF1CCD  8  A0 00 1B 00 00 00 00 00 
   852)      3541.8  Rx     18EF1C8F  8  0D 90 00 D7 3C 14 86 FC 
   853)      3542.7  Rx     18EF1C8F  8  0D 91 16 00 24 00 85 03 
   854)      3543.7  Rx     18EF1C8F  8  0D 92 12 00 05 00 0E 00 
   855)      3548.8  Rx     18EF1CCD  8  A1 40 FA FF FF FF 00 00 
   856)      3553.6  Rx     18EFCD1C  8  A0 00 00 00 00 00 00 00 
   857)      3554.2  Rx     18EF1CCD  8  A0 00 00 00 01 00 00 00 
   858)      3561.8  Rx     18EF1C8F  8  0D A0 00 F4 8A 14 86 FC 
   859)      3562.7  Rx     18EF1C8F  8  0D A1 17 00 23 00 82 03 
   860)      3563.7  Rx     18EF1C8F  8  0D A2 16 00 0B 00 0F 00 
   861)      3581.8  Rx     18EF1C8F  8  0D B0 00 14 D9 14 86 FC 
   862)      3582.7  Rx     18EF1C8F  8  0D B1 16 00 22 00 82 03 
   863)      3583.7  Rx     18EF1C8F  8  0D B2 16 00 0C 00 0F 00 
   864)      3601.8  Rx     18EF1C8F  8  0D C0 00 34 27 15 86 FC 
   865)      3602.7  Rx     18EF1C8F  8  0D C1 15 00 22 00 84 03 
   866)      3603.7  Rx     18EF1C8F  8  0D C2 14 00 0B 00 0F 00 
   867)      3609.0  Rx     18EF1CCD  8  A2 00 00 00 00 00 00 00 
   868)      3621.8  Rx     18EF1C8F  8  0D D0 00 54 75 15 86 FC 
   869)      3622.7  Rx     18EF1C8F  8  0D D1 17 00 23 00 84 03 
   870)      3623.7  Rx     18EF1C8F  8  0D D2 15 00 0C 00 0D 00 
   871)      3629.0  Rx     18EF1CCD  8  A3 00 00 00 00 FA FF FA 
   872)      3641.8  Rx     18EF1C8F  8  0D E0 00 77 C3 15 86 FC 
   873)      3642.7  Rx     18EF1C8F  8  0D E1 17 00 21 00 83 03 
   874)      3643.7  Rx     18EF1C8F  8  0D E2 17 00 0A 00 0D 00 
   875)      3649.0  Rx     18EF1CCD  8  A1 40 FA FF FF FF 00 00 
   876)      3661.8  Rx     18EF1C8F  8  0D F0 00 94 11 16 86 FC 
   877)      3662.7  Rx     18EF1C8F  8  0D F1 14 00 23 00 82 03 
   878)      3663.7  Rx     18EF1C8F  8  0D F2 14 00 0A 00 0C 00 
   879)      3673.6  Rx     18EFCD1C  8  A1 01 00 00 FA FF FF FF 
   880)      3681.8  Rx     18EF1C8F  8  0D 00 00 B4 5F 16 86 FC 
   881)      3682.7  Rx     18EF1C8F  8  0D 01 16 00 22 00 82 03 
   882)      3683.7  Rx     18EF1C8F  8  0D 02 14 00 0A 00 0C 00 
   883)      3693.5  Rx     18EFCD1C  8  A0 00 14 00 00 00 00 00 
   884)      3694.2  Rx     18EF1CCD  8  A0 00 14 00 79 07 00 00 
   885)      3701.8  Rx     18EF1C8F  8  0D 10 00 D4 AD 16 86 FC 
   886)      3702.7  Rx     18EF1C8F  8  0D 11 17 00 23 00 84 03 
   887)      3703.7  Rx     18EF1C8F  8  0D 12 15 00 0A 00 0F 00 
   888)      3709.2  Rx     18EF1CCD  8  A2 00 00 00 00 00 00 00 
   889)      3713.6  Rx     18EFCD1C  8  A0 00 2A 00 00 00 00 00 
   890)      3714.2  Rx     18EF1CCD  8  A0 00 2A 00 76 05 00 00 
   891)      3721.8  Rx     18EF1C8F  8  0D 20 00 F7 FB 16 86 FC 
   892)      3722.7  Rx     18EF1C8F  8  0D 21 16 00 23 00 84 03 
   893)      3723.8  Rx     18EF1C8F  8  0D 22 16 00 0C 00 0E 00 
   894)      3729.3  Rx     18EF1CCD  8  A3 00 00 00 00 FA FF FA 
   895)      3733.6  Rx     18EFCD1C  8  A0 00 1B 00 00 00 00 00 
   896)      3734.3  Rx     18EF1CCD  8  A0 00 1B 00 00 00 00 00 
   897)      3741.8  Rx     18EF1C8F  8  0D 30 00 14 4A 17 86 FC 
   898)      3742.8  Rx     18EF1C8F  8  0D 31 18 00 24 00 83 03 
   899)      3743.7  Rx     18EF1C8F  8  0D 32 13 00 0C 00 0D 00 
   900)      3749.3  Rx     18EF1CCD  8  A1 40 FA FF FF FF 00 00 
   901)      3753.6  Rx     18EFCD1C  8  A0 00 00 00 00 00 00 00 
   902)      3754.3  Rx     18EF1CCD  8  A0 00 00 00 01 00 00 00 
   903)      3761.8  Rx     18EF1C8F  8  0D 40 00 34 98 17 86 FC 
   904)      3762.8  Rx     18EF1C8F  8  0D 41 16 00 22 00 83 03 
   905)      3763.8  Rx     18EF1C8F  8  0D 42 15 00 0A 00 0E 00 
   906)      3781.9  Rx     18EF1C8F  8  0D 50 00 54 E6 17 86 FC 
   907)      3782.7  Rx     18EF1C8F  8  0D 51 15 00 21 00 82 03 
   908)      3783.8  Rx     18EF1C8F  8  0D 52 14 00 09 00 10 00 
   909)      3801.8  Rx     18EF1C8F  8  0D 60 00 74 34 18 86 FC 
   910)      3802.8  Rx     18EF1C8F  8  0D 61 16 00 22 00 83 03 
   911)      3803.8  Rx     18EF1C8F  8  0D 62 13 00 0B 00 0E 00 
   912)      3809.5  Rx     18EF1CCD  8  A2 00 00 00 00 00 00 00 
   913)      3821.9  Rx     18EF1C8F  8  0D 70 00 94 82 18 86 FC 
   914)      3822.8  Rx     18EF1C8F  8  0D 71 16 00 23 00 84 03 
   915)      3823.8  Rx     18EF1C8F  8  0D 72 11 00 0A 00 0F 00 
   916)      3829.5  Rx     18EF1CCD  8  A3 00 00 00 00 FA FF FA 
   917)      3841.9  Rx     18EF1C8F  8  0D 80 00 B4 D0 18 86 FC 
   918)      3842.8  Rx     18EF1C8F  8  0D 81 16 00 20 00 83 03 
   919)      3843.8  Rx     18EF1C8F  8  0D 82 16 00 0B 00 0F 00 
   920)      3849.6  Rx     18EF1CCD  8  A1 40 FA FF FF FF 00 00 
   921)      3861.9  Rx     18EF1C8F  8  0D 90 00 D4 1E 19 86 FC 
   922)      3862.8  Rx     18EF1C8F  8  0D 91 16 00 23 00 85 03 
   923)      3863.8  Rx     18EF1C8F  8  0D 92 16 00 0B 00 0F 00 
   924)      3873.9  Rx     18EFCD1C  8  A1 01 00 00 FA FF FF FF 
   925)      3881.9  Rx     18EF1C8F  8  0D A0 00 F4 6C 19 86 FC 
   926)      3882.8  Rx     18EF1C8F  8  0D A1 18 00 21 00 84 03 
   927)      3883.8  Rx     18EF1C8F  8  0D A2 15 00 0A 00 0F 00 
   928)      3893.6  Rx     18EFCD1C  8  A0 00 14 00 00 00 00 00 
   929)      3894.2  Rx     18EF1CCD  8  A0 00 14 00 79 07 00 00 
   930)      3901.9  Rx     18EF1C8F  8  0D B0 00 17 BB 19 86 FC 
   931)      3902.8  Rx     18EF1C8F  8  0D B1 16 00 23 00 86 03 
   932)      3903.8  Rx     18EF1C8F  8  0D B2 14 00 0A 00 0F 00 
   933)      3909.7  Rx     18EF1CCD  8  A2 00 00 00 00 00 00 00 
   934)      3913.6  Rx     18EFCD1C  8  A0 00 2A 00 00 00 00 00 
   935)      3914.2  Rx     18EF1CCD  8  A0 00 2A 00 76 05 00 00 
   936)      3921.9  Rx     18EF1C8F  8  0D C0 00 37 09 1A 86 FC 
   937)      3922.8  Rx     18EF1C8F  8  0D C1 17 00 24 00 83 03 
   938)      3923.8  Rx     18EF1C8F  8  0D C2 13 00 0B 00 0E 00 
   939)      3929.8  Rx     18EF1CCD  8  A3 00 00 00 00 FA FF FA 
   940)      3933.6  Rx     18EFCD1C  8  A0 00 1B 00 00 00 00 00 
   941)      3934.3  Rx     18EF1CCD  8  A0 00 1B 00 00 00 00 00 
   942)      3941.9  Rx     18EF1C8F  8  0D D0 00 54 57 1A 86 FC 
   943)      3942.8  Rx     18EF1C8F  8  0D D1 17 00 22 00 82 03 
   944)      3943.8  Rx     18EF1C8F  8  0D D2 16 00 0A 00 0E 00 
   945)      3949.8  Rx     18EF1CCD  8  A1 40 FA FF FF FF 00 00 
   946)      3953.6  Rx     18EFCD1C  8  A0 00 00 00 00 00 00 00 
   947)      3954.2  Rx     18EF1CCD  8  A0 00 00 00 01 00 00 00 
   948)      3961.9  Rx     18EF1C8F  8  0D E0 00 77 A5 1A 86 FC 
   949)      3962.8  Rx     18EF1C8F  8  0D E1 17 00 21 00 83 03 
   950)      3963.8  Rx     18EF1C8F  8  0D E2 16 00 09 00 0A 00 
   951)      3981.9  Rx     18EF1C8F  8  0D F0 00 94 F3 1A 86 FC 
   952)      3982.8  Rx     18EF1C8F  8  0D F1 18 00 21 00 83 03 
   953)      3983.8  Rx     18EF1C8F  8  0D F2 13 00 0C 00 0A 00 
   954)      4001.9  Rx     18EF1C8F  8  0D 00 00 B4 41 1B 86 FC 
   955)      4002.8  Rx     18EF1C8F  8  0D 01 14 00 22 00 85 03 
   956)      4003.9  Rx     18EF1C8F  8  0D 02 12 00 0A 00 10 00 
   957)      4010.0  Rx     18EF1CCD  8  A2 00 00 00 00 00 00 00 
   958)      4021.9  Rx     18EF1C8F  8  0D 10 00 D4 8F 1B 86 FC 
   959)      4022.9  Rx     18EF1C8F  8  0D 11 14 00 22 00 83 03 
   960)      4023.8  Rx     18EF1C8F  8  0D 12 13 00 0B 00 0F 00 
   961)      4030.0  Rx     18EF1CCD  8  A3 00 00 00 00 FA FF FA 
   962)      4041.9  Rx     18EF1C8F  8  0D 20 00 F7 DD 1B 86 FC 
   963)      4042.8  Rx     18EF1C8F  8  0D 21 15 00 21 00 82 03 
   964)      4043.9  Rx     18EF1C8F  8  0D 22 14 00 08 00 0F 00 
   965)      4050.1  Rx     18EF1CCD  8  A1 40 FA FF FF FF 00 00 
   966)      4062.0  Rx     18EF1C8F  8  0D 30 00 14 2C 1C 86 FC 
   967)      4062.8  Rx     18EF1C8F  8  0D 31 14 00 22 00 82 03 
   968)      4063.9  Rx     18EF1C8F  8  0D 32 15 00 05 00 0E 00 
   969)      4073.8  Rx     18EFCD1C  8  A1 01 00 00 FA FF FF FF 
   970)      4081.9  Rx     18EF1C8F  8  0D 40 00 34 7A 1C 86 FC 
   971)      4082.9  Rx     18EF1C8F  8  0D 41 15 00 20 00 83 03 
   972)      4083.8  Rx     18EF1C8F  8  0D 42 13 00 08 00 0E 00 
   973)      4093.6  Rx     18EFCD1C  8  A0 00 14 00 00 00 00 00 
   974)      4094.2  Rx     18EF1CCD  8  A0 00 14 00 79 07 00 00 
   975)      4101.9  Rx     18EF1C8F  8  0D 50 00 57 C8 1C 86 FC 
   976)      4102.9  Rx     18EF1C8F  8  0D 51 16 00 23 00 84 03 
   977)      4103.9  Rx     18EF1C8F  8  0D 52 15 00 0A 00 0D 00 
   978)      4110.2  Rx     18EF1CCD  8  A2 00 00 00 00 00 00 00 
   979)      4113.7  Rx     18EFCD1C  8  A0 00 2A 00 00 00 00 00 
   980)      4114.3  Rx     18EF1CCD  8  A0 00 2A 00 77 05 00 00 
   981)      4122.0  Rx     18EF1C8F  8  0D 60 00 74 16 1D 86 FC 
   982)      4122.9  Rx     18EF1C8F  8  0D 61 15 00 20 00 83 03 
   983)      4123.9  Rx     18EF1C8F  8  0D 62 16 00 0B 00 0E 00 
   984)      4130.3  Rx     18EF1CCD  8  A3 00 00 00 00 FA FF FA 
   985)      4133.7  Rx     18EFCD1C  8  A0 00 1B 00 00 00 00 00 
   986)      4134.3  Rx     18EF1CCD  8  A0 00 1B 00 00 00 00 00 
   987)      4142.0  Rx     18EF1C8F  8  0D 70 00 97 64 1D 86 FC 
   988)      4142.9  Rx     18EF1C8F  8  0D 71 14 00 23 00 84 03 
   989)      4143.9  Rx     18EF1C8F  8  0D 72 16 00 0B 00 0E 00 
   990)      4150.3  Rx     18EF1CCD  8  A1 40 FA FF FF FF 00 00 
   991)      4153.7  Rx     18EFCD1C  8  A0 00 00 00 00 00 00 00 
   992)      4154.3  Rx     18EF1CCD  8  A0 00 00 00 01 00 00 00 
   993)      4162.0  Rx     18EF1C8F  8  0D 80 00 B4 B2 1D 86 FC 
   994)      4162.9  Rx     18EF1C8F  8  0D 81 17 00 22 00 83 03 
   995)      4163.9  Rx     18EF1C8F  8  0D 82 14 00 0A 00 11 00 
   996)      4182.0  Rx     18EF1C8F  8  0D 90 00 D4 00 1E 86 FC 
   997)      4182.9  Rx     18EF1C8F  8  0D 91 15 00 22 00 84 03 
   998)      4183.9  Rx     18EF1C8F  8  0D 92 14 00 0A 00 0F 00 
   999)      4202.0  Rx     18EF1C8F  8  0D A0 00 F4 4E 1E 86 FC 
  1000)      4202.9  Rx     18EF1C8F  8  0D A1 17 00 22 00 83 03 
  1001)      4203.9  Rx     18EF1C8F  8  0D A2 16 00 0B 00 0D 00 
  1002)      4210.5  Rx     18EF1CCD  8  A2 00 00 00 00 00 00 00 
  1003)      4215.0  Rx     18FEF31C  8  5E 29 80 99 AC CE 2C 89 
  1004)      4215.6  Rx     18FEE81C  8  97 4F 00 00 00 00 10 52 
  1005)      4216.2  Rx     18FEE61C  8  34 0C 0E 09 57 29 00 00 
  1006)      4216.7  Rx     19F8021C  8  07 FC 86 6C 00 00 FF FF 
  1007)      4222.0  Rx     18EF1C8F  8  0D B0 00 17 9D 1E 86 FC 
  1008)      4222.9  Rx     18EF1C8F  8  0D B1 15 00 23 00 85 03 
  1009)      4223.9  Rx     18EF1C8F  8  0D B2 15 00 0B 00 0A 00 
  1010)      4230.5  Rx     18EF1CCD  8  A3 00 00 00 00 FA FF FA 
  1011)      4242.0  Rx     18EF1C8F  8  0D C0 00 34 EB 1E 86 FC 
  1012)      4242.9  Rx     18EF1C8F  8  0D C1 16 00 22 00 83 03 
  1013)      4243.9  Rx     18EF1C8F  8  0D C2 16 00 0B 00 0A 00 
  1014)      4250.6  Rx     18EF1CCD  8  A1 40 FA FF FF FF 00 00 
  1015)      4262.0  Rx     18EF1C8F  8  0D D0 00 54 39 1F 86 FC 
  1016)      4262.9  Rx     18EF1C8F  8  0D D1 16 00 22 00 81 03 
  1017)      4263.9  Rx     18EF1C8F  8  0D D2 15 00 0A 00 0E 00 
  1018)      4265.6  Rx     19F8051C  8  00 2F 07 EE 50 93 47 7A 
  1019)      4266.1  Rx     19F8051C  8  01 1E 80 CE 24 2F E1 A6 
  1020)      4266.7  Rx     19F8051C  8  02 98 06 E0 65 4B B4 F3 
  1021)      4267.3  Rx     19F8051C  8  03 91 CB 02 41 40 68 08 
  1022)      4267.9  Rx     19F8051C  8  04 00 00 00 00 20 00 0A 
  1023)      4268.4  Rx     19F8051C  8  05 64 00 64 00 DC 05 00 
  1024)      4269.0  Rx     19F8051C  8  06 00 01 0F 00 00 00 FF 
  1025)      4273.8  Rx     18EFCD1C  8  A1 01 00 00 FA FF FF FF 
  1026)      4282.0  Rx     18EF1C8F  8  0D E0 00 79 87 1F 86 FC 
  1027)      4282.9  Rx     18EF1C8F  8  0D E1 15 00 22 00 83 03 
  1028)      4283.9  Rx     18EF1C8F  8  0D E2 13 00 0B 00 0F 00 
  1029)      4293.7  Rx     18EFCD1C  8  A0 00 14 00 00 00 00 00 
  1030)      4294.3  Rx     18EF1CCD  8  A0 00 14 00 78 07 00 00 
  1031)      4302.0  Rx     18EF1C8F  8  0D F0 00 97 D5 1F 86 FC 
  1032)      4303.0  Rx     18EF1C8F  8  0D F1 17 00 22 00 83 03 
  1033)      4303.9  Rx     18EF1C8F  8  0D F2 14 00 0A 00 0F 00 
  1034)      4310.7  Rx     18EF1CCD  8  A2 00 00 00 00 00 00 00 
  1035)      4313.8  Rx     18EFCD1C  8  A0 00 2A 00 00 00 00 00 
  1036)      4314.4  Rx     18EF1CCD  8  A0 00 2A 00 76 05 00 00 
  1037)      4322.0  Rx     18EF1C8F  8  0D 00 00 B4 23 20 86 FC 
  1038)      4322.9  Rx     18EF1C8F  8  0D 01 17 00 20 00 83 03 
  1039)      4323.9  Rx     18EF1C8F  8  0D 02 13 00 0B 00 0F 00 
  1040)      4330.8  Rx     18EF1CCD  8  A3 00 00 00 00 FA FF FA 
  1041)      4333.7  Rx     18EFCD1C  8  A0 00 1B 00 00 00 00 00 
  1042)      4334.4  Rx     18EF1CCD  8  A0 00 1B 00 00 00 00 00 
  1043)      4342.0  Rx     18EF1C8F  8  0D 10 00 D7 71 20 86 FC 
  1044)      4342.9  Rx     18EF1C8F  8  0D 11 15 00 22 00 83 03 
  1045)      4343.9  Rx     18EF1C8F  8  0D 12 14 00 0A 00 0E 00 
  1046)      4350.8  Rx     18EF1CCD  8  A1 40 FA FF FF FF 00 00 
  1047)      4353.7  Rx     18EFCD1C  8  A0 00 00 00 00 00 00 00 
  1048)      4354.3  Rx     18EF1CCD  8  A0 00 00 00 01 00 00 00 
  1049)      4362.0  Rx     18EF1C8F  8  0D 20 00 F4 BF 20 86 FC 
  1050)      4362.9  Rx     18EF1C8F  8  0D 21 15 00 23 00 84 03 
  1051)      4363.9  Rx     18EF1C8F  8  0D 22 13 00 0A 00 0C 00 
  1052)      4382.0  Rx     18EF1C8F  8  0D 30 00 14 0E 21 86 FC 
  1053)      4382.9  Rx     18EF1C8F  8  0D 31 17 00 20 00 82 03 
  1054)      4384.0  Rx     18EF1C8F  8  0D 32 13 00 0A 00 0D 00 
  1055)      4402.0  Rx     18EF1C8F  8  0D 40 00 37 5C 21 86 FC 
  1056)      4403.0  Rx     18EF1C8F  8  0D 41 18 00 21 00 83 03 
  1057)      4403.9  Rx     18EF1C8F  8  0D 42 15 00 0A 00 0F 00 
  1058)      4411.0  Rx     18EF1CCD  8  A2 00 00 00 00 00 00 00 
  1059)      4422.0  Rx     18EF1C8F  8  0D 50 00 54 AA 21 86 FC 
  1060)      4422.9  Rx     18EF1C8F  8  0D 51 17 00 22 00 83 03 
  1061)      4424.0  Rx     18EF1C8F  8  0D 52 14 00 0B 00 0F 00 
  1062)      4431.0  Rx     18EF1CCD  8  A3 00 00 00 00 FA FF FA 
  1063)      4442.1  Rx     18EF1C8F  8  0D 60 00 74 F8 21 86 FC 
  1064)      4443.0  Rx     18EF1C8F  8  0D 61 16 00 24 00 83 03 
  1065)      4444.0  Rx     18EF1C8F  8  0D 62 14 00 08 00 0E 00 
  1066)      4451.0  Rx     18EF1CCD  8  A1 40 FA FF FF FF 00 00 
  1067)      4462.0  Rx     18EF1C8F  8  0D 70 00 94 46 22 86 FC 
  1068)      4463.0  Rx     18EF1C8F  8  0D 71 16 00 23 00 84 03 
  1069)      4464.0  Rx     18EF1C8F  8  0D 72 15 00 0B 00 0F 00 
  1070)      4473.8  Rx     18EFCD1C  8  A1 01 00 00 FA FF FF FF 
  1071)      4482.1  Rx     18EF1C8F  8  0D 80 00 B7 94 22 86 FC 
  1072)      4483.0  Rx     18EF1C8F  8  0D 81 17 00 22 00 84 03 
  1073)      4484.0  Rx     18EF1C8F  8  0D 82 15 00 0A 00 0E 00 
  1074)      4493.7  Rx     18EFCD1C  8  A0 00 14 00 00 00 00 00 
  1075)      4494.4  Rx     18EF1CCD  8  A0 00 14 00 7A 07 00 00 
  1076)      4502.1  Rx     18EF1C8F  8  0D 90 00 D4 E2 22 86 FC 
  1077)      4503.0  Rx     18EF1C8F  8  0D 91 16 00 22 00 82 03 
  1078)      4504.0  Rx     18EF1C8F  8  0D 92 14 00 09 00 0E 00 
  1079)      4511.2  Rx     18EF1CCD  8  A2 00 00 00 00 00 00 00 
  1080)      4513.8  Rx     18EFCD1C  8  A0 00 2A 00 00 00 00 00 
  1081)      4514.4  Rx     18EF1CCD  8  A0 00 2A 00 76 05 00 00 
  1082)      4522.1  Rx     18EF1C8F  8  0D A0 00 F7 30 23 86 FC 
  1083)      4523.0  Rx     18EF1C8F  8  0D A1 17 00 21 00 83 03 
  1084)      4524.0  Rx     18EF1C8F  8  0D A2 15 00 0B 00 0B 00 
  1085)      4531.3  Rx     18EF1CCD  8  A3 00 00 00 00 FA FF FA 
  1086)      4533.8  Rx     18EFCD1C  8  A0 00 1B 00 00 00 00 00 
  1087)      4534.4  Rx     18EF1CCD  8  A0 00 1B 00 00 00 00 00 
  1088)      4542.1  Rx     18EF1C8F  8  0D B0 00 14 7F 23 86 FC 
  1089)      4543.0  Rx     18EF1C8F  8  0D B1 16 00 22 00 84 03 
  1090)      4544.0  Rx     18EF1C8F  8  0D B2 14 00 0B 00 0E 00 
  1091)      4551.3  Rx     18EF1CCD  8  A1 40 FA FF FF FF 00 00 
  1092)      4554.0  Rx     18EFCD1C  8  A0 00 00 00 00 00 00 00 
  1093)      4554.7  Rx     18EF1CCD  8  A0 00 00 00 01 00 00 00 
  1094)      4562.1  Rx     18EF1C8F  8  0D C0 00 37 CD 23 86 FC 
  1095)      4563.0  Rx     18EF1C8F  8  0D C1 14 00 23 00 84 03 
  1096)      4564.0  Rx     18EF1C8F  8  0D C2 15 00 0A 00 0F 00 
  1097)      4582.1  Rx     18EF1C8F  8  0D D0 00 54 1B 24 86 FC 
  1098)      4583.0  Rx     18EF1C8F  8  0D D1 16 00 21 00 84 03 
  1099)      4584.0  Rx     18EF1C8F  8  0D D2 13 00 05 00 0E 00 
  1100)      4602.1  Rx     18EF1C8F  8  0D E0 00 74 69 24 86 FC 
  1101)      4603.0  Rx     18EF1C8F  8  0D E1 16 00 22 00 83 03 
  1102)      4604.0  Rx     18EF1C8F  8  0D E2 15 00 03 00 0E 00 
  1103)      4611.5  Rx     18EF1CCD  8  A2 00 00 00 00 00 00 00 
  1104)      4622.1  Rx     18EF1C8F  8  0D F0 00 94 B7 24 86 FC 
  1105)      4623.0  Rx     18EF1C8F  8  0D F1 16 00 22 00 85 03 
  1106)      4624.0  Rx     18EF1C8F  8  0D F2 15 00 0A 00 0E 00 
  1107)      4631.5  Rx     18EF1CCD  8  A3 00 00 00 00 FA FF FA 
  1108)      4642.1  Rx     18EF1C8F  8  0D 00 00 B4 05 25 86 FC 
  1109)      4643.0  Rx     18EF1C8F  8  0D 01 16 00 21 00 85 03 
  1110)      4644.0  Rx     18EF1C8F  8  0D 02 13 00 0B 00 0E 00 
  1111)      4651.5  Rx     18EF1CCD  8  A1 40 FA FF FF FF 00 00 
  1112)      4662.1  Rx     18EF1C8F  8  0D 10 00 D4 53 25 86 FC 
  1113)      4663.0  Rx     18EF1C8F  8  0D 11 15 00 23 00 82 03 
  1114)      4664.0  Rx     18EF1C8F  8  0D 12 14 00 0C 00 0E 00 
  1115)      4673.9  Rx     18EFCD1C  8  A1 01 00 00 FA FF FF FF 
  1116)      4682.1  Rx     18EF1C8F  8  0D 20 00 F4 A1 25 86 FC 
  1117)      4683.0  Rx     18EF1C8F  8  0D 21 17 00 21 00 84 03 
  1118)      4684.0  Rx     18EF1C8F  8  0D 22 15 00 0A 00 0F 00 
  1119)      4693.8  Rx     18EFCD1C  8  A0 00 14 00 00 00 00 00 
  1120)      4694.4  Rx     18EF1CCD  8  A0 00 14 00 79 07 00 00 
  1121)      4702.1  Rx     18EF1C8F  8  0D 30 00 17 F0 25 86 FC 
  1122)      4703.0  Rx     18EF1C8F  8  0D 31 15 00 23 00 84 03 
  1123)      4704.0  Rx     18EF1C8F  8  0D 32 13 00 0A 00 0E 00 
  1124)      4711.6  Rx     18EF1CCD  8  A2 00 00 00 00 00 00 00 
  1125)      4713.8  Rx     18EFCD1C  8  A0 00 2A 00 00 00 00 00 
  1126)      4714.4  Rx     18EF1CCD  8  A0 00 2A 00 76 05 00 00 
  1127)      4722.1  Rx     18EF1C8F  8  0D 40 00 34 3E 26 86 FC 
  1128)      4723.0  Rx     18EF1C8F  8  0D 41 17 00 1F 00 83 03 
  1129)      4724.0  Rx     18EF1C8F  8  0D 42 14 00 0A 00 0E 00 
  1130)      4731.7  Rx     18EF1CCD  8  A3 00 00 00 00 FA FF FA 
  1131)      4734.0  Rx     18EFCD1C  8  A0 00 1B 00 00 00 00 00 
  1132)      4734.7  Rx     18EF1CCD  8  A0 00 1B 00 00 00 00 00 
  1133)      4742.1  Rx     18EF1C8F  8  0D 50 00 54 8C 26 86 FC 
  1134)      4743.0  Rx     18EF1C8F  8  0D 51 16 00 24 00 83 03 
  1135)      4744.0  Rx     18EF1C8F  8  0D 52 15 00 0A 00 0D 00 
  1136)      4751.7  Rx     18EF1CCD  8  A1 40 FA FF FF FF 00 00 
  1137)      4753.8  Rx     18EFCD1C  8  A0 00 00 00 00 00 00 00 
  1138)      4754.4  Rx     18EF1CCD  8  A0 00 00 00 01 00 00 00 
  1139)      4762.1  Rx     18EF1C8F  8  0D 60 00 77 DA 26 86 FC 
  1140)      4763.0  Rx     18EF1C8F  8  0D 61 16 00 22 00 83 03 
  1141)      4764.0  Rx     18EF1C8F  8  0D 62 14 00 09 00 0E 00 
  1142)      4782.1  Rx     18EF1C8F  8  0D 70 00 94 28 27 86 FC 
  1143)      4783.0  Rx     18EF1C8F  8  0D 71 17 00 23 00 83 03 
  1144)      4784.0  Rx     18EF1C8F  8  0D 72 15 00 0A 00 0E 00 
  1145)      4802.1  Rx     18EF1C8F  8  0D 80 00 B4 76 27 86 FC 
  1146)      4803.0  Rx     18EF1C8F  8  0D 81 18 00 21 00 84 03 
  1147)      4804.0  Rx     18EF1C8F  8  0D 82 14 00 0C 00 10 00 
  1148)      4811.9  Rx     18EF1CCD  8  A2 00 00 00 00 00 00 00 
  1149)      4822.1  Rx     18EF1C8F  8  0D 90 00 D4 C4 27 86 FC 
  1150)      4823.0  Rx     18EF1C8F  8  0D 91 15 00 22 00 83 03 
  1151)      4824.0  Rx     18EF1C8F  8  0D 92 13 00 06 00 0E 00 
  1152)      4831.9  Rx     18EF1CCD  8  A3 00 00 00 00 FA FF FA 
  1153)      4842.1  Rx     18EF1C8F  8  0D A0 00 F4 12 28 86 FC 
  1154)      4843.0  Rx     18EF1C8F  8  0D A1 17 00 23 00 83 03 
  1155)      4844.0  Rx     18EF1C8F  8  0D A2 13 00 06 00 0F 00 
  1156)      4852.0  Rx     18EF1CCD  8  A1 40 FA FF FF FF 00 00 
  1157)      4862.1  Rx     18EF1C8F  8  0D B0 00 14 61 28 86 FC 
  1158)      4863.0  Rx     18EF1C8F  8  0D B1 16 00 22 00 84 03 
  1159)      4864.0  Rx     18EF1C8F  8  0D B2 14 00 0A 00 0E 00 
  1160)      4874.0  Rx     18EFCD1C  8  A1 01 00 00 FA FF FF FF 
  1161)      4882.1  Rx     18EF1C8F  8  0D C0 00 37 AF 28 86 FC 
  1162)      4883.0  Rx     18EF1C8F  8  0D C1 18 00 22 00 82 03 
  1163)      4884.0  Rx     18EF1C8F  8  0D C2 13 00 0C 00 0E 00 
  1164)      4893.8  Rx     18EFCD1C  8  A0 00 14 00 00 00 00 00 
  1165)      4894.4  Rx     18EF1CCD  8  A0 00 14 00 79 07 00 00 
  1166)      4902.1  Rx     18EF1C8F  8  0D D0 00 54 FD 28 86 FC 
  1167)      4903.0  Rx     18EF1C8F  8  0D D1 17 00 21 00 81 03 
  1168)      4904.0  Rx     18EF1C8F  8  0D D2 14 00 0B 00 0E 00 
  1169)      4912.1  Rx     18EF1CCD  8  A2 00 00 00 00 00 00 00 
  1170)      4914.0  Rx     18EFCD1C  8  A0 00 2A 00 00 00 00 00 
  1171)      4914.6  Rx     18EF1CCD  8  A0 00 2A 00 77 05 00 00 
  1172)      4922.1  Rx     18EF1C8F  8  0D E0 00 77 4B 29 86 FC 
  1173)      4923.0  Rx     18EF1C8F  8  0D E1 16 00 21 00 82 03 
  1174)      4924.1  Rx     18EF1C8F  8  0D E2 15 00 0A 00 0D 00 
  1175)      4932.2  Rx     18EF1CCD  8  A3 00 00 00 00 FA FF FA 
  1176)      4933.9  Rx     18EFCD1C  8  A0 00 1B 00 00 00 00 00 
  1177)      4934.5  Rx     18EF1CCD  8  A0 00 1B 00 00 00 00 00 
  1178)      4942.2  Rx     18EF1C8F  8  0D F0 00 94 99 29 86 FC 
  1179)      4943.1  Rx     18EF1C8F  8  0D F1 16 00 22 00 81 03 
  1180)      4944.1  Rx     18EF1C8F  8  0D F2 15 00 0B 00 0E 00 
  1181)      4952.3  Rx     18EF1CCD  8  A1 40 FA FF FF FF 00 00 
  1182)      4953.9  Rx     18EFCD1C  8  A0 00 00 00 00 00 00 00 
  1183)      4954.6  Rx     18EF1CCD  8  A0 00 00 00 01 00 00 00 
  1184)      4962.1  Rx     18EF1C8F  8  0D 00 00 B7 E7 29 86 FC 
  1185)      4963.1  Rx     18EF1C8F  8  0D 01 17 00 23 00 83 03 
  1186)      4964.1  Rx     18EF1C8F  8  0D 02 14 00 09 00 0D 00 
  1187)      4982.2  Rx     18EF1C8F  8  0D 10 00 D4 35 2A 86 FC 
  1188)      4983.0  Rx     18EF1C8F  8  0D 11 16 00 22 00 85 03 
  1189)      4984.1  Rx     18EF1C8F  8  0D 12 12 00 0A 00 0C 00 
  1190)      5002.1  Rx     18EF1C8F  8  0D 20 00 F4 83 2A 86 FC 
  1191)      5003.1  Rx     18EF1C8F  8  0D 21 17 00 20 00 85 03 
  1192)      5004.0  Rx     18EF1C8F  8  0D 22 15 00 09 00 0F 00 
  1193)      5012.4  Rx     18EF1CCD  8  A2 00 00 00 00 00 00 00 
  1194)      5022.2  Rx     18EF1C8F  8  0D 30 00 14 D2 2A 86 FC 
  1195)      5023.0  Rx     18EF1C8F  8  0D 31 17 00 21 00 85 03 
  1196)      5024.1  Rx     18EF1C8F  8  0D 32 14 00 0A 00 0F 00 
  1197)      5032.5  Rx     18EF1CCD  8  A3 00 00 00 00 FA FF FA 
  1198)      5039.4  Rx     18EF8F1C  4  01 78 D1 00 
  1199)      5040.0  Rx     18EF1C8F  4  01 D2 78 00 
  1200)      5040.4  Rx     18EFCD1C  4  01 32 E2 00 
  1201)      5040.9  Rx     18EF1CCD  4  01 E3 32 00 
  1202)      5042.2  Rx     18EF1C8F  8  0D 40 00 37 20 2B 86 FC 
  1203)      5043.1  Rx     18EF1C8F  8  0D 41 16 00 21 00 82 03 
  1204)      5044.1  Rx     18EF1C8F  8  0D 42 14 00 0B 00 0F 00 
  1205)      5052.5  Rx     18EF1CCD  8  A1 40 FA FF FF FF 00 00 
  1206)      5062.2  Rx     18EF1C8F  8  0D 50 00 57 6E 2B 86 FC 
  1207)      5063.1  Rx     18EF1C8F  8  0D 51 15 00 23 00 84 03 
  1208)      5064.1  Rx     18EF1C8F  8  0D 52 15 00 0B 00 0E 00 
  1209)      5074.1  Rx     18EFCD1C  8  A1 01 00 00 FA FF FF FF 
  1210)      5082.2  Rx     18EF1C8F  8  0D 60 00 74 BC 2B 86 FC 
  1211)      5083.1  Rx     18EF1C8F  8  0D 61 15 00 22 00 84 03 
  1212)      5084.1  Rx     18EF1C8F  8  0D 62 13 00 0A 00 0C 00 
  1213)      5093.8  Rx     18EFCD1C  8  A0 00 14 00 00 00 00 00 
  1214)      5094.4  Rx     18EF1CCD  8  A0 00 14 00 79 07 00 00 
  1215)      5102.2  Rx     18EF1C8F  8  0D 70 00 94 0A 2C 86 FC 
  1216)      5103.1  Rx     18EF1C8F  8  0D 71 17 00 22 00 83 03 
  1217)      5104.1  Rx     18EF1C8F  8  0D 72 13 00 09 00 0F 00 
  1218)      5112.6  Rx     18EF1CCD  8  A2 00 00 00 00 00 00 00 
  1219)      5114.0  Rx     18EFCD1C  8  A0 00 2A 00 00 00 00 00 
  1220)      5114.7  Rx     18EF1CCD  8  A0 00 2A 00 76 05 00 00 
  1221)      5122.2  Rx     18EF1C8F  8  0D 80 00 B7 58 2C 86 FC 
  1222)      5123.1  Rx     18EF1C8F  8  0D 81 18 00 21 00 84 03 
  1223)      5124.1  Rx     18EF1C8F  8  0D 82 15 00 0B 00 0E 00 
  1224)      5132.7  Rx     18EF1CCD  8  A3 00 00 00 00 FA FF FA 
  1225)      5134.0  Rx     18EFCD1C  8  A0 00 1B 00 00 00 00 00 
  1226)      5134.7  Rx     18EF1CCD  8  A0 00 1B 00 00 00 00 00 
  1227)      5142.2  Rx     18EF1C8F  8  0D 90 00 D4 A6 2C 86 FC 
  1228)      5143.1  Rx     18EF1C8F  8  0D 91 16 00 22 00 83 03 
  1229)      5144.1  Rx     18EF1C8F  8  0D 92 16 00 0A 00 10 00 
  1230)      5152.7  Rx     18EF1CCD  8  A1 40 FA FF FF FF 00 00 
  1231)      5154.0  Rx     18EFCD1C  8  A0 00 00 00 00 00 00 00 
  1232)      5154.6  Rx     18EF1CCD  8  A0 00 00 00 01 00 00 00 
  1233)      5162.2  Rx     18EF1C8F  8  0D A0 00 F7 F4 2C 86 FC 
  1234)      5163.1  Rx     18EF1C8F  8  0D A1 16 00 21 00 83 03 
  1235)      5164.1  Rx     18EF1C8F  8  0D A2 15 00 0A 00 0D 00 
  1236)      5182.2  Rx     18EF1C8F  8  0D B0 00 14 43 2D 86 FC 
  1237)      5183.1  Rx     18EF1C8F  8  0D B1 15 00 21 00 82 03 
  1238)      5184.1  Rx     18EF1C8F  8  0D B2 15 00 09 00 0C 00 
  1239)      5202.2  Rx     18EF1C8F  8  0D C0 00 34 91 2D 86 FC 
  1240)      5203.1  Rx     18EF1C8F  8  0D C1 15 00 21 00 85 03 
  1241)      5204.1  Rx     18EF1C8F  8  0D C2 14 00 09 00 0E 00 
  1242)      5212.9  Rx     18EF1CCD  8  A2 00 00 00 00 00 00 00 
  1243)      5215.3  Rx     18FEF31C  8  5E 29 80 99 AC CE 2C 89 
  1244)      5215.9  Rx     18FEE81C  8  97 4F 00 00 00 00 10 52 
  1245)      5216.5  Rx     18FEE61C  8  38 0C 0E 09 57 29 00 00 
  1246)      5217.1  Rx     19F8021C  8  0C FC 86 6C 00 00 FF FF 
  1247)      5222.2  Rx     18EF1C8F  8  0D D0 00 57 DF 2D 86 FC 
  1248)      5223.2  Rx     18EF1C8F  8  0D D1 14 00 23 00 83 03 
  1249)      5224.1  Rx     18EF1C8F  8  0D D2 14 00 0C 00 0F 00 
  1250)      5232.9  Rx     18EF1CCD  8  A3 00 00 00 00 FA FF FA 
  1251)      5242.2  Rx     18EF1C8F  8  0D E0 00 74 2D 2E 86 FC 
  1252)      5243.1  Rx     18EF1C8F  8  0D E1 16 00 22 00 84 03 
  1253)      5244.2  Rx     18EF1C8F  8  0D E2 13 00 0D 00 0E 00 
  1254)      5253.0  Rx     18EF1CCD  8  A1 40 FA FF FF FF 00 00 
  1255)      5261.5  Rx     19F8051C  8  20 2F 0C EE 50 A3 6E 7A 
  1256)      5262.1  Rx     19F8051C  8  21 1E 80 CE 24 2F E1 A6 
  1257)      5262.6  Rx     18EF1C8F  8  0D F0 00 97 7B 2E 86 FC 
  1258)      5263.2  Rx     18EF1C8F  8  0D F1 15 00 22 00 84 03 
  1259)      5263.7  Rx     19F8051C  8  22 98 06 E0 65 4B B4 F3 
  1260)      5264.3  Rx     18EF1C8F  8  0D F2 14 00 0B 00 0F 00 
  1261)      5264.9  Rx     19F8051C  8  23 91 CB 02 41 40 68 08 
  1262)      5265.4  Rx     19F8051C  8  24 00 00 00 00 20 00 0A 
  1263)      5266.0  Rx     19F8051C  8  25 64 00 64 00 DC 05 00 
  1264)      5266.6  Rx     19F8051C  8  26 00 01 0F 00 00 00 FF 
  1265)      5274.0  Rx     18EFCD1C  8  A1 01 00 00 FA FF FF FF 
  1266)      5282.2  Rx     18EF1C8F  8  0D 00 00 B7 C9 2E 86 FC 
  1267)      5283.2  Rx     18EF1C8F  8  0D 01 15 00 20 00 84 03 
  1268)      5284.1  Rx     18EF1C8F  8  0D 02 15 00 0A 00 0E 00 
  1269)      5293.9  Rx     18EFCD1C  8  A0 00 14 00 00 00 00 00 
  1270)      5294.5  Rx     18EF1CCD  8  A0 00 14 00 79 07 00 00 
  1271)      5302.2  Rx     18EF1C8F  8  0D 10 00 D7 17 2F 86 FC 
  1272)      5303.1  Rx     18EF1C8F  8  0D 11 16 00 22 00 85 03 
  1273)      5304.2  Rx     18EF1C8F  8  0D 12 15 00 0A 00 10 00 
  1274)      5313.2  Rx     18EF1CCD  8  A2 00 00 00 00 00 00 00 
  1275)      5314.2  Rx     18EFCD1C  8  A0 00 2A 00 00 00 00 00 
  1276)      5314.9  Rx     18EF1CCD  8  A0 00 2A 00 76 05 00 00 
  1277)      5322.3  Rx     18EF1C8F  8  0D 20 00 F4 65 2F 86 FC 
  1278)      5323.2  Rx     18EF1C8F  8  0D 21 17 00 22 00 83 03 
  1279)      5324.2  Rx     18EF1C8F  8  0D 22 15 00 0A 00 0E 00 
  1280)      5333.2  Rx     18EF1CCD  8  A3 00 00 00 00 FA FF FA 
  1281)      5334.2  Rx     18EFCD1C  8  A0 00 1B 00 00 00 00 00 
  1282)      5334.8  Rx     18EF1CCD  8  A0 00 1B 00 00 00 00 00 
  1283)      5342.2  Rx     18EF1C8F  8  0D 30 00 17 B4 2F 86 FC 
  1284)      5343.2  Rx     18EF1C8F  8  0D 31 16 00 21 00 83 03 
  1285)      5344.2  Rx     18EF1C8F  8  0D 32 13 00 0B 00 0D 00 
  1286)      5353.2  Rx     18EF1CCD  8  A1 40 FA FF FF FF 00 00 
  1287)      5354.2  Rx     18EFCD1C  8  A0 00 00 00 00 00 00 00 
  1288)      5354.9  Rx     18EF1CCD  8  A0 00 00 00 01 00 00 00 
  1289)      5362.3  Rx     18EF1C8F  8  0D 40 00 34 02 30 86 FC 
  1290)      5363.2  Rx     18EF1C8F  8  0D 41 17 00 22 00 82 03 
  1291)      5364.2  Rx     18EF1C8F  8  0D 42 15 00 0A 00 0D 00 
  1292)      5382.2  Rx     18EF1C8F  8  0D 50 00 54 50 30 86 FC 
  1293)      5383.2  Rx     18EF1C8F  8  0D 51 16 00 21 00 83 03 
  1294)      5384.2  Rx     18EF1C8F  8  0D 52 13 00 09 00 0E 00 
  1295)      5402.3  Rx     18EF1C8F  8  0D 60 00 74 9E 30 86 FC 
  1296)      5403.2  Rx     18EF1C8F  8  0D 61 18 00 25 00 84 03 
  1297)      5404.2  Rx     18EF1C8F  8  0D 62 15 00 09 00 0D 00 
  1298)      5413.4  Rx     18EF1CCD  8  A2 00 00 00 00 00 00 00 
  1299)      5422.3  Rx     18EF1C8F  8  0D 70 00 94 EC 30 86 FC 
  1300)      5423.2  Rx     18EF1C8F  8  0D 71 18 00 20 00 84 03 
  1301)      5424.2  Rx     18EF1C8F  8  0D 72 14 00 0A 00 0E 00 
  1302)      5433.4  Rx     18EF1CCD  8  A3 00 00 00 00 FA FF FA 
  1303)      5442.3  Rx     18EF1C8F  8  0D 80 00 B7 3A 31 86 FC 
  1304)      5443.2  Rx     18EF1C8F  8  0D 81 17 00 22 00 84 03 
  1305)      5444.2  Rx     18EF1C8F  8  0D 82 15 00 0A 00 0E 00 
  1306)      5453.5  Rx     18EF1CCD  8  A1 40 FA FF FF FF 00 00 
  1307)      5462.3  Rx     18EF1C8F  8  0D 90 00 D4 88 31 86 FC 
  1308)      5463.2  Rx     18EF1C8F  8  0D 91 17 00 23 00 83 03 
  1309)      5464.2  Rx     18EF1C8F  8  0D 92 13 00 09 00 0F 00 
  1310)      5474.0  Rx     18EFCD1C  8  A1 01 00 00 FA FF FF FF 
  1311)      5482.3  Rx     18EF1C8F  8  0D A0 00 F7 D6 31 86 FC 
  1312)      5483.2  Rx     18EF1C8F  8  0D A1 15 00 23 00 83 03 
  1313)      5484.2  Rx     18EF1C8F  8  0D A2 13 00 08 00 11 00 
  1314)      5494.0  Rx     18EFCD1C  8  A0 00 14 00 00 00 00 00 
  1315)      5494.6  Rx     18EF1CCD  8  A0 00 14 00 79 07 00 00 
  1316)      5502.3  Rx     18EF1C8F  8  0D B0 00 14 25 32 86 FC 
  1317)      5503.2  Rx     18EF1C8F  8  0D B1 17 00 24 00 85 03 
  1318)      5504.2  Rx     18EF1C8F  8  0D B2 15 00 0A 00 0E 00 
  1319)      5513.6  Rx     18EF1CCD  8  A2 00 00 00 00 00 00 00 
  1320)      5514.2  Rx     18EFCD1C  8  A0 00 2A 00 00 00 00 00 
  1321)      5514.8  Rx     18EF1CCD  8  A0 00 2A 00 75 05 00 00 
  1322)      5522.3  Rx     18EF1C8F  8  0D C0 00 34 73 32 86 FC 
  1323)      5523.2  Rx     18EF1C8F  8  0D C1 17 00 22 00 83 03 
  1324)      5524.2  Rx     18EF1C8F  8  0D C2 13 00 09 00 0E 00 
  1325)      5533.7  Rx     18EF1CCD  8  A3 00 00 00 00 FA FF FA 
  1326)      5534.3  Rx     18EFCD1C  8  A0 00 1B 00 00 00 00 00 
  1327)      5534.9  Rx     18EF1CCD  8  A0 00 1B 00 00 00 00 00 
  1328)      5542.3  Rx     18EF1C8F  8  0D D0 00 54 C1 32 86 FC 
  1329)      5543.2  Rx     18EF1C8F  8  0D D1 15 00 1F 00 83 03 
  1330)      5544.2  Rx     18EF1C8F  8  0D D2 13 00 0B 00 0F 00 
  1331)      5553.7  Rx     18EF1CCD  8  A1 40 FA FF FF FF 00 00 
  1332)      5554.3  Rx     18EFCD1C  8  A0 00 00 00 00 00 00 00 
  1333)      5555.0  Rx     18EF1CCD  8  A0 00 00 00 01 00 00 00 
  1334)      5562.3  Rx     18EF1C8F  8  0D E0 00 77 0F 33 86 FC 
  1335)      5563.3  Rx     18EF1C8F  8  0D E1 15 00 21 00 83 03 
  1336)      5564.2  Rx     18EF1C8F  8  0D E2 15 00 09 00 0D 00 
  1337)      5582.3  Rx     18EF1C8F  8  0D F0 00 94 5D 33 86 FC 
  1338)      5583.2  Rx     18EF1C8F  8  0D F1 18 00 22 00 84 03 
  1339)      5584.3  Rx     18EF1C8F  8  0D F2 13 00 09 00 0E 00 
  1340)      5602.3  Rx     18EF1C8F  8  0D 00 00 B4 AB 33 86 FC 
  1341)      5603.3  Rx     18EF1C8F  8  0D 01 16 00 1F 00 82 03 
  1342)      5604.3  Rx     18EF1C8F  8  0D 02 14 00 0A 00 0C 00 
  1343)      5613.9  Rx     18EF1CCD  8  A2 00 00 00 00 00 00 00 
  1344)      5622.3  Rx     18EF1C8F  8  0D 10 00 D4 F9 33 86 FC 
  1345)      5623.2  Rx     18EF1C8F  8  0D 11 16 00 23 00 83 03 
  1346)      5624.3  Rx     18EF1C8F  8  0D 12 16 00 0C 00 0D 00 
  1347)      5633.9  Rx     18EF1CCD  8  A3 00 00 00 00 FA FF FA 
  1348)      5642.3  Rx     18EF1C8F  8  0D 20 00 F4 47 34 86 FC 
  1349)      5643.3  Rx     18EF1C8F  8  0D 21 16 00 21 00 83 03 
  1350)      5644.3  Rx     18EF1C8F  8  0D 22 13 00 0D 00 0E 00 
  1351)      5654.0  Rx     18EF1CCD  8  A1 40 FA FF FF FF 00 00 
  1352)      5662.3  Rx     18EF1C8F  8  0D 30 00 14 96 34 86 FC 
  1353)      5663.2  Rx     18EF1C8F  8  0D 31 16 00 22 00 83 03 
  1354)      5664.3  Rx     18EF1C8F  8  0D 32 15 00 0B 00 0D 00 
  1355)      5674.1  Rx     18EFCD1C  8  A1 01 00 00 FA FF FF FF 
  1356)      5682.3  Rx     18EF1C8F  8  0D 40 00 34 E4 34 86 FC 
  1357)      5683.3  Rx     18EF1C8F  8  0D 41 15 00 23 00 82 03 
  1358)      5684.2  Rx     18EF1C8F  8  0D 42 16 00 09 00 0E 00 
  1359)      5694.0  Rx     18EFCD1C  8  A0 00 14 00 00 00 00 00 
  1360)      5694.6  Rx     18EF1CCD  8  A0 00 14 00 7A 07 00 00 
  1361)      5702.3  Rx     18EF1C8F  8  0D 50 00 54 32 35 86 FC 
  1362)      5703.2  Rx     18EF1C8F  8  0D 51 16 00 21 00 82 03 
  1363)      5704.3  Rx     18EF1C8F  8  0D 52 13 00 0A 00 0E 00 
  1364)      5714.0  Rx     18EFCD1C  8  A0 00 2A 00 00 00 00 00 
  1365)      5714.6  Rx     18EF1CCD  8  A2 00 00 00 00 00 00 00 
  1366)      5715.2  Rx     18EF1CCD  8  A0 00 2A 00 76 05 00 00 
  1367)      5722.3  Rx     18EF1C8F  8  0D 60 00 77 80 35 86 FC 
  1368)      5723.2  Rx     18EF1C8F  8  0D 61 16 00 22 00 85 03 
  1369)      5724.2  Rx     18EF1C8F  8  0D 62 15 00 0C 00 0D 00 
  1370)      5733.9  Rx     18EFCD1C  8  A0 00 1B 00 00 00 00 00 
  1371)      5734.5  Rx     18EF1CCD  8  A3 00 00 00 00 FA FF FA 
  1372)      5735.1  Rx     18EF1CCD  8  A0 00 1B 00 00 00 00 00 
  1373)      5742.3  Rx     18EF1C8F  8  0D 70 00 97 CE 35 86 FC 
  1374)      5743.2  Rx     18EF1C8F  8  0D 71 15 00 20 00 84 03 
  1375)      5744.2  Rx     18EF1C8F  8  0D 72 14 00 09 00 0D 00 
  1376)      5754.0  Rx     18EFCD1C  8  A0 00 00 00 00 00 00 00 
  1377)      5754.5  Rx     18EF1CCD  8  A1 40 FA FF FF FF 00 00 
  1378)      5755.2  Rx     18EF1CCD  8  A0 00 00 00 01 00 00 00 
  1379)      5762.3  Rx     18EF1C8F  8  0D 80 00 B4 1C 36 86 FC 
  1380)      5763.2  Rx     18EF1C8F  8  0D 81 15 00 23 00 84 03 
  1381)      5764.2  Rx     18EF1C8F  8  0D 82 15 00 0C 00 0E 00 
  1382)      5782.3  Rx     18EF1C8F  8  0D 90 00 D4 6A 36 86 FC 
  1383)      5783.2  Rx     18EF1C8F  8  0D 91 15 00 22 00 83 03 
  1384)      5784.2  Rx     18EF1C8F  8  0D 92 16 00 08 00 10 00 
  1385)      5802.3  Rx     18EF1C8F  8  0D A0 00 F4 B8 36 86 FC 
  1386)      5803.2  Rx     18EF1C8F  8  0D A1 17 00 22 00 83 03 
  1387)      5804.2  Rx     18EF1C8F  8  0D A2 15 00 08 00 10 00 
  1388)      5814.3  Rx     18EF1CCD  8  A2 00 00 00 00 00 00 00 
  1389)      5822.3  Rx     18EF1C8F  8  0D B0 00 17 07 37 86 FC 
  1390)      5823.2  Rx     18EF1C8F  8  0D B1 15 00 22 00 83 03 
  1391)      5824.2  Rx     18EF1C8F  8  0D B2 15 00 0A 00 0E 00 
  1392)      5834.3  Rx     18EF1CCD  8  A3 00 00 00 00 FA FF FA 
  1393)      5842.3  Rx     18EF1C8F  8  0D C0 00 34 55 37 86 FC 
  1394)      5843.2  Rx     18EF1C8F  8  0D C1 16 00 23 00 84 03 
  1395)      5844.2  Rx     18EF1C8F  8  0D C2 16 00 0A 00 0F 00 
  1396)      5854.4  Rx     18EF1CCD  8  A1 40 FA FF FF FF 00 00 
  1397)      5862.3  Rx     18EF1C8F  8  0D D0 00 54 A3 37 86 FC 
  1398)      5863.2  Rx     18EF1C8F  8  0D D1 15 00 22 00 83 03 
  1399)      5864.2  Rx     18EF1C8F  8  0D D2 14 00 0C 00 0D 00 
  1400)      5874.2  Rx     18EFCD1C  8  A1 01 00 00 FA FF FF FF 
  1401)      5882.3  Rx     18EF1C8F  8  0D E0 00 74 F1 37 86 FC 
  1402)      5883.2  Rx     18EF1C8F  8  0D E1 15 00 23 00 84 03 
  1403)      5884.3  Rx     18EF1C8F  8  0D E2 14 00 0C 00 0E 00 
  1404)      5894.0  Rx     18EFCD1C  8  A0 00 14 00 00 00 00 00 
  1405)      5894.6  Rx     18EF1CCD  8  A0 00 14 00 79 07 00 00 
  1406)      5902.4  Rx     18EF1C8F  8  0D F0 00 97 3F 38 86 FC 
  1407)      5903.2  Rx     18EF1C8F  8  0D F1 17 00 21 00 84 03 
  1408)      5904.3  Rx     18EF1C8F  8  0D F2 14 00 0A 00 0E 00 
  1409)      5914.0  Rx     18EFCD1C  8  A0 00 2A 00 00 00 00 00 
  1410)      5914.6  Rx     18EF1CCD  8  A2 00 00 00 00 00 00 00 
  1411)      5915.6  Rx     18EF1CCD  8  A0 00 2A 00 76 05 00 00 
  1412)      5922.3  Rx     18EF1C8F  8  0D 00 00 B4 8D 38 86 FC 
  1413)      5923.3  Rx     18EF1C8F  8  0D 01 17 00 24 00 85 03 
  1414)      5924.2  Rx     18EF1C8F  8  0D 02 16 00 0A 00 0D 00 
  1415)      5934.0  Rx     18EFCD1C  8  A0 00 1B 00 00 00 00 00 
  1416)      5934.6  Rx     18EF1CCD  8  A3 00 00 00 00 FA FF FA 
  1417)      5935.6  Rx     18EF1CCD  8  A0 00 1B 00 00 00 00 00 
  1418)      5942.4  Rx     18EF1C8F  8  0D 10 00 D7 DB 38 86 FC 
  1419)      5943.2  Rx     18EF1C8F  8  0D 11 18 00 22 00 84 03 
  1420)      5944.3  Rx     18EF1C8F  8  0D 12 17 00 09 00 0F 00 
  1421)      5954.0  Rx     18EFCD1C  8  A0 00 00 00 00 00 00 00 
  1422)      5954.6  Rx     18EF1CCD  8  A1 40 FA FF FF FF 00 00 
  1423)      5955.6  Rx     18EF1CCD  8  A0 00 00 00 01 00 00 00 
  1424)      5962.3  Rx     18EF1C8F  8  0D 20 00 F7 29 39 86 FC 
  1425)      5963.3  Rx     18EF1C8F  8  0D 21 16 00 23 00 82 03 
  1426)      5964.2  Rx     18EF1C8F  8  0D 22 19 00 0A 00 0D 00 
  1427)      5982.3  Rx     18EF1C8F  8  0D 30 00 14 78 39 86 FC 
  1428)      5983.2  Rx     18EF1C8F  8  0D 31 16 00 22 00 84 03 
  1429)      5984.3  Rx     18EF1C8F  8  0D 32 14 00 09 00 10 00 
  1430)      6002.3  Rx     18EF1C8F  8  0D 40 00 34 C6 39 86 FC 
  1431)      6003.3  Rx     18EF1C8F  8  0D 41 17 00 21 00 83 03 
  1432)      6004.2  Rx     18EF1C8F  8  0D 42 14 00 0A 00 0D 00 
  1433)      6014.8  Rx     18EF1CCD  8  A2 00 00 00 00 00 00 00 
  1434)      6022.3  Rx     18EF1C8F  8  0D 50 00 54 14 3A 86 FC 
  1435)      6023.3  Rx     18EF1C8F  8  0D 51 18 00 21 00 81 03 
  1436)      6024.3  Rx     18EF1C8F  8  0D 52 13 00 08 00 0C 00 
  1437)      6034.8  Rx     18EF1CCD  8  A3 00 00 00 00 FA FF FA 
  1438)      6042.4  Rx     18EF1C8F  8  0D 60 00 74 62 3A 86 FC 
  1439)      6043.3  Rx     18EF1C8F  8  0D 61 17 00 21 00 83 03 
  1440)      6044.3  Rx     18EF1C8F  8  0D 62 15 00 0A 00 0E 00 
  1441)      6054.9  Rx     18EF1CCD  8  A1 40 FA FF FF FF 00 00 
  1442)      6062.4  Rx     18EF1C8F  8  0D 70 00 94 B0 3A 86 FC 
  1443)      6063.3  Rx     18EF1C8F  8  0D 71 18 00 21 00 84 03 
  1444)      6064.3  Rx     18EF1C8F  8  0D 72 16 00 08 00 0F 00 
  1445)      6074.3  Rx     18EFCD1C  8  A1 01 00 00 FA FF FF FF 
  1446)      6082.4  Rx     18EF1C8F  8  0D 80 00 B4 FE 3A 86 FC 
  1447)      6083.3  Rx     18EF1C8F  8  0D 81 16 00 22 00 82 03 
  1448)      6084.3  Rx     18EF1C8F  8  0D 82 11 00 0A 00 0E 00 
  1449)      6094.0  Rx     18EFCD1C  8  A0 00 14 00 00 00 00 00 
  1450)      6094.6  Rx     18EF1CCD  8  A0 00 14 00 79 07 00 00 
  1451)      6102.4  Rx     18EF1C8F  8  0D 90 00 D4 4C 3B 86 FC 
  1452)      6103.3  Rx     18EF1C8F  8  0D 91 16 00 21 00 82 03 
  1453)      6104.3  Rx     18EF1C8F  8  0D 92 15 00 0B 00 0E 00 
  1454)      6114.0  Rx     18EFCD1C  8  A0 00 2A 00 00 00 00 00 
  1455)      6114.7  Rx     18EF1CCD  8  A0 00 2A 00 77 05 00 00 
  1456)      6115.3  Rx     18EF1CCD  8  A2 00 00 00 00 00 00 00 
  1457)      6122.4  Rx     18EF1C8F  8  0D A0 00 F7 9A 3B 86 FC 
  1458)      6123.3  Rx     18EF1C8F  8  0D A1 16 00 21 00 83 03 
  1459)      6124.3  Rx     18EF1C8F  8  0D A2 14 00 0B 00 0F 00 
  1460)      6134.0  Rx     18EFCD1C  8  A0 00 1B 00 00 00 00 00 
  1461)      6134.7  Rx     18EF1CCD  8  A0 00 1B 00 00 00 00 00 
  1462)      6135.3  Rx     18EF1CCD  8  A3 00 00 00 00 FA FF FA 
  1463)      6142.4  Rx     18EF1C8F  8  0D B0 00 14 E9 3B 86 FC 
  1464)      6143.3  Rx     18EF1C8F  8  0D B1 16 00 22 00 83 03 
  1465)      6144.3  Rx     18EF1C8F  8  0D B2 14 00 0B 00 0E 00 
  1466)      6154.0  Rx     18EFCD1C  8  A0 00 00 00 00 00 00 00 
  1467)      6154.6  Rx     18EF1CCD  8  A0 00 00 00 01 00 00 00 
  1468)      6155.2  Rx     18EF1CCD  8  A1 40 FA FF FF FF 00 00 
  1469)      6162.4  Rx     18EF1C8F  8  0D C0 00 37 37 3C 86 FC 
  1470)      6163.3  Rx     18EF1C8F  8  0D C1 17 00 23 00 81 03 
  1471)      6164.3  Rx     18EF1C8F  8  0D C2 15 00 0D 00 0D 00 
  1472)      6182.4  Rx     18EF1C8F  8  0D D0 00 54 85 3C 86 FC 
  1473)      6183.3  Rx     18EF1C8F  8  0D D1 16 00 22 00 82 03 
  1474)      6184.3  Rx     18EF1C8F  8  0D D2 15 00 09 00 0F 00 
  1475)      6202.4  Rx     18EF1C8F  8  0D E0 00 74 D3 3C 86 FC 
  1476)      6203.3  Rx     18EF1C8F  8  0D E1 17 00 24 00 82 03 
  1477)      6204.3  Rx     18EF1C8F  8  0D E2 14 00 0C 00 0D 00 
  1478)      6215.3  Rx     18EF1CCD  8  A2 00 00 00 00 00 00 00 
  1479)      6215.8  Rx     18FEF31C  8  5E 29 80 99 AC CE 2C 89 
  1480)      6216.4  Rx     18FEE81C  8  97 4F 00 00 00 00 10 52 
  1481)      6217.0  Rx     18FEE61C  8  3C 0C 0E 09 57 29 00 00 
  1482)      6217.5  Rx     19F0101C  8  11 00 EE 50 B3 95 7A 1E 
  1483)      6218.1  Rx     19F8021C  8  11 FC 86 6C 00 00 FF FF 
  1484)      6222.4  Rx     18EF1C8F  8  0D F0 00 94 21 3D 86 FC 
  1485)      6223.3  Rx     18EF1C8F  8  0D F1 16 00 21 00 82 03 
  1486)      6224.3  Rx     18EF1C8F  8  0D F2 15 00 0C 00 0F 00 
  1487)      6235.3  Rx     18EF1CCD  8  A3 00 00 00 00 FA FF FA 
  1488)      6242.4  Rx     18EF1C8F  8  0D 00 00 B7 6F 3D 86 FC 
  1489)      6243.3  Rx     18EF1C8F  8  0D 01 15 00 23 00 83 03 
  1490)      6244.3  Rx     18EF1C8F  8  0D 02 14 00 0B 00 0D 00 
