;$FILEVERSION=1.1
;$STARTTIME=46287.6686983449
;
;   Start time: 9/22/2026 16:02:55.537.0
;   Generated by PCAN-View v5.3.3.958
;
;   Message Number
;   |         Time Offset (ms)
;   |         |        Type
;   |         |        |        ID (hex)
;   |         |        |        |     Data Length
;   |         |        |        |     |   Data Bytes (hex) ...
;   |         |        |        |     |   |
;---+--   ----+----  --+--  ----+---  +  -+ -- -- -- -- -- -- --
     1)        11.7  Rx     18EFCD1C  8  A1 09 00 00 00 00 00 00 
     2)        32.5  Rx     18EFCD1C  8  A1 09 00 00 00 00 00 00 
     3)        52.8  Rx     18EFCD1C  8  A1 09 00 00 00 00 00 00 
     4)        73.5  Rx     18EFCD1C  8  A1 09 00 00 00 00 00 00 
     5)        93.9  Rx     18EFCD1C  8  A1 09 00 00 00 00 00 00 
     6)       114.2  Rx     18EFCD1C  8  A1 09 00 00 00 00 00 00 
     7)       134.6  Rx     18EFCD1C  8  A1 09 00 00 00 00 00 00 
     8)       134.6  Rx     18EFCD1C  8  A0 00 00 00 00 00 00 00 
     9)       138.7  Rx     18EF1CCD  8  A0 00 00 00 03 00 00 00 
    10)       155.7  Rx     18EFCD1C  8  A1 09 00 00 00 00 00 00 
    11)       176.3  Rx     18EFCD1C  8  A1 09 00 00 00 00 00 00 
    12)       196.9  Rx     18EFCD1C  8  A1 09 00 00 00 00 00 00 
    13)       217.5  Rx     18EFCD1C  8  A1 09 00 00 00 00 00 00 
    14)       238.1  Rx     18EFCD1C  8  A1 09 00 00 00 00 00 00 
    15)       258.7  Rx     18EFCD1C  8  A1 09 00 00 00 00 00 00 
    16)       279.5  Rx     18EFCD1C  8  A1 09 00 00 00 00 00 00 
    17)       299.9  Rx     18EFCD1C  8  A1 09 00 00 00 00 00 00 
    18)       320.7  Rx     18EFCD1C  8  A1 09 00 00 00 00 00 00 
    19)       340.9  Rx     18EFCD1C  8  A1 09 00 00 00 00 00 00 
    20)       340.9  Rx     18EFCD1C  8  A0 00 14 00 00 00 00 00 
    21)       345.1  Rx     18EF1CCD  8  A0 00 14 00 68 07 00 00 
    22)       361.5  Rx     18EFCD1C  8  A1 09 00 00 00 00 00 00 
    23)       381.9  Rx     18EFCD1C  8  A1 09 00 00 00 00 00 00 
    24)       402.4  Rx     18EFCD1C  8  A1 09 00 00 00 00 00 00 
    25)       423.0  Rx     18EFCD1C  8  A1 09 00 00 00 00 00 00 
    26)       443.7  Rx     18EFCD1C  8  A1 09 00 00 00 00 00 00 
    27)       464.3  Rx     18EFCD1C  8  A1 09 00 00 00 00 00 00 
    28)       485.0  Rx     18EFCD1C  8  A1 09 00 00 00 00 00 00 
    29)       505.4  Rx     18EFCD1C  8  A1 09 00 00 00 00 00 00 
    30)       526.0  Rx     18EFCD1C  8  A1 09 00 00 00 00 00 00 
    31)       546.6  Rx     18EFCD1C  8  A1 09 00 00 00 00 00 00 
    32)       546.6  Rx     18EFCD1C  8  A0 00 2A 00 00 00 00 00 
    33)       550.8  Rx     18EF1CCD  8  A0 00 2A 00 41 06 00 00 
    34)       567.6  Rx     18EFCD1C  8  A1 09 00 00 00 00 00 00 
    35)       588.1  Rx     18EFCD1C  8  A1 09 00 00 00 00 00 00 
    36)       608.6  Rx     18EFCD1C  8  A1 09 00 00 00 00 00 00 
    37)       628.9  Rx     18EFCD1C  8  A1 09 00 00 00 00 00 00 
    38)       649.6  Rx     18EFCD1C  8  A1 09 00 00 00 00 00 00 
    39)       670.3  Rx     18EFCD1C  8  A1 09 00 00 00 00 00 00 
    40)       690.8  Rx     18EFCD1C  8  A1 09 00 00 00 00 00 00 
    41)       711.4  Rx     18EFCD1C  8  A1 09 00 00 00 00 00 00 
    42)       731.9  Rx     18EFCD1C  8  A1 09 00 00 00 00 00 00 
    43)       752.4  Rx     18EFCD1C  8  A1 09 00 00 00 00 00 00 
    44)       752.4  Rx     18EFCD1C  8  A0 00 1B 00 00 00 00 00 
    45)       756.5  Rx     18EF1CCD  8  A0 00 1B 00 92 04 00 00 
    46)       773.0  Rx     18EFCD1C  8  A1 09 00 00 00 00 00 00 
    47)       793.6  Rx     18EFCD1C  8  A1 09 00 00 00 00 00 00 
    48)       814.1  Rx     18EFCD1C  8  A1 09 00 00 00 00 00 00 
    49)       834.6  Rx     18EFCD1C  8  A1 09 00 00 00 00 00 00 
    50)       855.4  Rx     18EFCD1C  8  A1 09 00 00 00 00 00 00 
    51)       876.1  Rx     18EFCD1C  8  A1 09 00 00 00 00 00 00 
    52)       896.7  Rx     18EFCD1C  8  A1 09 00 00 00 00 00 00 
    53)       917.3  Rx     18EFCD1C  8  A1 09 00 00 00 00 00 00 
    54)       937.9  Rx     18EFCD1C  8  A1 09 00 00 00 00 00 00 
    55)       958.5  Rx     18EFCD1C  8  A1 09 00 00 00 00 00 00 
    56)       958.5  Rx     18EFCD1C  8  A0 00 00 00 00 00 00 00 
    57)       962.6  Rx     18EF1CCD  8  A0 00 00 00 03 00 00 00 
    58)       979.4  Rx     18EFCD1C  8  A1 09 00 00 00 00 00 00 
    59)      1000.0  Rx     18EFCD1C  8  A1 09 00 00 00 00 00 00 
    60)      1020.6  Rx     18EFCD1C  8  A1 09 00 00 00 00 00 00 
    61)      1040.9  Rx     18EFCD1C  8  A1 09 00 00 00 00 00 00 
    62)      1061.4  Rx     18EFCD1C  8  A1 09 00 00 00 00 00 00 
    63)      1082.2  Rx     18EFCD1C  8  A1 09 00 00 00 00 00 00 
    64)      1102.6  Rx     18EFCD1C  8  A1 09 00 00 00 00 00 00 
    65)      1123.1  Rx     18EFCD1C  8  A1 09 00 00 00 00 00 00 
    66)      1143.6  Rx     18EFCD1C  8  A1 09 00 00 00 00 00 00 
    67)      1164.1  Rx     18EFCD1C  8  A1 09 00 00 00 00 00 00 
    68)      1164.1  Rx     18EFCD1C  8  A0 00 14 00 00 00 00 00 
    69)      1164.5  Rx     18EFCD1C  4  01 A6 87 00 
    70)      1168.6  Rx     18EF1CCD  8  A0 00 14 00 68 07 00 00 
    71)      1169.0  Rx     18EF1CCD  4  01 88 A6 01 
    72)      1184.9  Rx     18EFCD1C  8  A1 09 00 00 00 00 00 00 
    73)      1205.5  Rx     18EFCD1C  8  A1 09 00 00 00 00 00 00 
    74)      1226.0  Rx     18EFCD1C  8  A1 09 00 00 00 00 00 00 
    75)      1246.2  Rx     18EFCD1C  8  A1 09 00 00 00 00 00 00 
    76)      1266.9  Rx     18EFCD1C  8  A1 09 00 00 00 00 00 00 
    77)      1287.5  Rx     18EFCD1C  8  A1 09 00 00 00 00 00 00 
    78)      1308.0  Rx     18EFCD1C  8  A1 09 00 00 00 00 00 00 
    79)      1328.6  Rx     18EFCD1C  8  A1 09 00 00 00 00 00 00 
    80)      1349.2  Rx     18EFCD1C  8  A1 09 00 00 00 00 00 00 
    81)      1369.8  Rx     18EFCD1C  8  A1 09 00 00 00 00 00 00 
    82)      1369.8  Rx     18EFCD1C  8  A0 00 2A 00 00 00 00 00 
    83)      1374.0  Rx     18EF1CCD  8  A0 00 2A 00 40 06 00 00 
    84)      1390.4  Rx     18EFCD1C  8  A1 09 00 00 00 00 00 00 
    85)      1410.9  Rx     18EFCD1C  8  A1 09 00 00 00 00 00 00 
    86)      1431.5  Rx     18EFCD1C  8  A1 09 00 00 00 00 00 00 
    87)      1452.2  Rx     18EFCD1C  8  A1 09 00 00 00 00 00 00 
    88)      1472.6  Rx     18EFCD1C  8  A1 09 00 00 00 00 00 00 
    89)      1493.1  Rx     18EFCD1C  8  A1 09 00 00 00 00 00 00 
    90)      1513.8  Rx     18EFCD1C  8  A1 09 00 00 00 00 00 00 
    91)      1534.4  Rx     18EFCD1C  8  A1 09 00 00 00 00 00 00 
    92)      1555.0  Rx     18EFCD1C  8  A1 09 00 00 00 00 00 00 
    93)      1575.2  Rx     18EFCD1C  8  A1 09 00 00 00 00 00 00 
    94)      1575.3  Rx     18EFCD1C  8  A0 00 1B 00 00 00 00 00 
    95)      1579.5  Rx     18EF1CCD  8  A0 00 1B 00 46 70 00 00 
    96)      1595.8  Rx     18EFCD1C  8  A1 09 00 00 00 00 00 00 
    97)      1616.4  Rx     18EFCD1C  8  A1 09 00 00 00 00 00 00 
    98)      1637.1  Rx     18EFCD1C  8  A1 09 00 00 00 00 00 00 
    99)      1657.6  Rx     18EFCD1C  8  A1 09 00 00 00 00 00 00 
   100)      1678.1  Rx     18EFCD1C  8  A1 09 00 00 00 00 00 00 
   101)      1698.5  Rx     18EFCD1C  8  A1 09 00 00 00 00 00 00 
   102)      1719.0  Rx     18EFCD1C  8  A1 09 00 00 00 00 00 00 
   103)      1739.8  Rx     18EFCD1C  8  A1 09 00 00 00 00 00 00 
   104)      1760.5  Rx     18EFCD1C  8  A1 09 00 00 00 00 00 00 
   105)      1780.8  Rx     18EFCD1C  8  A1 09 00 00 00 00 00 00 
   106)      1780.8  Rx     18EFCD1C  8  A0 00 00 00 00 00 00 00 
   107)      1785.0  Rx     18EF1CCD  8  A0 00 00 00 03 00 00 00 
   108)      1801.3  Rx     18EFCD1C  8  A1 09 00 00 00 00 00 00 
   109)      1821.9  Rx     18EFCD1C  8  A1 09 00 00 00 00 00 00 
   110)      1842.2  Rx     18EFCD1C  8  A1 09 00 00 00 00 00 00 
   111)      1862.8  Rx     18EFCD1C  8  A1 09 00 00 00 00 00 00 
   112)      1883.2  Rx     18EFCD1C  8  A1 09 00 00 00 00 00 00 
   113)      1903.8  Rx     18EFCD1C  8  A1 09 00 00 00 00 00 00 
   114)      1924.3  Rx     18EFCD1C  8  A1 09 00 00 00 00 00 00 
   115)      1944.7  Rx     18EFCD1C  8  A1 09 00 00 00 00 00 00 
   116)      1965.4  Rx     18EFCD1C  8  A1 09 00 00 00 00 00 00 
   117)      1986.0  Rx     18EFCD1C  8  A1 09 00 00 00 00 00 00 
   118)      1986.0  Rx     18EFCD1C  8  A0 00 14 00 00 00 00 00 
   119)      1990.4  Rx     18EF1CCD  8  A0 00 14 00 69 07 00 00 
   120)      2006.6  Rx     18EFCD1C  8  A1 09 00 00 00 00 00 00 
   121)      2027.0  Rx     18EFCD1C  8  A1 09 00 00 00 00 00 00 
   122)      2047.7  Rx     18EFCD1C  8  A1 09 00 00 00 00 00 00 
   123)      2068.4  Rx     18EFCD1C  8  A1 09 00 00 00 00 00 00 
   124)      2088.8  Rx     18EFCD1C  8  A1 09 00 00 00 00 00 00 
   125)      2109.6  Rx     18EFCD1C  8  A1 09 00 00 00 00 00 00 
   126)      2130.0  Rx     18EFCD1C  8  A1 09 00 00 00 00 00 00 
   127)      2150.3  Rx     18EFCD1C  8  A1 09 00 00 00 00 00 00 
   128)      2171.0  Rx     18EFCD1C  8  A1 09 00 00 00 00 00 00 
   129)      2191.4  Rx     18EFCD1C  8  A1 09 00 00 00 00 00 00 
   130)      2191.5  Rx     18EFCD1C  8  A0 00 2A 00 00 00 00 00 
   131)      2195.8  Rx     18EF1CCD  8  A0 00 2A 00 49 06 00 00 
   132)      2212.5  Rx     18EFCD1C  8  A1 09 00 00 00 00 00 00 
   133)      2233.0  Rx     18EFCD1C  8  A1 09 00 00 00 00 00 00 
   134)      2248.5  Rx     18EF1CCD  8  A2 00 00 00 0A 00 00 00 
   135)      2253.7  Rx     18EFCD1C  8  A1 09 00 00 00 00 00 00 
   136)      2274.1  Rx     18EFCD1C  8  A1 09 00 00 00 00 00 00 
   137)      2294.5  Rx     18EFCD1C  8  A1 09 00 00 00 00 00 00 
   138)      2315.2  Rx     18EFCD1C  8  A1 09 00 00 00 00 00 00 
   139)      2335.8  Rx     18EFCD1C  8  A1 09 00 00 00 00 00 00 
   140)      2356.1  Rx     18EFCD1C  8  A1 09 00 00 00 00 00 00 
   141)      2376.7  Rx     18EFCD1C  8  A1 09 00 00 00 00 00 00 
   142)      2397.1  Rx     18EFCD1C  8  A1 09 00 00 00 00 00 00 
   143)      2397.2  Rx     18EFCD1C  8  A0 00 1B 00 00 00 00 00 
   144)      2401.5  Rx     18EF1CCD  8  A0 00 1B 00 F9 C3 19 00 
   145)      2418.0  Rx     18EFCD1C  8  A1 09 00 00 00 00 00 00 
   146)      2438.2  Rx     18EFCD1C  8  A1 09 00 00 00 00 00 00 
   147)      2458.9  Rx     18EFCD1C  8  A1 09 00 00 00 00 00 00 
   148)      2479.4  Rx     18EFCD1C  8  A1 09 00 00 00 00 00 00 
   149)      2499.9  Rx     18EFCD1C  8  A1 09 00 00 00 00 00 00 
   150)      2520.7  Rx     18EFCD1C  8  A1 09 00 00 00 00 00 00 
   151)      2541.3  Rx     18EFCD1C  8  A1 09 00 00 00 00 00 00 
   152)      2562.0  Rx     18EFCD1C  8  A1 09 00 00 00 00 00 00 
   153)      2582.6  Rx     18EFCD1C  8  A1 09 00 00 00 00 00 00 
   154)      2602.9  Rx     18EFCD1C  8  A1 09 00 00 00 00 00 00 
   155)      2602.9  Rx     18EFCD1C  8  A0 00 00 00 00 00 00 00 
   156)      2607.3  Rx     18EF1CCD  8  A0 00 00 00 04 00 00 00 
   157)      2623.5  Rx     18EFCD1C  8  A1 09 00 00 00 00 00 00 
   158)      2643.9  Rx     18EFCD1C  8  A1 09 00 00 00 00 00 00 
   159)      2664.5  Rx     18EFCD1C  8  A1 09 00 00 00 00 00 00 
   160)      2684.9  Rx     18EFCD1C  8  A1 09 00 00 00 00 00 00 
   161)      2705.3  Rx     18EFCD1C  8  A1 09 00 00 00 00 00 00 
   162)      2725.9  Rx     18EFCD1C  8  A1 09 00 00 00 00 00 00 
   163)      2746.5  Rx     18EFCD1C  8  A1 09 00 00 00 00 00 00 
   164)      2767.0  Rx     18EFCD1C  8  A1 09 00 00 00 00 00 00 
   165)      2787.4  Rx     18EFCD1C  8  A1 09 00 00 00 00 00 00 
   166)      2808.1  Rx     18EFCD1C  8  A1 09 00 00 00 00 00 00 
   167)      2808.2  Rx     18EFCD1C  8  A0 00 14 00 00 00 00 00 
   168)      2812.4  Rx     18EF1CCD  8  A0 00 14 00 67 07 00 00 
   169)      2828.9  Rx     18EFCD1C  8  A1 09 00 00 00 00 00 00 
   170)      2849.6  Rx     18EFCD1C  8  A1 09 00 00 00 00 00 00 
   171)      2870.4  Rx     18EFCD1C  8  A1 09 00 00 00 00 00 00 
   172)      2891.1  Rx     18EFCD1C  8  A1 09 00 00 00 00 00 00 
   173)      2911.5  Rx     18EFCD1C  8  A1 09 00 00 00 00 00 00 
   174)      2931.8  Rx     18EFCD1C  8  A1 09 00 00 00 00 00 00 
   175)      2952.4  Rx     18EFCD1C  8  A1 09 00 00 00 00 00 00 
   176)      2973.1  Rx     18EFCD1C  8  A1 09 00 00 00 00 00 00 
   177)      2993.7  Rx     18EFCD1C  8  A1 09 00 00 00 00 00 00 
   178)      3014.5  Rx     18EFCD1C  8  A1 09 00 00 00 00 00 00 
   179)      3014.5  Rx     18EFCD1C  8  A0 00 2A 00 00 00 00 00 
   180)      3018.8  Rx     18EF1CCD  8  A0 00 2A 00 42 06 00 00 
   181)      3035.1  Rx     18EFCD1C  8  A1 09 00 00 00 00 00 00 
   182)      3055.6  Rx     18EFCD1C  8  A1 09 00 00 00 00 00 00 
   183)      3075.9  Rx     18EFCD1C  8  A1 09 00 00 00 00 00 00 
   184)      3096.4  Rx     18EFCD1C  8  A1 09 00 00 00 00 00 00 
   185)      3117.0  Rx     18EFCD1C  8  A1 09 00 00 00 00 00 00 
   186)      3137.8  Rx     18EFCD1C  8  A1 09 00 00 00 00 00 00 
   187)      3158.6  Rx     18EFCD1C  8  A1 09 00 00 00 00 00 00 
   188)      3178.9  Rx     18EFCD1C  8  A1 09 00 00 00 00 00 00 
   189)      3199.3  Rx     18EFCD1C  8  A1 09 00 00 00 00 00 00 
   190)      3219.8  Rx     18EFCD1C  8  A1 09 00 00 00 00 00 00 
   191)      3219.8  Rx     18EFCD1C  8  A0 00 1B 00 00 00 00 00 
   192)      3220.2  Rx     18EFCD1C  4  01 A7 88 00 
   193)      3224.5  Rx     18EF1CCD  8  A0 00 1B 00 CB 00 00 00 
   194)      3225.0  Rx     18EF1CCD  4  01 89 A7 01 
   195)      3241.1  Rx     18EFCD1C  8  A1 09 00 00 00 00 00 00 
   196)      3261.6  Rx     18EFCD1C  8  A1 09 00 00 00 00 00 00 
   197)      3282.4  Rx     18EFCD1C  8  A1 09 00 00 00 00 00 00 
   198)      3303.0  Rx     18EFCD1C  8  A1 09 00 00 00 00 00 00 
   199)      3323.6  Rx     18EFCD1C  8  A1 09 00 00 00 00 00 00 
   200)      3344.0  Rx     18EFCD1C  8  A1 09 00 00 00 00 00 00 
   201)      3364.4  Rx     18EFCD1C  8  A1 09 00 00 00 00 00 00 
   202)      3384.7  Rx     18EFCD1C  8  A1 09 00 00 00 00 00 00 
   203)      3405.2  Rx     18EFCD1C  8  A1 09 00 00 00 00 00 00 
   204)      3425.7  Rx     18EFCD1C  8  A1 09 00 00 00 00 00 00 
   205)      3425.8  Rx     18EFCD1C  8  A0 00 00 00 00 00 00 00 
   206)      3430.2  Rx     18EF1CCD  8  A0 00 00 00 04 00 00 00 
   207)      3446.3  Rx     18EFCD1C  8  A1 09 00 00 00 00 00 00 
   208)      3466.7  Rx     18EFCD1C  8  A1 09 00 00 00 00 00 00 
   209)      3487.0  Rx     18EFCD1C  8  A1 09 00 00 00 00 00 00 
   210)      3507.5  Rx     18EFCD1C  8  A1 09 00 00 00 00 00 00 
   211)      3527.8  Rx     18EFCD1C  8  A1 09 00 00 00 00 00 00 
   212)      3548.5  Rx     18EFCD1C  8  A1 09 00 00 00 00 00 00 
   213)      3569.1  Rx     18EFCD1C  8  A1 09 00 00 00 00 00 00 
   214)      3589.7  Rx     18EFCD1C  8  A1 09 00 00 00 00 00 00 
   215)      3610.0  Rx     18EFCD1C  8  A1 09 00 00 00 00 00 00 
   216)      3630.6  Rx     18EFCD1C  8  A1 09 00 00 00 00 00 00 
   217)      3630.7  Rx     18EFCD1C  8  A0 00 14 00 00 00 00 00 
   218)      3635.1  Rx     18EF1CCD  8  A0 00 14 00 66 07 00 00 
   219)      3651.6  Rx     18EFCD1C  8  A1 09 00 00 00 00 00 00 
   220)      3672.4  Rx     18EFCD1C  8  A1 09 00 00 00 00 00 00 
   221)      3692.9  Rx     18EFCD1C  8  A1 09 00 00 00 00 00 00 
   222)      3713.4  Rx     18EFCD1C  8  A1 09 00 00 00 00 00 00 
   223)      3734.0  Rx     18EFCD1C  8  A1 09 00 00 00 00 00 00 
   224)      3754.5  Rx     18EFCD1C  8  A1 09 00 00 00 00 00 00 
   225)      3775.1  Rx     18EFCD1C  8  A1 09 00 00 00 00 00 00 
   226)      3795.7  Rx     18EFCD1C  8  A1 09 00 00 00 00 00 00 
   227)      3816.1  Rx     18EFCD1C  8  A1 09 00 00 00 00 00 00 
   228)      3836.5  Rx     18EFCD1C  8  A1 09 00 00 00 00 00 00 
   229)      3836.5  Rx     18EFCD1C  8  A0 00 2A 00 00 00 00 00 
   230)      3841.0  Rx     18EF1CCD  8  A0 00 2A 00 48 06 00 00 
   231)      3857.1  Rx     18EFCD1C  8  A1 09 00 00 00 00 00 00 
   232)      3877.7  Rx     18EFCD1C  8  A1 09 00 00 00 00 00 00 
   233)      3898.2  Rx     18EFCD1C  8  A1 09 00 00 00 00 00 00 
   234)      3918.9  Rx     18EFCD1C  8  A1 09 00 00 00 00 00 00 
   235)      3939.1  Rx     18EFCD1C  8  A1 09 00 00 00 00 00 00 
   236)      3959.9  Rx     18EFCD1C  8  A1 09 00 00 00 00 00 00 
   237)      3980.6  Rx     18EFCD1C  8  A1 09 00 00 00 00 00 00 
   238)      4001.4  Rx     18EFCD1C  8  A1 09 00 00 00 00 00 00 
   239)      4021.9  Rx     18EFCD1C  8  A1 09 00 00 00 00 00 00 
   240)      4042.6  Rx     18EFCD1C  8  A1 09 00 00 00 00 00 00 
   241)      4042.6  Rx     18EFCD1C  8  A0 00 1B 00 00 00 00 00 
   242)      4047.2  Rx     18EF1CCD  8  A0 00 1B 00 CB 00 00 00 
   243)      4063.5  Rx     18EFCD1C  8  A1 09 00 00 00 00 00 00 
   244)      4084.1  Rx     18EFCD1C  8  A1 09 00 00 00 00 00 00 
   245)      4104.3  Rx     18EFCD1C  8  A1 09 00 00 00 00 00 00 
   246)      4124.9  Rx     18EFCD1C  8  A1 09 00 00 00 00 00 00 
   247)      4145.4  Rx     18EFCD1C  8  A1 09 00 00 00 00 00 00 
   248)      4165.9  Rx     18EFCD1C  8  A1 09 00 00 00 00 00 00 
   249)      4186.4  Rx     18EFCD1C  8  A1 09 00 00 00 00 00 00 
   250)      4206.8  Rx     18EFCD1C  8  A1 09 00 00 00 00 00 00 
   251)      4227.3  Rx     18EFCD1C  8  A1 09 00 00 00 00 00 00 
   252)      4247.7  Rx     18EFCD1C  8  A1 09 00 00 00 00 00 00 
   253)      4247.7  Rx     18EFCD1C  8  A0 00 00 00 00 00 00 00 
   254)      4252.3  Rx     18EF1CCD  8  A0 00 00 00 04 00 00 00 
   255)      4268.7  Rx     18EFCD1C  8  A1 09 00 00 00 00 00 00 
   256)      4289.2  Rx     18EFCD1C  8  A1 09 00 00 00 00 00 00 
   257)      4309.6  Rx     18EFCD1C  8  A1 09 00 00 00 00 00 00 
   258)      4329.9  Rx     18EFCD1C  8  A1 09 00 00 00 00 00 00 
   259)      4350.3  Rx     18EFCD1C  8  A1 09 00 00 00 00 00 00 
   260)      4370.6  Rx     18EFCD1C  8  A1 09 00 00 00 00 00 00 
   261)      4391.0  Rx     18EFCD1C  8  A1 09 00 00 00 00 00 00 
   262)      4411.5  Rx     18EFCD1C  8  A1 09 00 00 00 00 00 00 
   263)      4432.2  Rx     18EFCD1C  8  A1 09 00 00 00 00 00 00 
   264)      4452.7  Rx     18EFCD1C  8  A1 09 00 00 00 00 00 00 
   265)      4452.7  Rx     18EFCD1C  8  A0 00 14 00 00 00 00 00 
   266)      4457.4  Rx     18EF1CCD  8  A0 00 14 00 66 07 00 00 
   267)      4473.3  Rx     18EFCD1C  8  A1 09 00 00 00 00 00 00 
   268)      4494.0  Rx     18EFCD1C  8  A1 09 00 00 00 00 00 00 
   269)      4514.3  Rx     18EFCD1C  8  A1 09 00 00 00 00 00 00 
   270)      4534.9  Rx     18EFCD1C  8  A1 09 00 00 00 00 00 00 
   271)      4555.5  Rx     18EFCD1C  8  A1 09 00 00 00 00 00 00 
   272)      4576.3  Rx     18EFCD1C  8  A1 09 00 00 00 00 00 00 
   273)      4596.8  Rx     18EFCD1C  8  A1 09 00 00 00 00 00 00 
   274)      4617.2  Rx     18EFCD1C  8  A1 09 00 00 00 00 00 00 
   275)      4637.6  Rx     18EFCD1C  8  A1 09 00 00 00 00 00 00 
   276)      4658.1  Rx     18EFCD1C  8  A1 09 00 00 00 00 00 00 
   277)      4658.2  Rx     18EFCD1C  8  A0 00 2A 00 00 00 00 00 
   278)      4662.8  Rx     18EF1CCD  8  A0 00 2A 00 42 06 00 00 
   279)      4679.3  Rx     18EFCD1C  8  A1 09 00 00 00 00 00 00 
   280)      4700.0  Rx     18EFCD1C  8  A1 09 00 00 00 00 00 00 
   281)      4720.5  Rx     18EFCD1C  8  A1 09 00 00 00 00 00 00 
   282)      4741.3  Rx     18EFCD1C  8  A1 09 00 00 00 00 00 00 
   283)      4761.7  Rx     18EFCD1C  8  A1 09 00 00 00 00 00 00 
   284)      4782.6  Rx     18EFCD1C  8  A1 09 00 00 00 00 00 00 
   285)      4803.0  Rx     18EFCD1C  8  A1 09 00 00 00 00 00 00 
   286)      4823.6  Rx     18EFCD1C  8  A1 09 00 00 00 00 00 00 
   287)      4844.0  Rx     18EFCD1C  8  A1 09 00 00 00 00 00 00 
   288)      4864.5  Rx     18EFCD1C  8  A1 09 00 00 00 00 00 00 
   289)      4864.5  Rx     18EFCD1C  8  A0 00 1B 00 00 00 00 00 
   290)      4869.3  Rx     18EF1CCD  8  A0 00 1B 00 CB 00 00 00 
   291)      4885.1  Rx     18EFCD1C  8  A1 09 00 00 00 00 00 00 
   292)      4905.8  Rx     18EFCD1C  8  A1 09 00 00 00 00 00 00 
   293)      4926.5  Rx     18EFCD1C  8  A1 09 00 00 00 00 00 00 
   294)      4947.0  Rx     18EFCD1C  8  A1 09 00 00 00 00 00 00 
   295)      4967.6  Rx     18EFCD1C  8  A1 09 00 00 00 00 00 00 
   296)      4988.0  Rx     18EFCD1C  8  A1 09 00 00 00 00 00 00 
   297)      5008.3  Rx     18EFCD1C  8  A1 09 00 00 00 00 00 00 
   298)      5028.8  Rx     18EFCD1C  8  A1 09 00 00 00 00 00 00 
   299)      5049.4  Rx     18EFCD1C  8  A1 09 00 00 00 00 00 00 
   300)      5070.1  Rx     18EFCD1C  8  A1 09 00 00 00 00 00 00 
   301)      5070.1  Rx     18EFCD1C  8  A0 00 00 00 00 00 00 00 
   302)      5074.9  Rx     18EF1CCD  8  A0 00 00 00 04 00 00 00 
   303)      5091.2  Rx     18EFCD1C  8  A1 09 00 00 00 00 00 00 
   304)      5111.6  Rx     18EFCD1C  8  A1 09 00 00 00 00 00 00 
   305)      5132.2  Rx     18EFCD1C  8  A1 09 00 00 00 00 00 00 
   306)      5152.8  Rx     18EFCD1C  8  A1 09 00 00 00 00 00 00 
   307)      5173.3  Rx     18EFCD1C  8  A1 09 00 00 00 00 00 00 
   308)      5193.7  Rx     18EFCD1C  8  A1 09 00 00 00 00 00 00 
   309)      5214.1  Rx     18EFCD1C  8  A1 09 00 00 00 00 00 00 
   310)      5234.8  Rx     18EFCD1C  8  A1 09 00 00 00 00 00 00 
   311)      5255.3  Rx     18EFCD1C  8  A1 09 00 00 00 00 00 00 
   312)      5275.8  Rx     18EFCD1C  8  A1 09 00 00 00 00 00 00 
   313)      5275.9  Rx     18EFCD1C  8  A0 00 14 00 00 00 00 00 
   314)      5276.2  Rx     18EFCD1C  4  01 A8 89 00 
   315)      5281.0  Rx     18EF1CCD  8  A0 00 14 00 66 07 00 00 
   316)      5281.6  Rx     18EF1CCD  4  01 8A A8 01 
   317)      5297.0  Rx     18EFCD1C  8  A1 09 00 00 00 00 00 00 
   318)      5317.8  Rx     18EFCD1C  8  A1 09 00 00 00 00 00 00 
   319)      5338.4  Rx     18EFCD1C  8  A1 09 00 00 00 00 00 00 
   320)      5359.0  Rx     18EFCD1C  8  A1 09 00 00 00 00 00 00 
   321)      5379.6  Rx     18EFCD1C  8  A1 09 00 00 00 00 00 00 
   322)      5399.9  Rx     18EFCD1C  8  A1 09 00 00 00 00 00 00 
   323)      5420.5  Rx     18EFCD1C  8  A1 09 00 00 00 00 00 00 
   324)      5441.0  Rx     18EFCD1C  8  A1 09 00 00 00 00 00 00 
   325)      5461.8  Rx     18EFCD1C  8  A1 09 00 00 00 00 00 00 
   326)      5482.2  Rx     18EFCD1C  8  A1 09 00 00 00 00 00 00 
   327)      5482.2  Rx     18EFCD1C  8  A0 00 2A 00 00 00 00 00 
   328)      5487.1  Rx     18EF1CCD  8  A0 00 2A 00 3F 06 00 00 
   329)      5502.7  Rx     18EFCD1C  8  A1 09 00 00 00 00 00 00 
   330)      5523.2  Rx     18EFCD1C  8  A1 09 00 00 00 00 00 00 
   331)      5543.8  Rx     18EFCD1C  8  A1 09 00 00 00 00 00 00 
   332)      5564.2  Rx     18EFCD1C  8  A1 09 00 00 00 00 00 00 
   333)      5584.8  Rx     18EFCD1C  8  A1 09 00 00 00 00 00 00 
   334)      5605.2  Rx     18EFCD1C  8  A1 09 00 00 00 00 00 00 
   335)      5626.3  Rx     18EFCD1C  8  A1 09 00 00 00 00 00 00 
   336)      5647.2  Rx     18EFCD1C  8  A1 09 00 00 00 00 00 00 
   337)      5667.7  Rx     18EFCD1C  8  A1 09 00 00 00 00 00 00 
   338)      5688.1  Rx     18EFCD1C  8  A1 09 00 00 00 00 00 00 
   339)      5688.2  Rx     18EFCD1C  8  A0 00 1B 00 00 00 00 00 
   340)      5693.0  Rx     18EF1CCD  8  A0 00 1B 00 CB 00 00 00 
   341)      5709.2  Rx     18EFCD1C  8  A1 09 00 00 00 00 00 00 
   342)      5729.5  Rx     18EFCD1C  8  A1 09 00 00 00 00 00 00 
   343)      5750.3  Rx     18EFCD1C  8  A1 09 00 00 00 00 00 00 
   344)      5771.1  Rx     18EFCD1C  8  A1 09 00 00 00 00 00 00 
   345)      5791.8  Rx     18EFCD1C  8  A1 09 00 00 00 00 00 00 
   346)      5812.5  Rx     18EFCD1C  8  A1 09 00 00 00 00 00 00 
   347)      5833.2  Rx     18EFCD1C  8  A1 09 00 00 00 00 00 00 
