;$FILEVERSION=1.1
;$STARTTIME=46287.6754884375
;
;   Start time: 9/22/2026 16:12:42.201.0
;   Generated by PCAN-View v5.3.3.958
;
;   Message Number
;   |         Time Offset (ms)
;   |         |        Type
;   |         |        |        ID (hex)
;   |         |        |        |     Data Length
;   |         |        |        |     |   Data Bytes (hex) ...
;   |         |        |        |     |   |
;---+--   ----+----  --+--  ----+---  +  -+ -- -- -- -- -- -- --
     1)         7.2  Rx     18EF1C8F  8  0D 90 00 D4 92 D0 86 FC 
     2)         8.1  Rx     18EF1C8F  8  0D 91 16 00 23 00 84 03 
     3)         9.1  Rx     18EF1C8F  8  0D 92 14 00 0A 00 0E 00 
     4)        17.8  Rx     18EF1CCD  8  A2 00 00 00 00 00 00 00 
     5)        18.4  Rx     18EFCD1C  8  A1 01 00 00 FA FF FF FF 
     6)        27.2  Rx     18EF1C8F  8  0D A0 00 F7 E0 D0 86 FC 
     7)        28.1  Rx     18EF1C8F  8  0D A1 18 00 22 00 83 03 
     8)        29.1  Rx     18EF1C8F  8  0D A2 15 00 09 00 0F 00 
     9)        37.9  Rx     18EFCD1C  8  A0 00 14 00 00 00 00 00 
    10)        38.4  Rx     18EF1CCD  8  A3 00 00 00 00 FA FF FA 
    11)        39.0  Rx     18EF1CCD  8  A0 00 14 00 7A 07 00 00 
    12)        47.2  Rx     18EF1C8F  8  0D B0 00 17 2F D1 86 FC 
    13)        48.1  Rx     18EF1C8F  8  0D B1 14 00 22 00 82 03 
    14)        49.1  Rx     18EF1C8F  8  0D B2 16 00 09 00 0C 00 
    15)        57.9  Rx     18EFCD1C  8  A0 00 2A 00 00 00 00 00 
    16)        58.4  Rx     18EF1CCD  8  A1 40 FA FF FF FF 00 00 
    17)        59.0  Rx     18EF1CCD  8  A0 00 2A 00 75 05 00 00 
    18)        67.2  Rx     18EF1C8F  8  0D C0 00 37 7D D1 86 FC 
    19)        68.1  Rx     18EF1C8F  8  0D C1 17 00 22 00 82 03 
    20)        69.1  Rx     18EF1C8F  8  0D C2 15 00 0C 00 0E 00 
    21)        77.9  Rx     18EFCD1C  8  A0 00 1B 00 00 00 00 00 
    22)        78.5  Rx     18EF1CCD  8  A0 00 1B 00 00 00 00 00 
    23)        87.1  Rx     18EF1C8F  8  0D D0 00 54 CB D1 86 FC 
    24)        88.1  Rx     18EF1C8F  8  0D D1 18 00 22 00 83 03 
    25)        89.1  Rx     18EF1C8F  8  0D D2 16 00 09 00 10 00 
    26)        97.9  Rx     18EFCD1C  8  A0 00 00 00 00 00 00 00 
    27)        98.5  Rx     18EF1CCD  8  A0 00 00 00 01 00 00 00 
    28)       107.2  Rx     18EF1C8F  8  0D E0 00 77 19 D2 86 FC 
    29)       108.1  Rx     18EF1C8F  8  0D E1 17 00 25 00 83 03 
    30)       109.1  Rx     18EF1C8F  8  0D E2 15 00 0B 00 0D 00 
    31)       118.0  Rx     18EF1CCD  8  A2 00 00 00 00 00 00 00 
    32)       127.2  Rx     18EF1C8F  8  0D F0 00 94 67 D2 86 FC 
    33)       128.1  Rx     18EF1C8F  8  0D F1 15 00 21 00 83 03 
    34)       129.1  Rx     18EF1C8F  8  0D F2 14 00 09 00 0C 00 
    35)       138.1  Rx     18EF1CCD  8  A3 00 00 00 00 FA FF FA 
    36)       147.2  Rx     18EF1C8F  8  0D 00 00 B4 B5 D2 86 FC 
    37)       148.1  Rx     18EF1C8F  8  0D 01 16 00 21 00 84 03 
    38)       149.1  Rx     18EF1C8F  8  0D 02 16 00 0A 00 0E 00 
    39)       158.1  Rx     18EF1CCD  8  A1 40 FA FF FF FF 00 00 
    40)       167.2  Rx     18EF1C8F  8  0D 10 00 D4 03 D3 86 FC 
    41)       168.1  Rx     18EF1C8F  8  0D 11 16 00 21 00 83 03 
    42)       169.1  Rx     18EF1C8F  8  0D 12 13 00 08 00 0E 00 
    43)       187.2  Rx     18EF1C8F  8  0D 20 00 F4 51 D3 86 FC 
    44)       188.1  Rx     18EF1C8F  8  0D 21 18 00 23 00 83 03 
    45)       189.1  Rx     18EF1C8F  8  0D 22 15 00 09 00 0E 00 
    46)       207.2  Rx     18EF1C8F  8  0D 30 00 14 A0 D3 86 FC 
    47)       208.2  Rx     18EF1C8F  8  0D 31 17 00 22 00 82 03 
    48)       209.1  Rx     18EF1C8F  8  0D 32 14 00 0B 00 0D 00 
    49)       218.2  Rx     18EFCD1C  8  A1 01 00 00 FA FF FF FF 
    50)       218.7  Rx     18EF1CCD  8  A2 00 00 00 00 00 00 00 
    51)       227.2  Rx     18EF1C8F  8  0D 40 00 34 EE D3 86 FC 
    52)       228.1  Rx     18EF1C8F  8  0D 41 17 00 22 00 84 03 
    53)       229.2  Rx     18EF1C8F  8  0D 42 14 00 0B 00 0F 00 
    54)       237.9  Rx     18EFCD1C  8  A0 00 14 00 00 00 00 00 
    55)       238.5  Rx     18EF1CCD  8  A3 00 00 00 00 FA FF FA 
    56)       239.4  Rx     18EF1CCD  8  A0 00 14 00 7A 07 00 00 
    57)       247.2  Rx     18EF1C8F  8  0D 50 00 57 3C D4 86 FC 
    58)       248.2  Rx     18EF1C8F  8  0D 51 15 00 22 00 83 03 
    59)       249.1  Rx     18EF1C8F  8  0D 52 15 00 0A 00 0F 00 
    60)       258.0  Rx     18EFCD1C  8  A0 00 2A 00 00 00 00 00 
    61)       258.5  Rx     18EF1CCD  8  A1 40 FA FF FF FF 00 00 
    62)       259.4  Rx     18EF1CCD  8  A0 00 2A 00 74 05 00 00 
    63)       267.2  Rx     18EF1C8F  8  0D 60 00 77 8A D4 87 FC 
    64)       268.1  Rx     18EF1C8F  8  0D 61 18 00 23 00 83 03 
    65)       269.2  Rx     18EF1C8F  8  0D 62 15 00 09 00 0E 00 
    66)       278.0  Rx     18EFCD1C  8  A0 00 1B 00 00 00 00 00 
    67)       278.6  Rx     18EF1CCD  8  A0 00 1B 00 00 00 00 00 
    68)       287.3  Rx     18EF1C8F  8  0D 70 00 94 D8 D4 87 FC 
    69)       288.2  Rx     18EF1C8F  8  0D 71 15 00 21 00 84 03 
    70)       289.2  Rx     18EF1C8F  8  0D 72 14 00 0D 00 0D 00 
    71)       297.9  Rx     18EFCD1C  8  A0 00 00 00 00 00 00 00 
    72)       299.5  Rx     18EF1CCD  8  A0 00 00 00 01 00 00 00 
    73)       307.2  Rx     18EF1C8F  8  0D 80 00 B4 26 D5 86 FC 
    74)       308.2  Rx     18EF1C8F  8  0D 81 15 00 21 00 84 03 
    75)       309.2  Rx     18EF1C8F  8  0D 82 15 00 0B 00 0D 00 
    76)       318.6  Rx     18EF1CCD  8  A2 00 00 00 00 00 00 00 
    77)       327.3  Rx     18EF1C8F  8  0D 90 00 D7 74 D5 86 FC 
    78)       328.2  Rx     18EF1C8F  8  0D 91 17 00 21 00 83 03 
    79)       329.2  Rx     18EF1C8F  8  0D 92 13 00 08 00 0E 00 
    80)       338.6  Rx     18EF1CCD  8  A3 00 00 00 00 FA FF FA 
    81)       347.3  Rx     18EF1C8F  8  0D A0 00 F4 C2 D5 86 FC 
    82)       348.2  Rx     18EF1C8F  8  0D A1 17 00 22 00 83 03 
    83)       349.2  Rx     18EF1C8F  8  0D A2 14 00 0B 00 0F 00 
    84)       358.6  Rx     18EF1CCD  8  A1 40 FA FF FF FF 00 00 
    85)       367.2  Rx     18EF1C8F  8  0D B0 00 14 11 D6 86 FC 
    86)       368.2  Rx     18EF1C8F  8  0D B1 15 00 22 00 83 03 
    87)       369.2  Rx     18EF1C8F  8  0D B2 14 00 0A 00 0F 00 
    88)       387.3  Rx     18EF1C8F  8  0D C0 00 34 5F D6 86 FC 
    89)       388.2  Rx     18EF1C8F  8  0D C1 17 00 21 00 82 03 
    90)       389.2  Rx     18EF1C8F  8  0D C2 15 00 0A 00 0F 00 
    91)       407.3  Rx     18EF1C8F  8  0D D0 00 54 AD D6 87 FC 
    92)       408.2  Rx     18EF1C8F  8  0D D1 15 00 23 00 83 03 
    93)       409.2  Rx     18EF1C8F  8  0D D2 15 00 0A 00 10 00 
    94)       418.1  Rx     18EFCD1C  8  A1 01 00 00 FA FF FF FF 
    95)       418.8  Rx     18EF1CCD  8  A2 00 00 00 00 00 00 00 
    96)       427.3  Rx     18EF1C8F  8  0D E0 00 74 FB D6 87 FC 
    97)       428.2  Rx     18EF1C8F  8  0D E1 16 00 23 00 82 03 
    98)       429.2  Rx     18EF1C8F  8  0D E2 13 00 0A 00 0D 00 
    99)       438.0  Rx     18EFCD1C  8  A0 00 14 00 00 00 00 00 
   100)       438.6  Rx     18EF1CCD  8  A0 00 14 00 7A 07 00 00 
   101)       439.2  Rx     18EF1CCD  8  A3 00 00 00 00 FA FF FA 
   102)       447.3  Rx     18EF1C8F  8  0D F0 00 97 49 D7 86 FC 
   103)       448.2  Rx     18EF1C8F  8  0D F1 14 00 22 00 81 03 
   104)       449.2  Rx     18EF1C8F  8  0D F2 14 00 0B 00 0F 00 
   105)       458.0  Rx     18EFCD1C  8  A0 00 2A 00 00 00 00 00 
   106)       458.6  Rx     18EF1CCD  8  A0 00 2A 00 75 05 00 00 
   107)       459.2  Rx     18EF1CCD  8  A1 40 FA FF FF FF 00 00 
   108)       467.3  Rx     18EF1C8F  8  0D 00 00 B7 97 D7 86 FC 
   109)       468.2  Rx     18EF1C8F  8  0D 01 16 00 22 00 83 03 
   110)       469.2  Rx     18EF1C8F  8  0D 02 14 00 0B 00 0E 00 
   111)       478.0  Rx     18EFCD1C  8  A0 00 1B 00 00 00 00 00 
   112)       478.7  Rx     18EF1CCD  8  A0 00 1B 00 00 00 00 00 
   113)       487.3  Rx     18EF1C8F  8  0D 10 00 D4 E5 D7 86 FC 
   114)       488.2  Rx     18EF1C8F  8  0D 11 15 00 20 00 82 03 
   115)       489.2  Rx     18EF1C8F  8  0D 12 16 00 0B 00 0C 00 
   116)       498.0  Rx     18EFCD1C  8  A0 00 00 00 00 00 00 00 
   117)       498.6  Rx     18EF1CCD  8  A0 00 00 00 01 00 00 00 
   118)       507.3  Rx     18EF1C8F  8  0D 20 00 F7 33 D8 86 FC 
   119)       508.2  Rx     18EF1C8F  8  0D 21 16 00 22 00 83 03 
   120)       509.2  Rx     18EF1C8F  8  0D 22 13 00 09 00 0E 00 
   121)       519.1  Rx     18EF1CCD  8  A2 00 00 00 00 00 00 00 
   122)       527.3  Rx     18EF1C8F  8  0D 30 00 14 82 D8 86 FC 
   123)       528.2  Rx     18EF1C8F  8  0D 31 15 00 23 00 83 03 
   124)       529.2  Rx     18EF1C8F  8  0D 32 13 00 0B 00 0E 00 
   125)       539.1  Rx     18EF1CCD  8  A3 00 00 00 00 FA FF FA 
   126)       547.3  Rx     18EF1C8F  8  0D 40 00 37 D0 D8 87 FC 
   127)       548.2  Rx     18EF1C8F  8  0D 41 16 00 22 00 84 03 
   128)       549.2  Rx     18EF1C8F  8  0D 42 13 00 09 00 0E 00 
   129)       559.1  Rx     18EF1CCD  8  A1 40 FA FF FF FF 00 00 
   130)       559.6  Rx     18FEF31C  8  5E 29 80 99 AC CE 2C 89 
   131)       560.2  Rx     18FEE81C  8  97 4F 00 00 00 00 10 52 
   132)       560.8  Rx     18FEE61C  8  A8 0C 0E 09 57 29 00 00 
   133)       561.3  Rx     19F8021C  8  98 FC 86 6C 00 00 FF FF 
   134)       567.3  Rx     18EF1C8F  8  0D 50 00 57 1E D9 86 FC 
   135)       568.2  Rx     18EF1C8F  8  0D 51 16 00 22 00 83 03 
   136)       569.2  Rx     18EF1C8F  8  0D 52 14 00 0A 00 0E 00 
   137)       587.3  Rx     18EF1C8F  8  0D 60 00 74 6C D9 86 FC 
   138)       588.2  Rx     18EF1C8F  8  0D 61 17 00 21 00 84 03 
   139)       589.2  Rx     18EF1C8F  8  0D 62 14 00 08 00 0E 00 
   140)       604.6  Rx     19F8051C  8  A0 2F 98 EE 50 63 B4 7E 
   141)       605.1  Rx     19F8051C  8  A1 1E 80 CE 24 2F E1 A6 
   142)       605.6  Rx     19F8051C  8  A2 98 06 E0 65 4B B4 F3 
   143)       606.2  Rx     19F8051C  8  A3 91 CB 02 41 40 68 08 
   144)       606.8  Rx     19F8051C  8  A4 00 00 00 00 20 00 0A 
   145)       607.4  Rx     19F8051C  8  A5 64 00 64 00 DC 05 00 
   146)       607.9  Rx     18EF1C8F  8  0D 70 00 97 BA D9 86 FC 
   147)       608.5  Rx     18EF1C8F  8  0D 71 17 00 22 00 84 03 
   148)       609.0  Rx     19F8051C  8  A6 00 01 0F 00 00 00 FF 
   149)       609.6  Rx     18EF1C8F  8  0D 72 14 00 0A 00 0F 00 
   150)       618.1  Rx     18EFCD1C  8  A1 01 00 00 FA FF FF FF 
   151)       619.3  Rx     18EF1CCD  8  A2 00 00 00 00 00 00 00 
   152)       627.3  Rx     18EF1C8F  8  0D 80 00 B7 08 DA 86 FC 
   153)       628.3  Rx     18EF1C8F  8  0D 81 15 00 23 00 85 03 
   154)       629.2  Rx     18EF1C8F  8  0D 82 15 00 0C 00 0D 00 
   155)       638.0  Rx     18EFCD1C  8  A0 00 14 00 00 00 00 00 
   156)       638.6  Rx     18EF1CCD  8  A0 00 14 00 79 07 00 00 
   157)       639.4  Rx     18EF1CCD  8  A3 00 00 00 00 FA FF FA 
   158)       647.3  Rx     18EF1C8F  8  0D 90 00 D4 56 DA 86 FC 
   159)       648.2  Rx     18EF1C8F  8  0D 91 16 00 22 00 82 03 
   160)       649.3  Rx     18EF1C8F  8  0D 92 13 00 0B 00 0E 00 
   161)       658.0  Rx     18EFCD1C  8  A0 00 2A 00 00 00 00 00 
   162)       658.5  Rx     18EFCD1C  4  01 40 F0 00 
   163)       659.1  Rx     18EF1CCD  8  A0 00 2A 00 76 05 00 00 
   164)       659.6  Rx     18EF1CCD  8  A1 40 FA FF FF FF 00 00 
   165)       660.2  Rx     18EF1CCD  4  01 F1 40 00 
   166)       667.4  Rx     18EF1C8F  8  0D A0 00 F9 A4 DA 86 FC 
   167)       668.3  Rx     18EF1C8F  8  0D A1 16 00 23 00 82 03 
   168)       669.3  Rx     18EF1C8F  8  0D A2 15 00 08 00 0E 00 
   169)       678.0  Rx     18EFCD1C  8  A0 00 1B 00 00 00 00 00 
   170)       678.7  Rx     18EF1CCD  8  A0 00 1B 00 00 00 00 00 
   171)       687.3  Rx     18EF1C8F  8  0D B0 00 14 F3 DA 86 FC 
   172)       688.3  Rx     18EF1C8F  8  0D B1 16 00 22 00 86 03 
   173)       689.3  Rx     18EF1C8F  8  0D B2 14 00 0A 00 0E 00 
   174)       698.0  Rx     18EFCD1C  8  A0 00 00 00 00 00 00 00 
   175)       698.7  Rx     18EF1CCD  8  A0 00 00 00 01 00 00 00 
   176)       707.4  Rx     18EF1C8F  8  0D C0 00 34 41 DB 86 FC 
   177)       708.3  Rx     18EF1C8F  8  0D C1 17 00 22 00 83 03 
   178)       709.3  Rx     18EF1C8F  8  0D C2 14 00 0B 00 0F 00 
   179)       719.5  Rx     18EF1CCD  8  A2 00 00 00 00 00 00 00 
   180)       727.3  Rx     18EF1C8F  8  0D D0 00 54 8F DB 86 FC 
   181)       728.3  Rx     18EF1C8F  8  0D D1 16 00 22 00 83 03 
   182)       729.3  Rx     18EF1C8F  8  0D D2 13 00 0A 00 0D 00 
   183)       739.6  Rx     18EF1CCD  8  A3 00 00 00 00 FA FF FA 
   184)       747.4  Rx     18EF1C8F  8  0D E0 00 77 DD DB 86 FC 
   185)       748.3  Rx     18EF1C8F  8  0D E1 17 00 21 00 83 03 
   186)       749.3  Rx     18EF1C8F  8  0D E2 14 00 08 00 0D 00 
   187)       759.6  Rx     18EF1CCD  8  A1 40 FA FF FF FF 00 00 
   188)       767.3  Rx     18EF1C8F  8  0D F0 00 94 2B DC 86 FC 
   189)       768.3  Rx     18EF1C8F  8  0D F1 15 00 24 00 83 03 
   190)       769.3  Rx     18EF1C8F  8  0D F2 14 00 09 00 0F 00 
   191)       787.4  Rx     18EF1C8F  8  0D 00 00 B4 79 DC 86 FC 
   192)       788.3  Rx     18EF1C8F  8  0D 01 15 00 22 00 82 03 
   193)       789.3  Rx     18EF1C8F  8  0D 02 14 00 0C 00 0F 00 
   194)       807.4  Rx     18EF1C8F  8  0D 10 00 D4 C7 DC 86 FC 
   195)       808.3  Rx     18EF1C8F  8  0D 11 16 00 21 00 83 03 
   196)       809.3  Rx     18EF1C8F  8  0D 12 14 00 0B 00 0D 00 
   197)       818.1  Rx     18EFCD1C  8  A1 01 00 00 FA FF FF FF 
   198)       819.8  Rx     18EF1CCD  8  A2 00 00 00 00 00 00 00 
   199)       827.4  Rx     18EF1C8F  8  0D 20 00 F4 15 DD 86 FC 
   200)       828.3  Rx     18EF1C8F  8  0D 21 17 00 22 00 82 03 
   201)       829.3  Rx     18EF1C8F  8  0D 22 14 00 0A 00 0E 00 
   202)       838.0  Rx     18EFCD1C  8  A0 00 14 00 00 00 00 00 
   203)       838.7  Rx     18EF1CCD  8  A0 00 14 00 7A 07 00 00 
   204)       839.8  Rx     18EF1CCD  8  A3 00 00 00 00 FA FF FA 
   205)       847.4  Rx     18EF1C8F  8  0D 30 00 17 64 DD 86 FC 
   206)       848.3  Rx     18EF1C8F  8  0D 31 14 00 22 00 84 03 
   207)       849.3  Rx     18EF1C8F  8  0D 32 15 00 0B 00 0F 00 
   208)       858.1  Rx     18EFCD1C  8  A0 00 2A 00 00 00 00 00 
   209)       858.7  Rx     18EF1CCD  8  A0 00 2A 00 75 05 00 00 
   210)       859.9  Rx     18EF1CCD  8  A1 40 FA FF FF FF 00 00 
   211)       867.4  Rx     18EF1C8F  8  0D 40 00 34 B2 DD 86 FC 
   212)       868.3  Rx     18EF1C8F  8  0D 41 15 00 23 00 84 03 
   213)       869.3  Rx     18EF1C8F  8  0D 42 15 00 0B 00 0E 00 
   214)       878.1  Rx     18EFCD1C  8  A0 00 1B 00 00 00 00 00 
   215)       878.7  Rx     18EF1CCD  8  A0 00 1B 00 00 00 00 00 
   216)       887.4  Rx     18EF1C8F  8  0D 50 00 57 00 DE 86 FC 
   217)       888.3  Rx     18EF1C8F  8  0D 51 15 00 23 00 83 03 
   218)       889.3  Rx     18EF1C8F  8  0D 52 15 00 0B 00 0E 00 
   219)       898.1  Rx     18EFCD1C  8  A0 00 00 00 00 00 00 00 
   220)       898.7  Rx     18EF1CCD  8  A0 00 00 00 01 00 00 00 
   221)       907.4  Rx     18EF1C8F  8  0D 60 00 74 4E DE 86 FC 
   222)       908.3  Rx     18EF1C8F  8  0D 61 16 00 21 00 84 03 
   223)       909.3  Rx     18EF1C8F  8  0D 62 14 00 0B 00 0E 00 
   224)       920.0  Rx     18EF1CCD  8  A2 00 00 00 00 00 00 00 
   225)       927.4  Rx     18EF1C8F  8  0D 70 00 94 9C DE 86 FC 
   226)       928.3  Rx     18EF1C8F  8  0D 71 15 00 21 00 84 03 
   227)       929.3  Rx     18EF1C8F  8  0D 72 16 00 0A 00 0D 00 
   228)       940.1  Rx     18EF1CCD  8  A3 00 00 00 00 FA FF FA 
   229)       947.4  Rx     18EF1C8F  8  0D 80 00 B4 EA DE 86 FC 
   230)       948.3  Rx     18EF1C8F  8  0D 81 16 00 21 00 85 03 
   231)       949.3  Rx     18EF1C8F  8  0D 82 17 00 09 00 0E 00 
   232)       960.1  Rx     18EF1CCD  8  A1 40 FA FF FF FF 00 00 
   233)       967.4  Rx     18EF1C8F  8  0D 90 00 D7 38 DF 86 FC 
   234)       968.3  Rx     18EF1C8F  8  0D 91 17 00 21 00 83 03 
   235)       969.3  Rx     18EF1C8F  8  0D 92 14 00 09 00 0D 00 
   236)       981.8  Rx     18EF8F1C  4  01 85 DE 00 
   237)       982.3  Rx     18EF1C8F  4  01 DF 85 00 
   238)       987.4  Rx     18EF1C8F  8  0D A0 00 F4 86 DF 86 FC 
   239)       988.3  Rx     18EF1C8F  8  0D A1 15 00 24 00 83 03 
   240)       989.3  Rx     18EF1C8F  8  0D A2 14 00 09 00 0F 00 
   241)      1007.4  Rx     18EF1C8F  8  0D B0 00 14 D5 DF 86 FC 
   242)      1008.3  Rx     18EF1C8F  8  0D B1 14 00 22 00 83 03 
   243)      1009.3  Rx     18EF1C8F  8  0D B2 14 00 0B 00 0D 00 
   244)      1018.1  Rx     18EFCD1C  8  A1 01 00 00 FA FF FF FF 
   245)      1020.2  Rx     18EF1CCD  8  A2 00 00 00 00 00 00 00 
   246)      1027.4  Rx     18EF1C8F  8  0D C0 00 37 23 E0 86 FC 
   247)      1028.3  Rx     18EF1C8F  8  0D C1 16 00 23 00 85 03 
   248)      1029.3  Rx     18EF1C8F  8  0D C2 14 00 0B 00 0F 00 
   249)      1038.1  Rx     18EFCD1C  8  A0 00 14 00 00 00 00 00 
   250)      1038.7  Rx     18EF1CCD  8  A0 00 14 00 79 07 00 00 
   251)      1040.2  Rx     18EF1CCD  8  A3 00 00 00 00 FA FF FA 
   252)      1047.3  Rx     18EF1C8F  8  0D D0 00 54 71 E0 86 FC 
   253)      1048.3  Rx     18EF1C8F  8  0D D1 16 00 23 00 85 03 
   254)      1049.3  Rx     18EF1C8F  8  0D D2 12 00 09 00 0D 00 
   255)      1058.1  Rx     18EFCD1C  8  A0 00 2A 00 00 00 00 00 
   256)      1058.7  Rx     18EF1CCD  8  A0 00 2A 00 75 05 00 00 
   257)      1060.3  Rx     18EF1CCD  8  A1 40 FA FF FF FF 00 00 
   258)      1067.4  Rx     18EF1C8F  8  0D E0 00 77 BF E0 86 FC 
   259)      1068.3  Rx     18EF1C8F  8  0D E1 15 00 21 00 83 03 
   260)      1069.3  Rx     18EF1C8F  8  0D E2 15 00 0B 00 0C 00 
   261)      1078.0  Rx     18EFCD1C  8  A0 00 1B 00 00 00 00 00 
   262)      1078.7  Rx     18EF1CCD  8  A0 00 1B 00 00 00 00 00 
   263)      1087.3  Rx     18EF1C8F  8  0D F0 00 94 0D E1 86 FC 
   264)      1088.3  Rx     18EF1C8F  8  0D F1 16 00 22 00 84 03 
   265)      1089.3  Rx     18EF1C8F  8  0D F2 14 00 09 00 0D 00 
   266)      1098.1  Rx     18EFCD1C  8  A0 00 00 00 00 00 00 00 
   267)      1098.7  Rx     18EF1CCD  8  A0 00 00 00 01 00 00 00 
   268)      1107.4  Rx     18EF1C8F  8  0D 00 00 B4 5B E1 87 FC 
   269)      1108.3  Rx     18EF1C8F  8  0D 01 17 00 23 00 83 03 
   270)      1109.3  Rx     18EF1C8F  8  0D 02 14 00 0C 00 0E 00 
   271)      1120.4  Rx     18EF1CCD  8  A2 00 00 00 00 00 00 00 
   272)      1127.3  Rx     18EF1C8F  8  0D 10 00 D4 A9 E1 86 FC 
   273)      1128.3  Rx     18EF1C8F  8  0D 11 15 00 22 00 83 03 
   274)      1129.3  Rx     18EF1C8F  8  0D 12 13 00 0A 00 0B 00 
   275)      1140.5  Rx     18EF1CCD  8  A3 00 00 00 00 FA FF FA 
   276)      1147.4  Rx     18EF1C8F  8  0D 20 00 F4 F7 E1 87 FC 
   277)      1148.3  Rx     18EF1C8F  8  0D 21 19 00 22 00 84 03 
   278)      1149.3  Rx     18EF1C8F  8  0D 22 15 00 09 00 0C 00 
   279)      1160.5  Rx     18EF1CCD  8  A1 40 FA FF FF FF 00 00 
   280)      1167.4  Rx     18EF1C8F  8  0D 30 00 17 46 E2 87 FC 
   281)      1168.3  Rx     18EF1C8F  8  0D 31 18 00 23 00 83 03 
   282)      1169.3  Rx     18EF1C8F  8  0D 32 14 00 07 00 0D 00 
   283)      1187.4  Rx     18EF1C8F  8  0D 40 00 34 94 E2 86 FC 
   284)      1188.3  Rx     18EF1C8F  8  0D 41 15 00 21 00 85 03 
   285)      1189.3  Rx     18EF1C8F  8  0D 42 16 00 07 00 0E 00 
   286)      1207.4  Rx     18EF1C8F  8  0D 50 00 54 E2 E2 87 FC 
   287)      1208.3  Rx     18EF1C8F  8  0D 51 15 00 23 00 82 03 
   288)      1209.3  Rx     18EF1C8F  8  0D 52 13 00 0C 00 0E 00 
   289)      1218.3  Rx     18EFCD1C  8  A1 01 00 00 FA FF FF FF 
   290)      1220.7  Rx     18EF1CCD  8  A2 00 00 00 00 00 00 00 
   291)      1227.4  Rx     18EF1C8F  8  0D 60 00 74 30 E3 86 FC 
   292)      1228.3  Rx     18EF1C8F  8  0D 61 16 00 23 00 81 03 
   293)      1229.3  Rx     18EF1C8F  8  0D 62 16 00 0D 00 0E 00 
   294)      1238.0  Rx     18EFCD1C  8  A0 00 14 00 00 00 00 00 
   295)      1238.7  Rx     18EF1CCD  8  A0 00 14 00 7A 07 00 00 
   296)      1240.7  Rx     18EF1CCD  8  A3 00 00 00 00 FA FF FA 
   297)      1247.4  Rx     18EF1C8F  8  0D 70 00 94 7E E3 87 FC 
   298)      1248.3  Rx     18EF1C8F  8  0D 71 16 00 23 00 84 03 
   299)      1249.3  Rx     18EF1C8F  8  0D 72 13 00 0A 00 0E 00 
   300)      1258.1  Rx     18EFCD1C  8  A0 00 2A 00 00 00 00 00 
   301)      1258.8  Rx     18EF1CCD  8  A0 00 2A 00 75 05 00 00 
   302)      1260.7  Rx     18EF1CCD  8  A1 40 FA FF FF FF 00 00 
   303)      1267.4  Rx     18EF1C8F  8  0D 80 00 B4 CC E3 86 FC 
   304)      1268.3  Rx     18EF1C8F  8  0D 81 17 00 21 00 84 03 
   305)      1269.3  Rx     18EF1C8F  8  0D 82 12 00 06 00 0E 00 
   306)      1278.1  Rx     18EFCD1C  8  A0 00 1B 00 00 00 00 00 
   307)      1278.8  Rx     18EF1CCD  8  A0 00 1B 00 00 00 00 00 
   308)      1287.4  Rx     18EF1C8F  8  0D 90 00 D4 1A E4 86 FC 
   309)      1288.3  Rx     18EF1C8F  8  0D 91 16 00 23 00 82 03 
   310)      1289.3  Rx     18EF1C8F  8  0D 92 15 00 08 00 0E 00 
   311)      1298.1  Rx     18EFCD1C  8  A0 00 00 00 00 00 00 00 
   312)      1298.7  Rx     18EF1CCD  8  A0 00 00 00 01 00 00 00 
   313)      1307.4  Rx     18EF1C8F  8  0D A0 00 F4 68 E4 86 FC 
   314)      1308.3  Rx     18EF1C8F  8  0D A1 18 00 22 00 83 03 
   315)      1309.3  Rx     18EF1C8F  8  0D A2 15 00 0B 00 0F 00 
   316)      1320.9  Rx     18EF1CCD  8  A2 00 00 00 00 00 00 00 
   317)      1327.4  Rx     18EF1C8F  8  0D B0 00 14 B7 E4 86 FC 
   318)      1328.3  Rx     18EF1C8F  8  0D B1 16 00 22 00 83 03 
   319)      1329.3  Rx     18EF1C8F  8  0D B2 14 00 0C 00 0F 00 
   320)      1340.9  Rx     18EF1CCD  8  A3 00 00 00 00 FA FF FA 
   321)      1347.4  Rx     18EF1C8F  8  0D C0 00 34 05 E5 86 FC 
   322)      1348.3  Rx     18EF1C8F  8  0D C1 17 00 23 00 83 03 
   323)      1349.3  Rx     18EF1C8F  8  0D C2 15 00 0B 00 0E 00 
   324)      1361.0  Rx     18EF1CCD  8  A1 40 FA FF FF FF 00 00 
   325)      1367.4  Rx     18EF1C8F  8  0D D0 00 54 53 E5 86 FC 
   326)      1368.3  Rx     18EF1C8F  8  0D D1 15 00 20 00 82 03 
   327)      1369.3  Rx     18EF1C8F  8  0D D2 15 00 0A 00 0C 00 
   328)      1387.4  Rx     18EF1C8F  8  0D E0 00 74 A1 E5 87 FC 
   329)      1388.3  Rx     18EF1C8F  8  0D E1 16 00 23 00 83 03 
   330)      1389.3  Rx     18EF1C8F  8  0D E2 15 00 0A 00 0F 00 
   331)      1407.4  Rx     18EF1C8F  8  0D F0 00 94 EF E5 87 FC 
   332)      1408.3  Rx     18EF1C8F  8  0D F1 16 00 22 00 83 03 
   333)      1409.3  Rx     18EF1C8F  8  0D F2 15 00 0A 00 0E 00 
   334)      1418.2  Rx     18EFCD1C  8  A1 01 00 00 FA FF FF FF 
   335)      1421.2  Rx     18EF1CCD  8  A2 00 00 00 00 00 00 00 
   336)      1427.4  Rx     18EF1C8F  8  0D 00 00 B7 3D E6 86 FC 
   337)      1428.3  Rx     18EF1C8F  8  0D 01 17 00 21 00 83 03 
   338)      1429.3  Rx     18EF1C8F  8  0D 02 15 00 0B 00 0E 00 
   339)      1438.1  Rx     18EFCD1C  8  A0 00 14 00 00 00 00 00 
   340)      1438.7  Rx     18EF1CCD  8  A0 00 14 00 7A 07 00 00 
   341)      1441.2  Rx     18EF1CCD  8  A3 00 00 00 00 FA FF FA 
   342)      1447.4  Rx     18EF1C8F  8  0D 10 00 D7 8B E6 87 FC 
   343)      1448.3  Rx     18EF1C8F  8  0D 11 15 00 23 00 84 03 
   344)      1449.3  Rx     18EF1C8F  8  0D 12 17 00 0C 00 0E 00 
   345)      1458.1  Rx     18EFCD1C  8  A0 00 2A 00 00 00 00 00 
   346)      1458.7  Rx     18EF1CCD  8  A0 00 2A 00 75 05 00 00 
   347)      1461.2  Rx     18EF1CCD  8  A1 40 FA FF FF FF 00 00 
   348)      1467.4  Rx     18EF1C8F  8  0D 20 00 F4 D9 E6 87 FC 
   349)      1468.3  Rx     18EF1C8F  8  0D 21 15 00 23 00 83 03 
   350)      1469.3  Rx     18EF1C8F  8  0D 22 16 00 0B 00 0D 00 
   351)      1478.1  Rx     18EFCD1C  8  A0 00 1B 00 00 00 00 00 
   352)      1478.7  Rx     18EF1CCD  8  A0 00 1B 00 00 00 00 00 
   353)      1487.4  Rx     18EF1C8F  8  0D 30 00 14 28 E7 86 FC 
   354)      1488.4  Rx     18EF1C8F  8  0D 31 17 00 21 00 84 03 
   355)      1489.3  Rx     18EF1C8F  8  0D 32 15 00 09 00 0E 00 
   356)      1498.1  Rx     18EFCD1C  8  A0 00 00 00 00 00 00 00 
   357)      1498.7  Rx     18EF1CCD  8  A0 00 00 00 01 00 00 00 
   358)      1507.4  Rx     18EF1C8F  8  0D 40 00 34 76 E7 86 FC 
   359)      1508.3  Rx     18EF1C8F  8  0D 41 16 00 22 00 83 03 
   360)      1509.4  Rx     18EF1C8F  8  0D 42 14 00 09 00 0D 00 
   361)      1521.3  Rx     18EF1CCD  8  A2 00 00 00 00 00 00 00 
   362)      1527.4  Rx     18EF1C8F  8  0D 50 00 57 C4 E7 86 FC 
   363)      1528.4  Rx     18EF1C8F  8  0D 51 15 00 23 00 83 03 
   364)      1529.3  Rx     18EF1C8F  8  0D 52 15 00 0A 00 0C 00 
   365)      1541.4  Rx     18EF1CCD  8  A3 00 00 00 00 FA FF FA 
   366)      1547.4  Rx     18EF1C8F  8  0D 60 00 74 12 E8 86 FC 
   367)      1548.3  Rx     18EF1C8F  8  0D 61 15 00 22 00 85 03 
   368)      1549.4  Rx     18EF1C8F  8  0D 62 16 00 09 00 0C 00 
   369)      1559.5  Rx     18FEF31C  8  5E 29 80 99 AC CE 2C 89 
   370)      1560.1  Rx     18FEE81C  8  97 4F 00 00 00 00 10 52 
   371)      1560.6  Rx     18FEE61C  8  AC 0C 0E 09 57 29 00 00 
   372)      1561.2  Rx     19F8021C  8  9D FC 86 6C 00 00 FF FF 
   373)      1561.8  Rx     18EF1CCD  8  A1 40 FA FF FF FF 00 00 
   374)      1567.5  Rx     18EF1C8F  8  0D 70 00 97 60 E8 86 FC 
   375)      1568.4  Rx     18EF1C8F  8  0D 71 16 00 21 00 84 03 
   376)      1569.4  Rx     18EF1C8F  8  0D 72 13 00 07 00 0F 00 
   377)      1587.4  Rx     18EF1C8F  8  0D 80 00 B4 AE E8 86 FC 
   378)      1588.4  Rx     18EF1C8F  8  0D 81 16 00 23 00 83 03 
   379)      1589.4  Rx     18EF1C8F  8  0D 82 16 00 0A 00 0B 00 
   380)      1605.2  Rx     19F8051C  8  C0 2F 9D EE 50 73 DB 7E 
   381)      1605.8  Rx     19F8051C  8  C1 1E 80 CE 24 2F E1 A6 
   382)      1606.3  Rx     19F8051C  8  C2 98 06 E0 65 4B B4 F3 
   383)      1606.9  Rx     19F8051C  8  C3 91 CB 02 41 40 68 08 
   384)      1607.5  Rx     19F8051C  8  C4 00 00 00 00 20 00 0A 
   385)      1608.0  Rx     18EF1C8F  8  0D 90 00 D7 FC E8 86 FC 
   386)      1608.6  Rx     18EF1C8F  8  0D 91 17 00 23 00 83 03 
   387)      1609.1  Rx     19F8051C  8  C5 64 00 64 00 DC 05 00 
   388)      1609.7  Rx     18EF1C8F  8  0D 92 13 00 09 00 0E 00 
   389)      1610.3  Rx     19F8051C  8  C6 00 01 0F 00 00 00 FF 
   390)      1618.2  Rx     18EFCD1C  8  A1 01 00 00 FA FF FF FF 
   391)      1621.6  Rx     18EF1CCD  8  A2 00 00 00 00 00 00 00 
   392)      1627.5  Rx     18EF1C8F  8  0D A0 00 F9 4A E9 86 FC 
   393)      1628.4  Rx     18EF1C8F  8  0D A1 15 00 23 00 82 03 
   394)      1629.4  Rx     18EF1C8F  8  0D A2 13 00 0B 00 0F 00 
   395)      1638.1  Rx     18EFCD1C  8  A0 00 14 00 00 00 00 00 
   396)      1638.7  Rx     18EF1CCD  8  A0 00 14 00 7A 07 00 00 
   397)      1641.7  Rx     18EF1CCD  8  A3 00 00 00 00 FA FF FA 
   398)      1647.5  Rx     18EF1C8F  8  0D B0 00 14 99 E9 87 FC 
   399)      1648.4  Rx     18EF1C8F  8  0D B1 17 00 23 00 83 03 
   400)      1649.4  Rx     18EF1C8F  8  0D B2 10 00 0C 00 0D 00 
   401)      1658.1  Rx     18EFCD1C  8  A0 00 2A 00 00 00 00 00 
   402)      1658.8  Rx     18EF1CCD  8  A0 00 2A 00 76 05 00 00 
   403)      1661.7  Rx     18EF1CCD  8  A1 40 FA FF FF FF 00 00 
   404)      1667.5  Rx     18EF1C8F  8  0D C0 00 37 E7 E9 86 FC 
   405)      1668.4  Rx     18EF1C8F  8  0D C1 17 00 24 00 83 03 
   406)      1669.4  Rx     18EF1C8F  8  0D C2 17 00 07 00 0F 00 
   407)      1678.1  Rx     18EFCD1C  8  A0 00 1B 00 00 00 00 00 
   408)      1678.8  Rx     18EF1CCD  8  A0 00 1B 00 00 00 00 00 
   409)      1687.5  Rx     18EF1C8F  8  0D D0 00 54 35 EA 87 FC 
   410)      1688.4  Rx     18EF1C8F  8  0D D1 17 00 23 00 83 03 
   411)      1689.4  Rx     18EF1C8F  8  0D D2 13 00 07 00 0F 00 
   412)      1698.1  Rx     18EFCD1C  8  A0 00 00 00 00 00 00 00 
   413)      1698.8  Rx     18EF1CCD  8  A0 00 00 00 01 00 00 00 
   414)      1707.5  Rx     18EF1C8F  8  0D E0 00 74 83 EA 86 FC 
   415)      1708.4  Rx     18EF1C8F  8  0D E1 17 00 23 00 81 03 
   416)      1709.4  Rx     18EF1C8F  8  0D E2 14 00 0A 00 0D 00 
   417)      1721.8  Rx     18EF1CCD  8  A2 00 00 00 00 00 00 00 
   418)      1727.5  Rx     18EF1C8F  8  0D F0 00 94 D1 EA 86 FC 
   419)      1728.4  Rx     18EF1C8F  8  0D F1 16 00 22 00 84 03 
   420)      1729.4  Rx     18EF1C8F  8  0D F2 12 00 0E 00 10 00 
   421)      1741.9  Rx     18EF1CCD  8  A3 00 00 00 00 FA FF FA 
   422)      1747.5  Rx     18EF1C8F  8  0D 00 00 B4 1F EB 86 FC 
   423)      1748.4  Rx     18EF1C8F  8  0D 01 15 00 22 00 85 03 
   424)      1749.4  Rx     18EF1C8F  8  0D 02 13 00 0B 00 0E 00 
   425)      1761.9  Rx     18EF1CCD  8  A1 40 FA FF FF FF 00 00 
   426)      1767.5  Rx     18EF1C8F  8  0D 10 00 D4 6D EB 87 FC 
   427)      1768.4  Rx     18EF1C8F  8  0D 11 17 00 22 00 84 03 
   428)      1769.4  Rx     18EF1C8F  8  0D 12 16 00 07 00 0E 00 
   429)      1787.5  Rx     18EF1C8F  8  0D 20 00 F4 BB EB 86 FC 
   430)      1788.4  Rx     18EF1C8F  8  0D 21 16 00 22 00 83 03 
   431)      1789.4  Rx     18EF1C8F  8  0D 22 16 00 0A 00 0D 00 
   432)      1807.5  Rx     18EF1C8F  8  0D 30 00 14 0A EC 86 FC 
   433)      1808.4  Rx     18EF1C8F  8  0D 31 15 00 22 00 83 03 
   434)      1809.4  Rx     18EF1C8F  8  0D 32 15 00 0B 00 0E 00 
   435)      1818.3  Rx     18EFCD1C  8  A1 01 00 00 FA FF FF FF 
   436)      1822.1  Rx     18EF1CCD  8  A2 00 00 00 00 00 00 00 
   437)      1827.5  Rx     18EF1C8F  8  0D 40 00 34 58 EC 86 FC 
   438)      1828.4  Rx     18EF1C8F  8  0D 41 17 00 23 00 83 03 
   439)      1829.4  Rx     18EF1C8F  8  0D 42 14 00 0A 00 0C 00 
   440)      1838.1  Rx     18EFCD1C  8  A0 00 14 00 00 00 00 00 
   441)      1838.7  Rx     18EF1CCD  8  A0 00 14 00 79 07 00 00 
   442)      1842.2  Rx     18EF1CCD  8  A3 00 00 00 00 FA FF FA 
   443)      1847.5  Rx     18EF1C8F  8  0D 50 00 54 A6 EC 86 FC 
   444)      1848.4  Rx     18EF1C8F  8  0D 51 16 00 20 00 82 03 
   445)      1849.4  Rx     18EF1C8F  8  0D 52 16 00 0B 00 0F 00 
   446)      1858.2  Rx     18EFCD1C  8  A0 00 2A 00 00 00 00 00 
   447)      1858.8  Rx     18EF1CCD  8  A0 00 2A 00 76 05 00 00 
   448)      1862.2  Rx     18EF1CCD  8  A1 40 FA FF FF FF 00 00 
   449)      1867.5  Rx     18EF1C8F  8  0D 60 00 77 F4 EC 87 FC 
   450)      1868.4  Rx     18EF1C8F  8  0D 61 13 00 21 00 85 03 
   451)      1869.4  Rx     18EF1C8F  8  0D 62 13 00 07 00 0D 00 
   452)      1878.2  Rx     18EFCD1C  8  A0 00 1B 00 00 00 00 00 
   453)      1878.8  Rx     18EF1CCD  8  A0 00 1B 00 00 00 00 00 
   454)      1887.5  Rx     18EF1C8F  8  0D 70 00 94 42 ED 87 FC 
   455)      1888.4  Rx     18EF1C8F  8  0D 71 15 00 25 00 83 03 
   456)      1889.4  Rx     18EF1C8F  8  0D 72 15 00 09 00 0E 00 
   457)      1898.2  Rx     18EFCD1C  8  A0 00 00 00 00 00 00 00 
   458)      1898.8  Rx     18EF1CCD  8  A0 00 00 00 01 00 00 00 
   459)      1907.5  Rx     18EF1C8F  8  0D 80 00 B4 90 ED 86 FC 
   460)      1908.4  Rx     18EF1C8F  8  0D 81 17 00 23 00 82 03 
   461)      1909.4  Rx     18EF1C8F  8  0D 82 15 00 0A 00 0D 00 
   462)      1922.3  Rx     18EF1CCD  8  A2 00 00 00 00 00 00 00 
   463)      1927.5  Rx     18EF1C8F  8  0D 90 00 D4 DE ED 86 FC 
   464)      1928.4  Rx     18EF1C8F  8  0D 91 18 00 21 00 83 03 
   465)      1929.4  Rx     18EF1C8F  8  0D 92 12 00 0B 00 0D 00 
   466)      1942.4  Rx     18EF1CCD  8  A3 00 00 00 00 FA FF FA 
   467)      1947.5  Rx     18EF1C8F  8  0D A0 00 F7 2C EE 87 FC 
   468)      1948.4  Rx     18EF1C8F  8  0D A1 16 00 22 00 80 03 
   469)      1949.4  Rx     18EF1C8F  8  0D A2 14 00 09 00 0E 00 
   470)      1962.4  Rx     18EF1CCD  8  A1 40 FA FF FF FF 00 00 
   471)      1967.5  Rx     18EF1C8F  8  0D B0 00 14 7B EE 87 FC 
   472)      1968.4  Rx     18EF1C8F  8  0D B1 16 00 23 00 83 03 
   473)      1969.5  Rx     18EF1C8F  8  0D B2 16 00 09 00 0E 00 
   474)      1987.5  Rx     18EF1C8F  8  0D C0 00 34 C9 EE 87 FC 
   475)      1988.5  Rx     18EF1C8F  8  0D C1 16 00 22 00 83 03 
   476)      1989.4  Rx     18EF1C8F  8  0D C2 18 00 0C 00 10 00 
   477)      2007.5  Rx     18EF1C8F  8  0D D0 00 54 17 EF 87 FC 
   478)      2008.4  Rx     18EF1C8F  8  0D D1 17 00 22 00 83 03 
   479)      2009.5  Rx     18EF1C8F  8  0D D2 14 00 0C 00 0E 00 
   480)      2018.3  Rx     18EFCD1C  8  A1 01 00 00 FA FF FF FF 
   481)      2022.6  Rx     18EF1CCD  8  A2 00 00 00 00 00 00 00 
   482)      2027.6  Rx     18EF1C8F  8  0D E0 00 74 65 EF 87 FC 
   483)      2028.5  Rx     18EF1C8F  8  0D E1 17 00 23 00 82 03 
   484)      2029.5  Rx     18EF1C8F  8  0D E2 14 00 0A 00 0E 00 
   485)      2038.2  Rx     18EFCD1C  8  A0 00 14 00 00 00 00 00 
   486)      2038.8  Rx     18EF1CCD  8  A0 00 14 00 79 07 00 00 
   487)      2042.6  Rx     18EF1CCD  8  A3 00 00 00 00 FA FF FA 
   488)      2047.5  Rx     18EF1C8F  8  0D F0 00 97 B3 EF 87 FC 
   489)      2048.5  Rx     18EF1C8F  8  0D F1 17 00 24 00 83 03 
   490)      2049.5  Rx     18EF1C8F  8  0D F2 0F 00 09 00 11 00 
   491)      2058.2  Rx     18EFCD1C  8  A0 00 2A 00 00 00 00 00 
   492)      2058.9  Rx     18EF1CCD  8  A0 00 2A 00 76 05 00 00 
   493)      2062.7  Rx     18EF1CCD  8  A1 40 FA FF FF FF 00 00 
   494)      2067.6  Rx     18EF1C8F  8  0D 00 00 B4 01 F0 86 FC 
   495)      2068.5  Rx     18EF1C8F  8  0D 01 14 00 23 00 83 03 
   496)      2069.5  Rx     18EF1C8F  8  0D 02 12 00 0B 00 10 00 
   497)      2078.2  Rx     18EFCD1C  8  A0 00 1B 00 00 00 00 00 
   498)      2078.8  Rx     18EF1CCD  8  A0 00 1B 00 00 00 00 00 
   499)      2087.5  Rx     18EF1C8F  8  0D 10 00 D7 4F F0 87 FC 
   500)      2088.5  Rx     18EF1C8F  8  0D 11 16 00 22 00 84 03 
   501)      2089.5  Rx     18EF1C8F  8  0D 12 15 00 09 00 0D 00 
   502)      2098.2  Rx     18EFCD1C  8  A0 00 00 00 00 00 00 00 
   503)      2098.8  Rx     18EF1CCD  8  A0 00 00 00 01 00 00 00 
   504)      2107.6  Rx     18EF1C8F  8  0D 20 00 F4 9D F0 87 FC 
   505)      2108.5  Rx     18EF1C8F  8  0D 21 17 00 23 00 84 03 
   506)      2109.5  Rx     18EF1C8F  8  0D 22 15 00 0A 00 0E 00 
   507)      2122.8  Rx     18EF1CCD  8  A2 00 00 00 00 00 00 00 
   508)      2127.6  Rx     18EF1C8F  8  0D 30 00 14 EC F0 87 FC 
   509)      2128.5  Rx     18EF1C8F  8  0D 31 16 00 21 00 83 03 
   510)      2129.5  Rx     18EF1C8F  8  0D 32 15 00 08 00 10 00 
   511)      2142.9  Rx     18EF1CCD  8  A3 00 00 00 00 FA FF FA 
   512)      2147.6  Rx     18EF1C8F  8  0D 40 00 34 3A F1 87 FC 
   513)      2148.5  Rx     18EF1C8F  8  0D 41 16 00 22 00 81 03 
   514)      2149.5  Rx     18EF1C8F  8  0D 42 16 00 0B 00 0D 00 
   515)      2162.9  Rx     18EF1CCD  8  A1 40 FA FF FF FF 00 00 
   516)      2167.6  Rx     18EF1C8F  8  0D 50 00 54 88 F1 87 FC 
   517)      2168.5  Rx     18EF1C8F  8  0D 51 18 00 22 00 83 03 
   518)      2169.5  Rx     18EF1C8F  8  0D 52 14 00 09 00 0F 00 
   519)      2187.6  Rx     18EF1C8F  8  0D 60 00 74 D6 F1 87 FC 
   520)      2188.5  Rx     18EF1C8F  8  0D 61 15 00 22 00 84 03 
   521)      2189.5  Rx     18EF1C8F  8  0D 62 13 00 0A 00 10 00 
   522)      2207.6  Rx     18EF1C8F  8  0D 70 00 94 24 F2 87 FC 
   523)      2208.5  Rx     18EF1C8F  8  0D 71 16 00 21 00 83 03 
   524)      2209.5  Rx     18EF1C8F  8  0D 72 12 00 0A 00 0D 00 
   525)      2218.5  Rx     18EFCD1C  8  A1 01 00 00 FA FF FF FF 
   526)      2223.1  Rx     18EF1CCD  8  A2 00 00 00 00 00 00 00 
   527)      2227.6  Rx     18EF1C8F  8  0D 80 00 B4 72 F2 86 FC 
   528)      2228.5  Rx     18EF1C8F  8  0D 81 16 00 23 00 83 03 
   529)      2229.5  Rx     18EF1C8F  8  0D 82 14 00 0A 00 0E 00 
   530)      2238.2  Rx     18EFCD1C  8  A0 00 14 00 00 00 00 00 
   531)      2238.9  Rx     18EF1CCD  8  A0 00 14 00 79 07 00 00 
   532)      2243.1  Rx     18EF1CCD  8  A3 00 00 00 00 FA FF FA 
   533)      2247.6  Rx     18EF1C8F  8  0D 90 00 D7 C0 F2 86 FC 
   534)      2248.5  Rx     18EF1C8F  8  0D 91 17 00 23 00 82 03 
   535)      2249.5  Rx     18EF1C8F  8  0D 92 11 00 0B 00 0D 00 
   536)      2258.3  Rx     18EFCD1C  8  A0 00 2A 00 00 00 00 00 
   537)      2258.9  Rx     18EF1CCD  8  A0 00 2A 00 75 05 00 00 
   538)      2263.1  Rx     18EF1CCD  8  A1 40 FA FF FF FF 00 00 
   539)      2267.6  Rx     18EF1C8F  8  0D A0 00 F4 0E F3 86 FC 
   540)      2268.5  Rx     18EF1C8F  8  0D A1 17 00 23 00 85 03 
   541)      2269.5  Rx     18EF1C8F  8  0D A2 12 00 0B 00 0E 00 
   542)      2278.2  Rx     18EFCD1C  8  A0 00 1B 00 00 00 00 00 
   543)      2278.9  Rx     18EF1CCD  8  A0 00 1B 00 00 00 00 00 
   544)      2287.6  Rx     18EF1C8F  8  0D B0 00 14 5D F3 86 FC 
   545)      2288.5  Rx     18EF1C8F  8  0D B1 16 00 22 00 83 03 
   546)      2289.5  Rx     18EF1C8F  8  0D B2 14 00 0A 00 0D 00 
   547)      2298.3  Rx     18EFCD1C  8  A0 00 00 00 00 00 00 00 
   548)      2298.9  Rx     18EF1CCD  8  A0 00 00 00 01 00 00 00 
   549)      2307.6  Rx     18EF1C8F  8  0D C0 00 34 AB F3 87 FC 
   550)      2308.5  Rx     18EF1C8F  8  0D C1 15 00 24 00 84 03 
   551)      2309.5  Rx     18EF1C8F  8  0D C2 18 00 0A 00 0D 00 
   552)      2323.2  Rx     18EF1CCD  8  A2 00 00 00 00 00 00 00 
   553)      2327.6  Rx     18EF1C8F  8  0D D0 00 54 F9 F3 86 FC 
   554)      2328.5  Rx     18EF1C8F  8  0D D1 18 00 20 00 83 03 
   555)      2329.5  Rx     18EF1C8F  8  0D D2 17 00 0A 00 0D 00 
   556)      2343.4  Rx     18EF1CCD  8  A3 00 00 00 00 FA FF FA 
   557)      2347.6  Rx     18EF1C8F  8  0D E0 00 74 47 F4 87 FC 
   558)      2348.5  Rx     18EF1C8F  8  0D E1 18 00 21 00 83 03 
   559)      2349.5  Rx     18EF1C8F  8  0D E2 14 00 0B 00 10 00 
   560)      2363.4  Rx     18EF1CCD  8  A1 40 FA FF FF FF 00 00 
   561)      2367.6  Rx     18EF1C8F  8  0D F0 00 97 95 F4 87 FC 
   562)      2368.5  Rx     18EF1C8F  8  0D F1 15 00 22 00 82 03 
   563)      2369.5  Rx     18EF1C8F  8  0D F2 14 00 0A 00 10 00 
   564)      2387.6  Rx     18EF1C8F  8  0D 00 00 B4 E3 F4 87 FC 
   565)      2388.5  Rx     18EF1C8F  8  0D 01 17 00 22 00 81 03 
   566)      2389.5  Rx     18EF1C8F  8  0D 02 14 00 0B 00 0D 00 
   567)      2407.6  Rx     18EF1C8F  8  0D 10 00 D4 31 F5 87 FC 
   568)      2408.5  Rx     18EF1C8F  8  0D 11 14 00 21 00 82 03 
   569)      2409.5  Rx     18EF1C8F  8  0D 12 13 00 09 00 0C 00 
   570)      2418.4  Rx     18EFCD1C  8  A1 01 00 00 FA FF FF FF 
   571)      2423.5  Rx     18EF1CCD  8  A2 00 00 00 00 00 00 00 
   572)      2427.6  Rx     18EF1C8F  8  0D 20 00 F4 7F F5 87 FC 
   573)      2428.5  Rx     18EF1C8F  8  0D 21 16 00 22 00 83 03 
   574)      2429.5  Rx     18EF1C8F  8  0D 22 15 00 08 00 10 00 
   575)      2438.3  Rx     18EFCD1C  8  A0 00 14 00 00 00 00 00 
   576)      2438.9  Rx     18EF1CCD  8  A0 00 14 00 79 07 00 00 
   577)      2443.6  Rx     18EF1CCD  8  A3 00 00 00 00 FA FF FA 
   578)      2447.6  Rx     18EF1C8F  8  0D 30 00 17 CE F5 87 FC 
   579)      2448.5  Rx     18EF1C8F  8  0D 31 16 00 22 00 84 03 
   580)      2449.5  Rx     18EF1C8F  8  0D 32 16 00 0C 00 11 00 
   581)      2458.3  Rx     18EFCD1C  8  A0 00 2A 00 00 00 00 00 
   582)      2458.9  Rx     18EF1CCD  8  A0 00 2A 00 75 05 00 00 
   583)      2463.6  Rx     18EF1CCD  8  A1 40 FA FF FF FF 00 00 
   584)      2467.6  Rx     18EF1C8F  8  0D 40 00 37 1C F6 87 FC 
   585)      2468.5  Rx     18EF1C8F  8  0D 41 17 00 23 00 82 03 
   586)      2469.5  Rx     18EF1C8F  8  0D 42 15 00 0C 00 0D 00 
   587)      2478.2  Rx     18EFCD1C  8  A0 00 1B 00 00 00 00 00 
   588)      2478.9  Rx     18EF1CCD  8  A0 00 1B 00 00 00 00 00 
   589)      2487.6  Rx     18EF1C8F  8  0D 50 00 54 6A F6 87 FC 
   590)      2488.6  Rx     18EF1C8F  8  0D 51 16 00 23 00 83 03 
   591)      2489.5  Rx     18EF1C8F  8  0D 52 16 00 09 00 0F 00 
   592)      2498.3  Rx     18EFCD1C  8  A0 00 00 00 00 00 00 00 
   593)      2498.9  Rx     18EF1CCD  8  A0 00 00 00 01 00 00 00 
   594)      2507.6  Rx     18EF1C8F  8  0D 60 00 77 B8 F6 87 FC 
   595)      2508.5  Rx     18EF1C8F  8  0D 61 16 00 1F 00 83 03 
   596)      2509.6  Rx     18EF1C8F  8  0D 62 14 00 0B 00 0D 00 
   597)      2523.8  Rx     18EF1CCD  8  A2 00 00 00 00 00 00 00 
   598)      2527.6  Rx     18EF1C8F  8  0D 70 00 94 06 F7 87 FC 
   599)      2528.6  Rx     18EF1C8F  8  0D 71 14 00 22 00 84 03 
   600)      2529.5  Rx     18EF1C8F  8  0D 72 14 00 0C 00 0C 00 
   601)      2543.8  Rx     18EF1CCD  8  A3 00 00 00 00 FA FF FA 
   602)      2547.6  Rx     18EF1C8F  8  0D 80 00 B4 54 F7 87 FC 
   603)      2548.6  Rx     18EF1C8F  8  0D 81 17 00 21 00 85 03 
   604)      2549.6  Rx     18EF1C8F  8  0D 82 14 00 09 00 0E 00 
   605)      2559.6  Rx     18FEF31C  8  5E 29 80 99 AC CE 2C 89 
   606)      2560.2  Rx     18FEE81C  8  97 4F 00 00 00 00 10 52 
   607)      2560.8  Rx     18FEE61C  8  B0 0C 0E 09 57 29 00 00 
   608)      2561.3  Rx     19F8021C  8  A2 FC 86 6C 00 00 FF FF 
   609)      2563.9  Rx     18EF1CCD  8  A1 40 FA FF FF FF 00 00 
   610)      2567.7  Rx     18EF1C8F  8  0D 90 00 D7 A2 F7 87 FC 
   611)      2568.5  Rx     18EF1C8F  8  0D 91 16 00 23 00 83 03 
   612)      2569.6  Rx     18EF1C8F  8  0D 92 15 00 09 00 0C 00 
   613)      2587.6  Rx     18EF1C8F  8  0D A0 00 F4 F0 F7 87 FC 
   614)      2588.6  Rx     18EF1C8F  8  0D A1 16 00 22 00 84 03 
   615)      2589.5  Rx     18EF1C8F  8  0D A2 14 00 0A 00 0D 00 
   616)      2605.7  Rx     19F8051C  8  E0 2F A2 EE 50 83 02 7F 
   617)      2606.2  Rx     19F8051C  8  E1 1E 80 CE 24 2F E1 A6 
   618)      2606.8  Rx     19F8051C  8  E2 98 06 E0 65 4B B4 F3 
   619)      2607.4  Rx     19F8051C  8  E3 91 CB 02 41 40 68 08 
   620)      2607.9  Rx     18EF1C8F  8  0D B0 00 14 3F F8 87 FC 
   621)      2608.5  Rx     19F8051C  8  E4 00 00 00 00 20 00 0A 
   622)      2609.1  Rx     18EF1C8F  8  0D B1 18 00 21 00 83 03 
   623)      2609.6  Rx     18EF1C8F  8  0D B2 14 00 0B 00 0F 00 
   624)      2610.2  Rx     19F8051C  8  E5 64 00 64 00 DC 05 00 
   625)      2610.7  Rx     19F8051C  8  E6 00 01 0F 00 00 00 FF 
   626)      2618.4  Rx     18EFCD1C  8  A1 01 00 00 FA FF FF FF 
   627)      2624.0  Rx     18EF1CCD  8  A2 00 00 00 00 00 00 00 
   628)      2627.7  Rx     18EF1C8F  8  0D C0 00 39 8D F8 87 FC 
   629)      2628.6  Rx     18EF1C8F  8  0D C1 16 00 22 00 84 03 
   630)      2629.5  Rx     18EF1C8F  8  0D C2 14 00 0C 00 0D 00 
   631)      2638.3  Rx     18EFCD1C  8  A0 00 14 00 00 00 00 00 
   632)      2639.0  Rx     18EF1CCD  8  A0 00 14 00 7A 07 00 00 
   633)      2644.0  Rx     18EF1CCD  8  A3 00 00 00 00 FA FF FA 
   634)      2647.6  Rx     18EF1C8F  8  0D D0 00 54 DB F8 87 FC 
   635)      2648.5  Rx     18EF1C8F  8  0D D1 15 00 22 00 84 03 
   636)      2649.6  Rx     18EF1C8F  8  0D D2 14 00 0A 00 0E 00 
   637)      2658.3  Rx     18EFCD1C  8  A0 00 2A 00 00 00 00 00 
   638)      2658.9  Rx     18EF1CCD  8  A0 00 2A 00 75 05 00 00 
   639)      2664.1  Rx     18EF1CCD  8  A1 40 FA FF FF FF 00 00 
   640)      2667.7  Rx     18EF1C8F  8  0D E0 00 74 29 F9 86 FC 
   641)      2668.6  Rx     18EF1C8F  8  0D E1 18 00 22 00 84 03 
   642)      2669.6  Rx     18EF1C8F  8  0D E2 13 00 07 00 0E 00 
   643)      2678.3  Rx     18EFCD1C  8  A0 00 1B 00 00 00 00 00 
   644)      2678.7  Rx     18EFCD1C  4  01 41 F1 00 
   645)      2679.3  Rx     18EF1CCD  8  A0 00 1B 00 00 00 00 00 
   646)      2679.7  Rx     18EF1CCD  4  01 F2 41 00 
   647)      2687.6  Rx     18EF1C8F  8  0D F0 00 94 77 F9 87 FC 
   648)      2688.6  Rx     18EF1C8F  8  0D F1 17 00 22 00 83 03 
   649)      2689.6  Rx     18EF1C8F  8  0D F2 14 00 09 00 0D 00 
   650)      2698.2  Rx     18EFCD1C  8  A0 00 00 00 00 00 00 00 
   651)      2698.9  Rx     18EF1CCD  8  A0 00 00 00 01 00 00 00 
   652)      2707.7  Rx     18EF1C8F  8  0D 00 00 B4 C5 F9 87 FC 
   653)      2708.6  Rx     18EF1C8F  8  0D 01 18 00 23 00 82 03 
   654)      2709.6  Rx     18EF1C8F  8  0D 02 16 00 0B 00 0F 00 
   655)      2724.2  Rx     18EF1CCD  8  A2 00 00 00 00 00 00 00 
   656)      2727.6  Rx     18EF1C8F  8  0D 10 00 D7 13 FA 87 FC 
   657)      2728.6  Rx     18EF1C8F  8  0D 11 17 00 21 00 83 03 
   658)      2729.6  Rx     18EF1C8F  8  0D 12 14 00 09 00 0E 00 
   659)      2744.2  Rx     18EF1CCD  8  A3 00 00 00 00 FA FF FA 
   660)      2747.7  Rx     18EF1C8F  8  0D 20 00 F4 61 FA 87 FC 
   661)      2748.6  Rx     18EF1C8F  8  0D 21 16 00 21 00 84 03 
   662)      2749.6  Rx     18EF1C8F  8  0D 22 16 00 09 00 0E 00 
   663)      2764.3  Rx     18EF1CCD  8  A1 40 FA FF FF FF 00 00 
   664)      2767.6  Rx     18EF1C8F  8  0D 30 00 14 B0 FA 87 FC 
   665)      2768.6  Rx     18EF1C8F  8  0D 31 17 00 24 00 82 03 
   666)      2769.5  Rx     18EF1C8F  8  0D 32 16 00 0C 00 0D 00 
   667)      2787.7  Rx     18EF1C8F  8  0D 40 00 34 FE FA 87 FC 
   668)      2788.5  Rx     18EF1C8F  8  0D 41 17 00 24 00 84 03 
   669)      2789.6  Rx     18EF1C8F  8  0D 42 16 00 0A 00 0E 00 
   670)      2807.6  Rx     18EF1C8F  8  0D 50 00 54 4C FB 87 FC 
   671)      2808.6  Rx     18EF1C8F  8  0D 51 15 00 22 00 85 03 
   672)      2809.6  Rx     18EF1C8F  8  0D 52 13 00 0B 00 0C 00 
   673)      2818.3  Rx     18EFCD1C  8  A1 01 00 00 FA FF FF FF 
   674)      2824.5  Rx     18EF1CCD  8  A2 00 00 00 00 00 00 00 
   675)      2827.6  Rx     18EF1C8F  8  0D 60 00 74 9A FB 87 FC 
   676)      2828.6  Rx     18EF1C8F  8  0D 61 17 00 21 00 83 03 
   677)      2829.6  Rx     18EF1C8F  8  0D 62 14 00 09 00 0B 00 
   678)      2838.3  Rx     18EFCD1C  8  A0 00 14 00 00 00 00 00 
   679)      2838.8  Rx     18EF1CCD  8  A0 00 14 00 79 07 00 00 
   680)      2844.5  Rx     18EF1CCD  8  A3 00 00 00 00 FA FF FA 
   681)      2847.7  Rx     18EF1C8F  8  0D 70 00 97 E8 FB 87 FC 
   682)      2848.6  Rx     18EF1C8F  8  0D 71 16 00 24 00 82 03 
   683)      2849.5  Rx     18EF1C8F  8  0D 72 13 00 0B 00 0D 00 
   684)      2858.3  Rx     18EFCD1C  8  A0 00 2A 00 00 00 00 00 
   685)      2858.9  Rx     18EF1CCD  8  A0 00 2A 00 75 05 00 00 
   686)      2864.5  Rx     18EF1CCD  8  A1 40 FA FF FF FF 00 00 
   687)      2867.6  Rx     18EF1C8F  8  0D 80 00 B4 36 FC 87 FC 
   688)      2868.6  Rx     18EF1C8F  8  0D 81 18 00 22 00 85 03 
   689)      2869.6  Rx     18EF1C8F  8  0D 82 15 00 0B 00 11 00 
   690)      2878.2  Rx     18EFCD1C  8  A0 00 1B 00 00 00 00 00 
   691)      2878.9  Rx     18EF1CCD  8  A0 00 1B 00 00 00 00 00 
   692)      2887.7  Rx     18EF1C8F  8  0D 90 00 D7 84 FC 87 FC 
   693)      2888.6  Rx     18EF1C8F  8  0D 91 16 00 20 00 84 03 
   694)      2889.6  Rx     18EF1C8F  8  0D 92 14 00 0B 00 12 00 
   695)      2898.3  Rx     18EFCD1C  8  A0 00 00 00 00 00 00 00 
   696)      2898.9  Rx     18EF1CCD  8  A0 00 00 00 01 00 00 00 
   697)      2907.6  Rx     18EF1C8F  8  0D A0 00 F4 D2 FC 87 FC 
   698)      2908.6  Rx     18EF1C8F  8  0D A1 16 00 23 00 84 03 
   699)      2909.6  Rx     18EF1C8F  8  0D A2 15 00 09 00 10 00 
   700)      2924.6  Rx     18EF1CCD  8  A2 00 00 00 00 00 00 00 
   701)      2927.7  Rx     18EF1C8F  8  0D B0 00 14 21 FD 87 FC 
   702)      2928.6  Rx     18EF1C8F  8  0D B1 16 00 22 00 84 03 
   703)      2929.6  Rx     18EF1C8F  8  0D B2 15 00 0B 00 0E 00 
   704)      2944.7  Rx     18EF1CCD  8  A3 00 00 00 00 FA FF FA 
   705)      2947.6  Rx     18EF1C8F  8  0D C0 00 37 6F FD 86 FC 
   706)      2948.6  Rx     18EF1C8F  8  0D C1 17 00 22 00 83 03 
   707)      2949.6  Rx     18EF1C8F  8  0D C2 16 00 0D 00 0D 00 
   708)      2964.7  Rx     18EF1CCD  8  A1 40 FA FF FF FF 00 00 
   709)      2967.7  Rx     18EF1C8F  8  0D D0 00 54 BD FD 87 FC 
   710)      2968.5  Rx     18EF1C8F  8  0D D1 16 00 22 00 83 03 
   711)      2969.6  Rx     18EF1C8F  8  0D D2 15 00 0A 00 0D 00 
   712)      2987.6  Rx     18EF1C8F  8  0D E0 00 74 0B FE 87 FC 
   713)      2988.6  Rx     18EF1C8F  8  0D E1 16 00 23 00 82 03 
   714)      2989.5  Rx     18EF1C8F  8  0D E2 14 00 0A 00 0D 00 
   715)      3007.6  Rx     18EF1C8F  8  0D F0 00 94 59 FE 87 FC 
   716)      3008.5  Rx     18EF1C8F  8  0D F1 15 00 23 00 84 03 
   717)      3009.5  Rx     18EF1C8F  8  0D F2 14 00 0A 00 10 00 
   718)      3018.3  Rx     18EFCD1C  8  A1 01 00 00 FA FF FF FF 
   719)      3024.8  Rx     18EF1CCD  8  A2 00 00 00 00 00 00 00 
   720)      3027.6  Rx     18EF1C8F  8  0D 00 00 B4 A7 FE 87 FC 
   721)      3028.5  Rx     18EF1C8F  8  0D 01 17 00 22 00 84 03 
   722)      3029.5  Rx     18EF1C8F  8  0D 02 15 00 09 00 0F 00 
   723)      3038.2  Rx     18EFCD1C  8  A0 00 14 00 00 00 00 00 
   724)      3038.9  Rx     18EF1CCD  8  A0 00 14 00 79 07 00 00 
   725)      3044.9  Rx     18EF1CCD  8  A3 00 00 00 00 FA FF FA 
   726)      3047.6  Rx     18EF1C8F  8  0D 10 00 D7 F5 FE 87 FC 
   727)      3048.5  Rx     18EF1C8F  8  0D 11 16 00 22 00 81 03 
   728)      3049.5  Rx     18EF1C8F  8  0D 12 12 00 0B 00 0F 00 
   729)      3058.3  Rx     18EFCD1C  8  A0 00 2A 00 00 00 00 00 
   730)      3058.9  Rx     18EF1CCD  8  A0 00 2A 00 76 05 00 00 
   731)      3064.9  Rx     18EF1CCD  8  A1 40 FA FF FF FF 00 00 
   732)      3067.6  Rx     18EF1C8F  8  0D 20 00 F4 43 FF 87 FC 
   733)      3068.5  Rx     18EF1C8F  8  0D 21 17 00 23 00 85 03 
   734)      3069.5  Rx     18EF1C8F  8  0D 22 15 00 0C 00 0E 00 
   735)      3078.2  Rx     18EFCD1C  8  A0 00 1B 00 00 00 00 00 
   736)      3078.9  Rx     18EF1CCD  8  A0 00 1B 00 00 00 00 00 
   737)      3087.6  Rx     18EF1C8F  8  0D 30 00 17 92 FF 87 FC 
   738)      3088.5  Rx     18EF1C8F  8  0D 31 16 00 22 00 82 03 
   739)      3089.5  Rx     18EF1C8F  8  0D 32 12 00 0A 00 0F 00 
   740)      3098.2  Rx     18EFCD1C  8  A0 00 00 00 00 00 00 00 
   741)      3098.8  Rx     18EF1CCD  8  A0 00 00 00 01 00 00 00 
   742)      3107.6  Rx     18EF1C8F  8  0D 40 00 34 E0 FF 87 FC 
   743)      3108.5  Rx     18EF1C8F  8  0D 41 16 00 22 00 84 03 
   744)      3109.5  Rx     18EF1C8F  8  0D 42 13 00 0B 00 0E 00 
   745)      3125.0  Rx     18EF1CCD  8  A2 00 00 00 00 00 00 00 
   746)      3127.6  Rx     18EF1C8F  8  0D 50 00 54 2E 00 87 FC 
   747)      3128.5  Rx     18EF1C8F  8  0D 51 17 00 22 00 83 03 
   748)      3129.5  Rx     18EF1C8F  8  0D 52 14 00 0C 00 0F 00 
   749)      3145.1  Rx     18EF1CCD  8  A3 00 00 00 00 FA FF FA 
   750)      3147.6  Rx     18EF1C8F  8  0D 60 00 74 7C 00 87 FC 
   751)      3148.5  Rx     18EF1C8F  8  0D 61 14 00 20 00 83 03 
   752)      3149.5  Rx     18EF1C8F  8  0D 62 14 00 0A 00 10 00 
   753)      3165.1  Rx     18EF1CCD  8  A1 40 FA FF FF FF 00 00 
   754)      3167.5  Rx     18EF1C8F  8  0D 70 00 94 CA 00 87 FC 
   755)      3168.5  Rx     18EF1C8F  8  0D 71 15 00 21 00 83 03 
   756)      3169.5  Rx     18EF1C8F  8  0D 72 14 00 0B 00 10 00 
   757)      3181.7  Rx     18EF8F1C  4  01 86 DF 00 
   758)      3182.5  Rx     18EF1C8F  4  01 E0 86 00 
   759)      3187.6  Rx     18EF1C8F  8  0D 80 00 B4 18 01 87 FC 
   760)      3188.5  Rx     18EF1C8F  8  0D 81 15 00 21 00 82 03 
   761)      3189.5  Rx     18EF1C8F  8  0D 82 15 00 09 00 0E 00 
   762)      3207.5  Rx     18EF1C8F  8  0D 90 00 D4 66 01 87 FC 
   763)      3208.5  Rx     18EF1C8F  8  0D 91 16 00 21 00 83 03 
   764)      3209.5  Rx     18EF1C8F  8  0D 92 14 00 08 00 0C 00 
   765)      3218.4  Rx     18EFCD1C  8  A1 01 00 00 FA FF FF FF 
   766)      3225.2  Rx     18EF1CCD  8  A2 00 00 00 00 00 00 00 
   767)      3227.6  Rx     18EF1C8F  8  0D A0 00 F7 B4 01 87 FC 
   768)      3228.5  Rx     18EF1C8F  8  0D A1 17 00 23 00 83 03 
   769)      3229.5  Rx     18EF1C8F  8  0D A2 14 00 0B 00 0E 00 
   770)      3238.1  Rx     18EFCD1C  8  A0 00 14 00 00 00 00 00 
   771)      3238.8  Rx     18EF1CCD  8  A0 00 14 00 7A 07 00 00 
   772)      3245.2  Rx     18EF1CCD  8  A3 00 00 00 00 FA FF FA 
   773)      3247.6  Rx     18EF1C8F  8  0D B0 00 14 03 02 87 FC 
   774)      3248.5  Rx     18EF1C8F  8  0D B1 14 00 22 00 82 03 
   775)      3249.5  Rx     18EF1C8F  8  0D B2 14 00 0A 00 0D 00 
   776)      3258.2  Rx     18EFCD1C  8  A0 00 2A 00 00 00 00 00 
   777)      3258.8  Rx     18EF1CCD  8  A0 00 2A 00 75 05 00 00 
   778)      3265.3  Rx     18EF1CCD  8  A1 40 FA FF FF FF 00 00 
   779)      3267.6  Rx     18EF1C8F  8  0D C0 00 37 51 02 87 FC 
   780)      3268.5  Rx     18EF1C8F  8  0D C1 16 00 23 00 84 03 
   781)      3269.5  Rx     18EF1C8F  8  0D C2 16 00 09 00 0D 00 
   782)      3278.2  Rx     18EFCD1C  8  A0 00 1B 00 00 00 00 00 
   783)      3278.8  Rx     18EF1CCD  8  A0 00 1B 00 00 00 00 00 
   784)      3287.6  Rx     18EF1C8F  8  0D D0 00 54 9F 02 87 FC 
   785)      3288.5  Rx     18EF1C8F  8  0D D1 16 00 22 00 83 03 
   786)      3289.5  Rx     18EF1C8F  8  0D D2 13 00 09 00 0D 00 
   787)      3298.1  Rx     18EFCD1C  8  A0 00 00 00 00 00 00 00 
   788)      3298.8  Rx     18EF1CCD  8  A0 00 00 00 01 00 00 00 
   789)      3307.6  Rx     18EF1C8F  8  0D E0 00 74 ED 02 87 FC 
   790)      3308.4  Rx     18EF1C8F  8  0D E1 16 00 22 00 84 03 
   791)      3309.5  Rx     18EF1C8F  8  0D E2 14 00 0A 00 0F 00 
   792)      3325.4  Rx     18EF1CCD  8  A2 00 00 00 00 00 00 00 
   793)      3327.6  Rx     18EF1C8F  8  0D F0 00 97 3B 03 87 FC 
   794)      3328.5  Rx     18EF1C8F  8  0D F1 16 00 22 00 84 03 
   795)      3329.5  Rx     18EF1C8F  8  0D F2 14 00 07 00 0E 00 
   796)      3345.5  Rx     18EF1CCD  8  A3 00 00 00 00 FA FF FA 
   797)      3347.5  Rx     18EF1C8F  8  0D 00 00 B4 89 03 87 FC 
   798)      3348.5  Rx     18EF1C8F  8  0D 01 15 00 22 00 83 03 
   799)      3349.5  Rx     18EF1C8F  8  0D 02 14 00 0A 00 0C 00 
   800)      3365.5  Rx     18EF1CCD  8  A1 40 FA FF FF FF 00 00 
   801)      3367.6  Rx     18EF1C8F  8  0D 10 00 D4 D7 03 87 FC 
   802)      3368.5  Rx     18EF1C8F  8  0D 11 15 00 22 00 84 03 
   803)      3369.5  Rx     18EF1C8F  8  0D 12 14 00 0A 00 0E 00 
   804)      3387.5  Rx     18EF1C8F  8  0D 20 00 F4 25 04 87 FC 
   805)      3388.5  Rx     18EF1C8F  8  0D 21 16 00 21 00 83 03 
   806)      3389.5  Rx     18EF1C8F  8  0D 22 15 00 0A 00 0E 00 
   807)      3407.6  Rx     18EF1C8F  8  0D 30 00 14 74 04 87 FC 
   808)      3408.5  Rx     18EF1C8F  8  0D 31 16 00 23 00 83 03 
   809)      3409.5  Rx     18EF1C8F  8  0D 32 14 00 0B 00 0D 00 
   810)      3418.4  Rx     18EFCD1C  8  A1 01 00 00 FA FF FF FF 
   811)      3425.6  Rx     18EF1CCD  8  A2 00 00 00 00 00 00 00 
   812)      3427.5  Rx     18EF1C8F  8  0D 40 00 37 C2 04 87 FC 
   813)      3428.5  Rx     18EF1C8F  8  0D 41 16 00 23 00 84 03 
   814)      3429.5  Rx     18EF1C8F  8  0D 42 17 00 0B 00 0F 00 
   815)      3438.1  Rx     18EFCD1C  8  A0 00 14 00 00 00 00 00 
   816)      3438.8  Rx     18EF1CCD  8  A0 00 14 00 79 07 00 00 
   817)      3445.7  Rx     18EF1CCD  8  A3 00 00 00 00 FA FF FA 
   818)      3447.6  Rx     18EF1C8F  8  0D 50 00 54 10 05 87 FC 
   819)      3448.5  Rx     18EF1C8F  8  0D 51 16 00 21 00 84 03 
   820)      3449.5  Rx     18EF1C8F  8  0D 52 15 00 0A 00 0D 00 
   821)      3458.2  Rx     18EFCD1C  8  A0 00 2A 00 00 00 00 00 
   822)      3458.8  Rx     18EF1CCD  8  A0 00 2A 00 76 05 00 00 
   823)      3465.7  Rx     18EF1CCD  8  A1 40 FA FF FF FF 00 00 
   824)      3467.5  Rx     18EF1C8F  8  0D 60 00 77 5E 05 87 FC 
   825)      3468.5  Rx     18EF1C8F  8  0D 61 16 00 21 00 84 03 
   826)      3469.5  Rx     18EF1C8F  8  0D 62 14 00 07 00 0C 00 
   827)      3478.1  Rx     18EFCD1C  8  A0 00 1B 00 00 00 00 00 
   828)      3478.8  Rx     18EF1CCD  8  A0 00 1B 00 00 00 00 00 
   829)      3487.6  Rx     18EF1C8F  8  0D 70 00 94 AC 05 87 FC 
   830)      3488.5  Rx     18EF1C8F  8  0D 71 17 00 22 00 83 03 
   831)      3489.5  Rx     18EF1C8F  8  0D 72 14 00 07 00 0E 00 
   832)      3498.2  Rx     18EFCD1C  8  A0 00 00 00 00 00 00 00 
   833)      3498.8  Rx     18EF1CCD  8  A0 00 00 00 01 00 00 00 
   834)      3507.5  Rx     18EF1C8F  8  0D 80 00 B4 FA 05 87 FC 
   835)      3508.5  Rx     18EF1C8F  8  0D 81 17 00 21 00 83 03 
   836)      3509.4  Rx     18EF1C8F  8  0D 82 15 00 0B 00 0D 00 
   837)      3525.8  Rx     18EF1CCD  8  A2 00 00 00 00 00 00 00 
   838)      3527.6  Rx     18EF1C8F  8  0D 90 00 D4 48 06 87 FC 
   839)      3528.4  Rx     18EF1C8F  8  0D 91 16 00 22 00 84 03 
   840)      3529.5  Rx     18EF1C8F  8  0D 92 15 00 0D 00 0D 00 
   841)      3545.9  Rx     18EF1CCD  8  A3 00 00 00 00 FA FF FA 
   842)      3547.5  Rx     18EF1C8F  8  0D A0 00 F4 96 06 87 FC 
   843)      3548.5  Rx     18EF1C8F  8  0D A1 18 00 22 00 82 03 
   844)      3549.4  Rx     18EF1C8F  8  0D A2 14 00 0B 00 0F 00 
   845)      3559.7  Rx     18FEF31C  8  5E 29 80 99 AC CE 2C 89 
   846)      3560.3  Rx     18FEE81C  8  97 4F 00 00 00 00 10 52 
   847)      3560.8  Rx     18FEE61C  8  B4 0C 0E 09 57 29 00 00 
   848)      3561.4  Rx     19F0101C  8  A7 00 EE 50 93 29 7F 1E 
   849)      3561.9  Rx     19F8021C  8  A7 FC 86 6C 00 00 FF FF 
   850)      3565.9  Rx     18EF1CCD  8  A1 40 FA FF FF FF 00 00 
   851)      3567.5  Rx     18EF1C8F  8  0D B0 00 17 E5 06 87 FC 
   852)      3568.4  Rx     18EF1C8F  8  0D B1 17 00 21 00 84 03 
   853)      3569.5  Rx     18EF1C8F  8  0D B2 14 00 08 00 0F 00 
   854)      3587.6  Rx     18EF1C8F  8  0D C0 00 34 33 07 87 FC 
   855)      3588.5  Rx     18EF1C8F  8  0D C1 17 00 21 00 82 03 
   856)      3589.4  Rx     18EF1C8F  8  0D C2 14 00 09 00 0D 00 
   857)      3606.0  Rx     19F8051C  8  00 2F A7 EE 50 93 29 7F 
   858)      3606.6  Rx     19F8051C  8  01 1E 80 CE 24 2F E1 A6 
   859)      3607.1  Rx     19F8051C  8  02 98 06 E0 65 4B B4 F3 
   860)      3607.7  Rx     18EF1C8F  8  0D D0 00 57 81 07 87 FC 
   861)      3608.2  Rx     19F8051C  8  03 91 CB 02 41 40 68 08 
   862)      3608.8  Rx     18EF1C8F  8  0D D1 16 00 21 00 84 03 
   863)      3609.4  Rx     19F8051C  8  04 00 00 00 00 20 00 0A 
   864)      3609.9  Rx     18EF1C8F  8  0D D2 14 00 0A 00 0F 00 
   865)      3610.5  Rx     19F8051C  8  05 64 00 64 00 DC 05 00 
   866)      3611.1  Rx     19F8051C  8  06 00 01 0F 00 00 00 FF 
   867)      3618.2  Rx     18EFCD1C  8  A1 01 00 00 FA FF FF FF 
   868)      3626.1  Rx     18EF1CCD  8  A2 00 00 00 00 00 00 00 
   869)      3627.6  Rx     18EF1C8F  8  0D E0 00 74 CF 07 87 FC 
   870)      3628.5  Rx     18EF1C8F  8  0D E1 16 00 22 00 84 03 
   871)      3629.4  Rx     18EF1C8F  8  0D E2 15 00 0C 00 0E 00 
   872)      3638.1  Rx     18EFCD1C  8  A0 00 14 00 00 00 00 00 
   873)      3638.7  Rx     18EF1CCD  8  A0 00 14 00 7A 07 00 00 
   874)      3646.1  Rx     18EF1CCD  8  A3 00 00 00 00 FA FF FA 
   875)      3647.5  Rx     18EF1C8F  8  0D F0 00 97 1D 08 87 FC 
   876)      3648.5  Rx     18EF1C8F  8  0D F1 16 00 22 00 83 03 
   877)      3649.5  Rx     18EF1C8F  8  0D F2 16 00 0A 00 0F 00 
   878)      3658.2  Rx     18EFCD1C  8  A0 00 2A 00 00 00 00 00 
   879)      3658.8  Rx     18EF1CCD  8  A0 00 2A 00 75 05 00 00 
   880)      3666.2  Rx     18EF1CCD  8  A1 40 FA FF FF FF 00 00 
   881)      3667.6  Rx     18EF1C8F  8  0D 00 00 B4 6B 08 87 FC 
   882)      3668.5  Rx     18EF1C8F  8  0D 01 15 00 23 00 83 03 
   883)      3669.5  Rx     18EF1C8F  8  0D 02 16 00 0B 00 0E 00 
   884)      3678.1  Rx     18EFCD1C  8  A0 00 1B 00 00 00 00 00 
   885)      3678.8  Rx     18EF1CCD  8  A0 00 1B 00 00 00 00 00 
   886)      3687.5  Rx     18EF1C8F  8  0D 10 00 D4 B9 08 87 FC 
   887)      3688.5  Rx     18EF1C8F  8  0D 11 16 00 23 00 83 03 
   888)      3689.5  Rx     18EF1C8F  8  0D 12 14 00 0B 00 0E 00 
   889)      3698.1  Rx     18EFCD1C  8  A0 00 00 00 00 00 00 00 
   890)      3698.7  Rx     18EF1CCD  8  A0 00 00 00 01 00 00 00 
   891)      3707.6  Rx     18EF1C8F  8  0D 20 00 F7 07 09 87 FC 
   892)      3708.4  Rx     18EF1C8F  8  0D 21 16 00 21 00 82 03 
   893)      3709.5  Rx     18EF1C8F  8  0D 22 13 00 09 00 0E 00 
   894)      3726.3  Rx     18EF1CCD  8  A2 00 00 00 00 00 00 00 
   895)      3727.6  Rx     18EF1C8F  8  0D 30 00 14 56 09 87 FC 
   896)      3728.5  Rx     18EF1C8F  8  0D 31 15 00 22 00 82 03 
   897)      3729.4  Rx     18EF1C8F  8  0D 32 15 00 07 00 0D 00 
   898)      3746.4  Rx     18EF1CCD  8  A3 00 00 00 00 FA FF FA 
   899)      3747.6  Rx     18EF1C8F  8  0D 40 00 34 A4 09 87 FC 
   900)      3748.4  Rx     18EF1C8F  8  0D 41 17 00 22 00 82 03 
   901)      3749.5  Rx     18EF1C8F  8  0D 42 16 00 0A 00 0D 00 
   902)      3766.3  Rx     18EF1CCD  8  A1 40 FA FF FF FF 00 00 
   903)      3767.6  Rx     18EF1C8F  8  0D 50 00 54 F2 09 87 FC 
   904)      3768.5  Rx     18EF1C8F  8  0D 51 15 00 21 00 83 03 
   905)      3769.4  Rx     18EF1C8F  8  0D 52 15 00 0D 00 10 00 
   906)      3787.5  Rx     18EF1C8F  8  0D 60 00 74 40 0A 87 FC 
   907)      3788.4  Rx     18EF1C8F  8  0D 61 15 00 22 00 83 03 
   908)      3789.5  Rx     18EF1C8F  8  0D 62 13 00 0A 00 0E 00 
   909)      3807.6  Rx     18EF1C8F  8  0D 70 00 94 8E 0A 87 FC 
   910)      3808.5  Rx     18EF1C8F  8  0D 71 15 00 23 00 82 03 
   911)      3809.5  Rx     18EF1C8F  8  0D 72 14 00 0A 00 0A 00 
   912)      3818.2  Rx     18EFCD1C  8  A1 01 00 00 FA FF FF FF 
   913)      3826.5  Rx     18EF1CCD  8  A2 00 00 00 00 00 00 00 
   914)      3827.6  Rx     18EF1C8F  8  0D 80 00 B7 DC 0A 87 FC 
   915)      3828.5  Rx     18EF1C8F  8  0D 81 15 00 23 00 82 03 
   916)      3829.5  Rx     18EF1C8F  8  0D 82 14 00 09 00 0E 00 
   917)      3838.1  Rx     18EFCD1C  8  A0 00 14 00 00 00 00 00 
   918)      3838.7  Rx     18EF1CCD  8  A0 00 14 00 7A 07 00 00 
   919)      3846.5  Rx     18EF1CCD  8  A3 00 00 00 00 FA FF FA 
   920)      3847.6  Rx     18EF1C8F  8  0D 90 00 D4 2A 0B 87 FC 
   921)      3848.5  Rx     18EF1C8F  8  0D 91 15 00 25 00 82 03 
   922)      3849.5  Rx     18EF1C8F  8  0D 92 14 00 0A 00 10 00 
   923)      3858.2  Rx     18EFCD1C  8  A0 00 2A 00 00 00 00 00 
   924)      3858.8  Rx     18EF1CCD  8  A0 00 2A 00 75 05 00 00 
   925)      3866.6  Rx     18EF1CCD  8  A1 40 FA FF FF FF 00 00 
   926)      3867.5  Rx     18EF1C8F  8  0D A0 00 F7 78 0B 87 FC 
   927)      3868.5  Rx     18EF1C8F  8  0D A1 15 00 22 00 84 03 
   928)      3869.5  Rx     18EF1C8F  8  0D A2 14 00 0A 00 0D 00 
   929)      3878.1  Rx     18EFCD1C  8  A0 00 1B 00 00 00 00 00 
   930)      3878.8  Rx     18EF1CCD  8  A0 00 1B 00 00 00 00 00 
   931)      3887.6  Rx     18EF1C8F  8  0D B0 00 14 C7 0B 87 FC 
   932)      3888.5  Rx     18EF1C8F  8  0D B1 18 00 23 00 81 03 
   933)      3889.5  Rx     18EF1C8F  8  0D B2 16 00 09 00 0D 00 
   934)      3898.1  Rx     18EFCD1C  8  A0 00 00 00 00 00 00 00 
   935)      3898.7  Rx     18EF1CCD  8  A0 00 00 00 01 00 00 00 
   936)      3907.5  Rx     18EF1C8F  8  0D C0 00 37 15 0C 86 FC 
   937)      3908.5  Rx     18EF1C8F  8  0D C1 16 00 22 00 83 03 
   938)      3909.4  Rx     18EF1C8F  8  0D C2 15 00 0B 00 0E 00 
   939)      3926.7  Rx     18EF1CCD  8  A2 00 00 00 00 00 00 00 
   940)      3927.6  Rx     18EF1C8F  8  0D D0 00 54 63 0C 87 FC 
   941)      3928.4  Rx     18EF1C8F  8  0D D1 17 00 23 00 83 03 
   942)      3929.5  Rx     18EF1C8F  8  0D D2 15 00 0B 00 11 00 
   943)      3946.8  Rx     18EF1CCD  8  A3 00 00 00 00 FA FF FA 
   944)      3947.6  Rx     18EF1C8F  8  0D E0 00 74 B1 0C 87 FC 
   945)      3948.5  Rx     18EF1C8F  8  0D E1 15 00 22 00 82 03 
   946)      3949.4  Rx     18EF1C8F  8  0D E2 15 00 0B 00 0E 00 
   947)      3966.8  Rx     18EF1CCD  8  A1 40 FA FF FF FF 00 00 
   948)      3967.6  Rx     18EF1C8F  8  0D F0 00 97 FF 0C 86 FC 
   949)      3968.4  Rx     18EF1C8F  8  0D F1 14 00 22 00 82 03 
   950)      3969.5  Rx     18EF1C8F  8  0D F2 15 00 09 00 0D 00 
   951)      3987.6  Rx     18EF1C8F  8  0D 00 00 B4 4D 0D 87 FC 
   952)      3988.5  Rx     18EF1C8F  8  0D 01 16 00 21 00 83 03 
   953)      3989.5  Rx     18EF1C8F  8  0D 02 14 00 09 00 0C 00 
   954)      4007.5  Rx     18EF1C8F  8  0D 10 00 D4 9B 0D 87 FC 
   955)      4008.4  Rx     18EF1C8F  8  0D 11 17 00 22 00 84 03 
   956)      4009.5  Rx     18EF1C8F  8  0D 12 13 00 0A 00 0E 00 
   957)      4018.2  Rx     18EFCD1C  8  A1 01 00 00 FA FF FF FF 
   958)      4027.0  Rx     18EF1CCD  8  A2 00 00 00 00 00 00 00 
   959)      4027.6  Rx     18EF1C8F  8  0D 20 00 F4 E9 0D 87 FC 
   960)      4028.5  Rx     18EF1C8F  8  0D 21 16 00 22 00 84 03 
   961)      4029.5  Rx     18EF1C8F  8  0D 22 11 00 0A 00 0C 00 
   962)      4038.1  Rx     18EFCD1C  8  A0 00 14 00 00 00 00 00 
   963)      4038.7  Rx     18EF1CCD  8  A0 00 14 00 7A 07 00 00 
   964)      4047.0  Rx     18EF1CCD  8  A3 00 00 00 00 FA FF FA 
   965)      4047.6  Rx     18EF1C8F  8  0D 30 00 14 38 0E 87 FC 
   966)      4048.5  Rx     18EF1C8F  8  0D 31 16 00 21 00 84 03 
   967)      4049.5  Rx     18EF1C8F  8  0D 32 10 00 09 00 0F 00 
   968)      4058.1  Rx     18EFCD1C  8  A0 00 2A 00 00 00 00 00 
   969)      4058.8  Rx     18EF1CCD  8  A0 00 2A 00 75 05 00 00 
   970)      4067.0  Rx     18EF1CCD  8  A1 40 FA FF FF FF 00 00 
   971)      4067.6  Rx     18EF1C8F  8  0D 40 00 37 86 0E 87 FC 
   972)      4068.5  Rx     18EF1C8F  8  0D 41 17 00 22 00 84 03 
   973)      4069.5  Rx     18EF1C8F  8  0D 42 14 00 0B 00 0F 00 
   974)      4078.1  Rx     18EFCD1C  8  A0 00 1B 00 00 00 00 00 
   975)      4078.8  Rx     18EF1CCD  8  A0 00 1B 00 00 00 00 00 
   976)      4087.5  Rx     18EF1C8F  8  0D 50 00 54 D4 0E 87 FC 
   977)      4088.5  Rx     18EF1C8F  8  0D 51 18 00 20 00 85 03 
   978)      4089.5  Rx     18EF1C8F  8  0D 52 19 00 0B 00 0E 00 
   979)      4098.1  Rx     18EFCD1C  8  A0 00 00 00 00 00 00 00 
   980)      4098.7  Rx     18EF1CCD  8  A0 00 00 00 01 00 00 00 
   981)      4107.6  Rx     18EF1C8F  8  0D 60 00 74 22 0F 87 FC 
   982)      4108.4  Rx     18EF1C8F  8  0D 61 17 00 23 00 82 03 
   983)      4109.5  Rx     18EF1C8F  8  0D 62 16 00 0A 00 0E 00 
   984)      4127.1  Rx     18EF1CCD  8  A2 00 00 00 00 00 00 00 
   985)      4127.7  Rx     18EF1C8F  8  0D 70 00 94 70 0F 87 FC 
   986)      4128.5  Rx     18EF1C8F  8  0D 71 18 00 22 00 84 03 
   987)      4129.5  Rx     18EF1C8F  8  0D 72 15 00 09 00 0E 00 
   988)      4147.2  Rx     18EF1CCD  8  A3 00 00 00 00 FA FF FA 
   989)      4147.8  Rx     18EF1C8F  8  0D 80 00 B4 BE 0F 87 FC 
   990)      4148.4  Rx     18EF1C8F  8  0D 81 17 00 23 00 84 03 
   991)      4149.5  Rx     18EF1C8F  8  0D 82 14 00 0A 00 0F 00 
   992)      4167.3  Rx     18EF1CCD  8  A1 40 FA FF FF FF 00 00 
   993)      4167.8  Rx     18EF1C8F  8  0D 90 00 D7 0C 10 87 FC 
   994)      4168.5  Rx     18EF1C8F  8  0D 91 16 00 22 00 84 03 
   995)      4169.5  Rx     18EF1C8F  8  0D 92 15 00 08 00 0D 00 
   996)      4187.5  Rx     18EF1C8F  8  0D A0 00 F4 5A 10 87 FC 
   997)      4188.5  Rx     18EF1C8F  8  0D A1 17 00 24 00 83 03 
   998)      4189.5  Rx     18EF1C8F  8  0D A2 14 00 09 00 0F 00 
   999)      4207.6  Rx     18EF1C8F  8  0D B0 00 14 A9 10 87 FC 
  1000)      4208.5  Rx     18EF1C8F  8  0D B1 16 00 22 00 82 03 
  1001)      4209.5  Rx     18EF1C8F  8  0D B2 15 00 0D 00 0E 00 
  1002)      4218.4  Rx     18EFCD1C  8  A1 01 00 00 FA FF FF FF 
  1003)      4227.4  Rx     18EF1CCD  8  A2 00 00 00 00 00 00 00 
  1004)      4228.0  Rx     18EF1C8F  8  0D C0 00 34 F7 10 87 FC 
  1005)      4228.5  Rx     18EF1C8F  8  0D C1 15 00 21 00 83 03 
  1006)      4229.5  Rx     18EF1C8F  8  0D C2 14 00 0B 00 0F 00 
  1007)      4238.1  Rx     18EFCD1C  8  A0 00 14 00 00 00 00 00 
  1008)      4238.8  Rx     18EF1CCD  8  A0 00 14 00 79 07 00 00 
  1009)      4247.4  Rx     18EF1CCD  8  A3 00 00 00 00 FA FF FA 
  1010)      4248.0  Rx     18EF1C8F  8  0D D0 00 57 45 11 87 FC 
  1011)      4248.5  Rx     18EF1C8F  8  0D D1 16 00 22 00 83 03 
  1012)      4249.5  Rx     18EF1C8F  8  0D D2 16 00 08 00 0D 00 
  1013)      4258.2  Rx     18EFCD1C  8  A0 00 2A 00 00 00 00 00 
  1014)      4258.8  Rx     18EF1CCD  8  A0 00 2A 00 76 05 00 00 
  1015)      4267.5  Rx     18EF1CCD  8  A1 40 FA FF FF FF 00 00 
  1016)      4268.0  Rx     18EF1C8F  8  0D E0 00 74 93 11 87 FC 
  1017)      4268.6  Rx     18EF1C8F  8  0D E1 17 00 20 00 82 03 
  1018)      4269.5  Rx     18EF1C8F  8  0D E2 15 00 0A 00 0F 00 
  1019)      4278.1  Rx     18EFCD1C  8  A0 00 1B 00 00 00 00 00 
  1020)      4278.8  Rx     18EF1CCD  8  A0 00 1B 00 00 00 00 00 
  1021)      4287.6  Rx     18EF1C8F  8  0D F0 00 97 E1 11 87 FC 
  1022)      4288.5  Rx     18EF1C8F  8  0D F1 15 00 23 00 85 03 
  1023)      4289.5  Rx     18EF1C8F  8  0D F2 14 00 0C 00 0E 00 
  1024)      4298.2  Rx     18EFCD1C  8  A0 00 00 00 00 00 00 00 
  1025)      4298.8  Rx     18EF1CCD  8  A0 00 00 00 01 00 00 00 
  1026)      4307.6  Rx     18EF1C8F  8  0D 00 00 B4 2F 12 87 FC 
  1027)      4308.5  Rx     18EF1C8F  8  0D 01 17 00 22 00 83 03 
  1028)      4309.5  Rx     18EF1C8F  8  0D 02 14 00 0C 00 0E 00 
  1029)      4327.6  Rx     18EF1C8F  8  0D 10 00 D4 7D 12 87 FC 
  1030)      4328.1  Rx     18EF1CCD  8  A2 00 00 00 00 00 00 00 
  1031)      4328.7  Rx     18EF1C8F  8  0D 11 17 00 23 00 84 03 
  1032)      4329.5  Rx     18EF1C8F  8  0D 12 14 00 08 00 0D 00 
  1033)      4347.6  Rx     18EF1C8F  8  0D 20 00 F4 CB 12 87 FC 
  1034)      4348.1  Rx     18EF1CCD  8  A3 00 00 00 00 FA FF FA 
  1035)      4348.7  Rx     18EF1C8F  8  0D 21 18 00 23 00 82 03 
  1036)      4349.5  Rx     18EF1C8F  8  0D 22 15 00 07 00 0E 00 
  1037)      4367.6  Rx     18EF1C8F  8  0D 30 00 14 1A 13 87 FC 
  1038)      4368.1  Rx     18EF1CCD  8  A1 40 FA FF FF FF 00 00 
  1039)      4368.7  Rx     18EF1C8F  8  0D 31 16 00 22 00 83 03 
  1040)      4369.5  Rx     18EF1C8F  8  0D 32 14 00 09 00 0F 00 
  1041)      4387.6  Rx     18EF1C8F  8  0D 40 00 34 68 13 87 FC 
  1042)      4388.5  Rx     18EF1C8F  8  0D 41 15 00 24 00 82 03 
  1043)      4389.5  Rx     18EF1C8F  8  0D 42 12 00 0C 00 0E 00 
  1044)      4407.6  Rx     18EF1C8F  8  0D 50 00 54 B6 13 87 FC 
  1045)      4408.5  Rx     18EF1C8F  8  0D 51 17 00 23 00 83 03 
  1046)      4409.5  Rx     18EF1C8F  8  0D 52 14 00 0B 00 0F 00 
  1047)      4418.4  Rx     18EFCD1C  8  A1 01 00 00 FA FF FF FF 
  1048)      4427.6  Rx     18EF1C8F  8  0D 60 00 74 04 14 87 FC 
  1049)      4428.2  Rx     18EF1CCD  8  A2 00 00 00 00 00 00 00 
  1050)      4428.7  Rx     18EF1C8F  8  0D 61 16 00 22 00 83 03 
  1051)      4429.5  Rx     18EF1C8F  8  0D 62 15 00 0B 00 0E 00 
  1052)      4438.1  Rx     18EFCD1C  8  A0 00 14 00 00 00 00 00 
  1053)      4438.9  Rx     18EF1CCD  8  A0 00 14 00 79 07 00 00 
  1054)      4447.6  Rx     18EF1C8F  8  0D 70 00 97 52 14 87 FC 
  1055)      4448.1  Rx     18EF1CCD  8  A3 00 00 00 00 FA FF FA 
  1056)      4448.7  Rx     18EF1C8F  8  0D 71 16 00 20 00 82 03 
  1057)      4449.5  Rx     18EF1C8F  8  0D 72 14 00 0D 00 0E 00 
  1058)      4458.2  Rx     18EFCD1C  8  A0 00 2A 00 00 00 00 00 
  1059)      4458.9  Rx     18EF1CCD  8  A0 00 2A 00 75 05 00 00 
  1060)      4467.6  Rx     18EF1C8F  8  0D 80 00 B4 A0 14 87 FC 
  1061)      4468.2  Rx     18EF1CCD  8  A1 40 FA FF FF FF 00 00 
  1062)      4468.7  Rx     18EF1C8F  8  0D 81 16 00 22 00 84 03 
  1063)      4469.5  Rx     18EF1C8F  8  0D 82 14 00 09 00 0E 00 
  1064)      4478.2  Rx     18EFCD1C  8  A0 00 1B 00 00 00 00 00 
  1065)      4478.8  Rx     18EF1CCD  8  A0 00 1B 00 00 00 00 00 
  1066)      4487.6  Rx     18EF1C8F  8  0D 90 00 D7 EE 14 86 FC 
  1067)      4488.5  Rx     18EF1C8F  8  0D 91 15 00 23 00 83 03 
  1068)      4489.5  Rx     18EF1C8F  8  0D 92 14 00 09 00 0F 00 
  1069)      4498.1  Rx     18EFCD1C  8  A0 00 00 00 00 00 00 00 
  1070)      4498.8  Rx     18EF1CCD  8  A0 00 00 00 01 00 00 00 
  1071)      4507.6  Rx     18EF1C8F  8  0D A0 00 F4 3C 15 87 FC 
  1072)      4508.5  Rx     18EF1C8F  8  0D A1 16 00 21 00 83 03 
  1073)      4509.5  Rx     18EF1C8F  8  0D A2 14 00 0B 00 0D 00 
  1074)      4527.6  Rx     18EF1C8F  8  0D B0 00 14 8B 15 87 FC 
  1075)      4528.2  Rx     18EF1CCD  8  A2 00 00 00 00 00 00 00 
  1076)      4528.7  Rx     18EF1C8F  8  0D B1 15 00 21 00 83 03 
  1077)      4529.5  Rx     18EF1C8F  8  0D B2 13 00 0B 00 0E 00 
  1078)      4547.6  Rx     18EF1C8F  8  0D C0 00 34 D9 15 87 FC 
  1079)      4548.1  Rx     18EF1CCD  8  A3 00 00 00 00 FA FF FA 
  1080)      4548.7  Rx     18EF1C8F  8  0D C1 16 00 23 00 84 03 
  1081)      4549.5  Rx     18EF1C8F  8  0D C2 12 00 0A 00 0E 00 
  1082)      4559.5  Rx     18FEF31C  8  5E 29 80 99 AC CE 2C 89 
  1083)      4560.1  Rx     18FEE81C  8  97 4F 00 00 00 00 10 52 
  1084)      4560.6  Rx     18FEE61C  8  B8 0C 0E 09 57 29 00 00 
  1085)      4561.2  Rx     19F8021C  8  AC FC 86 6C 00 00 FF FF 
  1086)      4567.6  Rx     18EF1C8F  8  0D D0 00 54 27 16 87 FC 
  1087)      4568.2  Rx     18EF1CCD  8  A1 40 FA FF FF FF 00 00 
  1088)      4568.7  Rx     18EF1C8F  8  0D D1 17 00 22 00 83 03 
  1089)      4569.5  Rx     18EF1C8F  8  0D D2 15 00 09 00 0F 00 
  1090)      4587.6  Rx     18EF1C8F  8  0D E0 00 74 75 16 87 FC 
  1091)      4588.5  Rx     18EF1C8F  8  0D E1 17 00 23 00 82 03 
  1092)      4589.5  Rx     18EF1C8F  8  0D E2 14 00 0A 00 0F 00 
