;$FILEVERSION=1.1
;$STARTTIME=46287.676065625
;
;   Start time: 9/22/2026 16:13:32.070.0
;   Generated by PCAN-View v5.3.3.958
;
;   Message Number
;   |         Time Offset (ms)
;   |         |        Type
;   |         |        |        ID (hex)
;   |         |        |        |     Data Length
;   |         |        |        |     |   Data Bytes (hex) ...
;   |         |        |        |     |   |
;---+--   ----+----  --+--  ----+---  +  -+ -- -- -- -- -- -- --
     1)         0.5  Rx     18EF1C8F  8  0D 62 16 00 0A 00 0C 00 
     2)         7.6  Rx     18EFCD1C  8  A0 00 1B 00 00 00 00 00 
     3)         8.3  Rx     18EF1CCD  8  A0 00 1B 00 00 00 00 00 
     4)        18.6  Rx     18EF1C8F  8  0D 70 00 94 AE C9 88 FC 
     5)        19.5  Rx     18EF1C8F  8  0D 71 15 00 23 00 84 03 
     6)        20.5  Rx     18EF1C8F  8  0D 72 16 00 09 00 0E 00 
     7)        27.6  Rx     18EFCD1C  8  A0 00 00 00 00 00 00 00 
     8)        28.3  Rx     18EF1CCD  8  A0 00 00 00 01 00 00 00 
     9)        38.6  Rx     18EF1C8F  8  0D 80 00 B4 FC C9 88 FC 
    10)        39.5  Rx     18EF1C8F  8  0D 81 17 00 20 00 83 03 
    11)        40.5  Rx     18EF1C8F  8  0D 82 16 00 08 00 0D 00 
    12)        58.3  Rx     18EF1CCD  8  A2 00 00 00 00 00 00 00 
    13)        58.8  Rx     18EF1C8F  8  0D 90 00 D4 4A CA 88 FC 
    14)        59.5  Rx     18EF1C8F  8  0D 91 16 00 22 00 83 03 
    15)        60.6  Rx     18EF1C8F  8  0D 92 16 00 0A 00 0E 00 
    16)        78.3  Rx     18EF1CCD  8  A3 00 00 00 00 FA FF FA 
    17)        78.8  Rx     18EF1C8F  8  0D A0 00 F4 98 CA 88 FC 
    18)        79.5  Rx     18EF1C8F  8  0D A1 17 00 21 00 84 03 
    19)        80.5  Rx     18EF1C8F  8  0D A2 15 00 0B 00 0D 00 
    20)        98.3  Rx     18EF1CCD  8  A1 40 FA FF FF FF 00 00 
    21)        98.9  Rx     18EF1C8F  8  0D B0 00 14 E7 CA 87 FC 
    22)        99.6  Rx     18EF1C8F  8  0D B1 17 00 22 00 83 03 
    23)       100.6  Rx     18EF1C8F  8  0D B2 15 00 09 00 0D 00 
    24)       118.6  Rx     18EF1C8F  8  0D C0 00 34 35 CB 87 FC 
    25)       119.6  Rx     18EF1C8F  8  0D C1 18 00 22 00 84 03 
    26)       120.5  Rx     18EF1C8F  8  0D C2 13 00 06 00 0E 00 
    27)       138.6  Rx     18EF1C8F  8  0D D0 00 57 83 CB 88 FC 
    28)       139.5  Rx     18EF1C8F  8  0D D1 18 00 22 00 81 03 
    29)       140.6  Rx     18EF1C8F  8  0D D2 14 00 09 00 0E 00 
    30)       147.7  Rx     18EFCD1C  8  A1 01 00 00 FA FF FF FF 
    31)       158.4  Rx     18EF1CCD  8  A2 00 00 00 00 00 00 00 
    32)       159.0  Rx     18EF1C8F  8  0D E0 00 74 D1 CB 88 FC 
    33)       159.6  Rx     18EF1C8F  8  0D E1 18 00 22 00 83 03 
    34)       160.6  Rx     18EF1C8F  8  0D E2 14 00 08 00 11 00 
    35)       167.6  Rx     18EFCD1C  8  A0 00 14 00 00 00 00 00 
    36)       168.3  Rx     18EF1CCD  8  A0 00 14 00 7A 07 00 00 
    37)       178.6  Rx     18EF1CCD  8  A3 00 00 00 00 FA FF FA 
    38)       179.1  Rx     18EF1C8F  8  0D F0 00 8B 21 CC 87 FC 
    39)       179.7  Rx     18EF1C8F  8  0D F1 18 00 23 00 84 03 
    40)       180.6  Rx     18EF1C8F  8  0D F2 15 00 09 00 0E 00 
    41)       187.7  Rx     18EFCD1C  8  A0 00 2A 00 00 00 00 00 
    42)       188.3  Rx     18EF1CCD  8  A0 00 2A 00 75 05 00 00 
    43)       198.6  Rx     18EF1CCD  8  A1 40 FA FF FF FF 00 00 
    44)       199.1  Rx     18EF1C8F  8  0D 00 00 9C 71 CC 88 FC 
    45)       199.7  Rx     18EF1C8F  8  0D 01 17 00 21 00 82 03 
    46)       200.6  Rx     18EF1C8F  8  0D 02 15 00 09 00 08 00 
    47)       207.6  Rx     18EFCD1C  8  A0 00 1B 00 00 00 00 00 
    48)       208.3  Rx     18EF1CCD  8  A0 00 1B 00 00 00 00 00 
    49)       218.6  Rx     18EF1C8F  8  0D 10 00 BF BF CC 87 FC 
    50)       219.6  Rx     18EF1C8F  8  0D 11 17 00 23 00 84 03 
    51)       220.5  Rx     18EF1C8F  8  0D 12 14 00 09 00 0B 00 
    52)       227.7  Rx     18EFCD1C  8  A0 00 00 00 00 00 00 00 
    53)       228.3  Rx     18EF1CCD  8  A0 00 00 00 01 00 00 00 
    54)       238.7  Rx     18EF1C8F  8  0D 20 00 DC 0D CD 87 FC 
    55)       239.6  Rx     18EF1C8F  8  0D 21 16 00 20 00 83 03 
    56)       240.6  Rx     18EF1C8F  8  0D 22 16 00 0C 00 10 00 
    57)       258.6  Rx     18EF1C8F  8  0D 30 00 FC 5B CD 87 FC 
    58)       259.2  Rx     18EF1CCD  8  A2 00 00 00 00 00 00 00 
    59)       259.8  Rx     18EF1C8F  8  0D 31 17 00 23 00 84 03 
    60)       260.6  Rx     18EF1C8F  8  0D 32 14 00 0A 00 10 00 
    61)       278.6  Rx     18EF1C8F  8  0D 40 00 1C AA CD 88 FC 
    62)       279.2  Rx     18EF1CCD  8  A3 00 00 00 00 FA FF FA 
    63)       279.8  Rx     18EF1C8F  8  0D 41 15 00 22 00 85 03 
    64)       280.6  Rx     18EF1C8F  8  0D 42 13 00 08 00 0E 00 
    65)       298.7  Rx     18EF1C8F  8  0D 50 00 3C F8 CD 87 FC 
    66)       299.2  Rx     18EF1CCD  8  A1 40 FA FF FF FF 00 00 
    67)       299.8  Rx     18EF1C8F  8  0D 51 17 00 24 00 85 03 
    68)       300.6  Rx     18EF1C8F  8  0D 52 13 00 08 00 0C 00 
    69)       318.6  Rx     18EF1C8F  8  0D 60 00 5C 46 CE 87 FC 
    70)       319.6  Rx     18EF1C8F  8  0D 61 17 00 24 00 83 03 
    71)       320.6  Rx     18EF1C8F  8  0D 62 15 00 0A 00 0D 00 
    72)       338.7  Rx     18EF1C8F  8  0D 70 00 7C 94 CE 87 FC 
    73)       339.6  Rx     18EF1C8F  8  0D 71 16 00 23 00 83 03 
    74)       340.6  Rx     18EF1C8F  8  0D 72 15 00 0B 00 0E 00 
    75)       347.9  Rx     18EFCD1C  8  A1 01 00 00 FA FF FF FF 
    76)       358.7  Rx     18EF1C8F  8  0D 80 00 9F E2 CE 87 FC 
    77)       359.2  Rx     18EF1CCD  8  A2 00 00 00 00 00 00 00 
    78)       359.8  Rx     18EF1C8F  8  0D 81 16 00 20 00 83 03 
    79)       360.6  Rx     18EF1C8F  8  0D 82 15 00 0C 00 0C 00 
    80)       367.7  Rx     18EFCD1C  8  A0 00 14 00 00 00 00 00 
    81)       368.3  Rx     18EF1CCD  8  A0 00 14 00 7A 07 00 00 
    82)       378.7  Rx     18EF1C8F  8  0D 90 00 BC 30 CF 87 FC 
    83)       379.3  Rx     18EF1CCD  8  A3 00 00 00 00 FA FF FA 
    84)       379.8  Rx     18EF1C8F  8  0D 91 14 00 23 00 83 03 
    85)       380.6  Rx     18EF1C8F  8  0D 92 15 00 0A 00 0E 00 
    86)       387.7  Rx     18EFCD1C  8  A0 00 2A 00 00 00 00 00 
    87)       388.4  Rx     18EF1CCD  8  A0 00 2A 00 74 05 00 00 
    88)       398.7  Rx     18EF1C8F  8  0D A0 00 DC 7E CF 87 FC 
    89)       399.3  Rx     18EF1CCD  8  A1 40 FA FF FF FF 00 00 
    90)       399.8  Rx     18EF1C8F  8  0D A1 15 00 21 00 83 03 
    91)       400.6  Rx     18EF1C8F  8  0D A2 13 00 0B 00 0D 00 
    92)       407.7  Rx     18EFCD1C  8  A0 00 1B 00 00 00 00 00 
    93)       408.3  Rx     18EF1CCD  8  A0 00 1B 00 00 00 00 00 
    94)       418.7  Rx     18EF1C8F  8  0D B0 00 FF CC CF 87 FC 
    95)       419.6  Rx     18EF1C8F  8  0D B1 15 00 22 00 83 03 
    96)       420.6  Rx     18EF1C8F  8  0D B2 15 00 0C 00 0E 00 
    97)       427.7  Rx     18EFCD1C  8  A0 00 00 00 00 00 00 00 
    98)       428.3  Rx     18EF1CCD  8  A0 00 00 00 01 00 00 00 
    99)       438.7  Rx     18EF1C8F  8  0D C0 00 1C 1B D0 87 FC 
   100)       439.6  Rx     18EF1C8F  8  0D C1 15 00 22 00 83 03 
   101)       440.6  Rx     18EF1C8F  8  0D C2 14 00 0A 00 0D 00 
   102)       458.7  Rx     18EF1C8F  8  0D D0 00 3C 69 D0 87 FC 
   103)       459.2  Rx     18EF1CCD  8  A2 00 00 00 00 00 00 00 
   104)       459.8  Rx     18EF1C8F  8  0D D1 16 00 21 00 84 03 
   105)       460.6  Rx     18EF1C8F  8  0D D2 15 00 0B 00 0D 00 
   106)       478.7  Rx     18EF1C8F  8  0D E0 00 5C B7 D0 87 FC 
   107)       479.3  Rx     18EF1CCD  8  A3 00 00 00 00 FA FF FA 
   108)       479.8  Rx     18EF1C8F  8  0D E1 16 00 22 00 82 03 
   109)       480.6  Rx     18EF1C8F  8  0D E2 14 00 09 00 0E 00 
   110)       498.7  Rx     18EF1C8F  8  0D F0 00 7C 05 D1 87 FC 
   111)       499.3  Rx     18EF1CCD  8  A1 40 FA FF FF FF 00 00 
   112)       499.8  Rx     18EF1C8F  8  0D F1 14 00 23 00 82 03 
   113)       500.6  Rx     18EF1C8F  8  0D F2 15 00 0A 00 0D 00 
   114)       518.7  Rx     18EF1C8F  8  0D 00 00 9C 53 D1 87 FC 
   115)       519.6  Rx     18EF1C8F  8  0D 01 17 00 22 00 84 03 
   116)       520.6  Rx     18EF1C8F  8  0D 02 14 00 0C 00 0F 00 
   117)       538.7  Rx     18EF1C8F  8  0D 10 00 BC A1 D1 87 FC 
   118)       539.6  Rx     18EF1C8F  8  0D 11 19 00 22 00 84 03 
   119)       540.6  Rx     18EF1C8F  8  0D 12 16 00 0C 00 0F 00 
   120)       547.9  Rx     18EFCD1C  8  A1 01 00 00 FA FF FF FF 
   121)       558.7  Rx     18EF1C8F  8  0D 20 00 DF EF D1 87 FC 
   122)       559.4  Rx     18EF1CCD  8  A2 00 00 00 00 00 00 00 
   123)       559.9  Rx     18EF1C8F  8  0D 21 16 00 22 00 82 03 
   124)       560.6  Rx     18EF1C8F  8  0D 22 15 00 09 00 0E 00 
   125)       567.6  Rx     18EFCD1C  8  A0 00 14 00 00 00 00 00 
   126)       568.4  Rx     18EF1CCD  8  A0 00 14 00 7A 07 00 00 
   127)       578.7  Rx     18EF1C8F  8  0D 30 00 FC 3D D2 87 FC 
   128)       579.4  Rx     18EF1CCD  8  A3 00 00 00 00 FA FF FA 
   129)       580.0  Rx     18EF1C8F  8  0D 31 17 00 24 00 84 03 
   130)       580.6  Rx     18EF1C8F  8  0D 32 17 00 0A 00 0E 00 
   131)       587.7  Rx     18EFCD1C  8  A0 00 2A 00 00 00 00 00 
   132)       588.4  Rx     18EF1CCD  8  A0 00 2A 00 74 05 00 00 
   133)       598.7  Rx     18EF1C8F  8  0D 40 00 1F 8C D2 88 FC 
   134)       599.5  Rx     18EF1CCD  8  A1 40 FA FF FF FF 00 00 
   135)       600.0  Rx     18EF1C8F  8  0D 41 1A 00 21 00 84 03 
   136)       600.6  Rx     18EF1C8F  8  0D 42 15 00 09 00 0D 00 
   137)       607.7  Rx     18EFCD1C  8  A0 00 1B 00 00 00 00 00 
   138)       608.3  Rx     18EF1CCD  8  A0 00 1B 00 00 00 00 00 
   139)       618.7  Rx     18EF1C8F  8  0D 50 00 3F DA D2 88 FC 
   140)       619.6  Rx     18EF1C8F  8  0D 51 17 00 20 00 83 03 
   141)       620.6  Rx     18EF1C8F  8  0D 52 14 00 09 00 0F 00 
   142)       627.7  Rx     18EFCD1C  8  A0 00 00 00 00 00 00 00 
   143)       628.3  Rx     18EF1CCD  8  A0 00 00 00 01 00 00 00 
   144)       638.7  Rx     18EF1C8F  8  0D 60 00 5C 28 D3 87 FC 
   145)       639.6  Rx     18EF1C8F  8  0D 61 14 00 20 00 82 03 
   146)       640.6  Rx     18EF1C8F  8  0D 62 15 00 0B 00 10 00 
   147)       658.7  Rx     18EF1C8F  8  0D 70 00 7C 76 D3 88 FC 
   148)       660.2  Rx     18EF1CCD  8  A2 00 00 00 00 00 00 00 
   149)       660.7  Rx     18EF1C8F  8  0D 72 13 00 0C 00 0E 00 
   150)       678.7  Rx     18EF1C8F  8  0D 80 00 9C C4 D3 87 FC 
   151)       679.6  Rx     18EF1C8F  8  0D 81 15 00 22 00 83 03 
   152)       680.2  Rx     18EF1CCD  8  A3 00 00 00 00 FA FF FA 
   153)       680.7  Rx     18EF1C8F  8  0D 82 14 00 09 00 0E 00 
   154)       689.0  Rx     18FEF31C  8  5E 29 80 99 AC CE 2C 89 
   155)       689.6  Rx     18FEE81C  8  97 4F 00 00 00 00 10 52 
   156)       690.1  Rx     18FEE61C  8  80 0D 0E 09 57 29 00 00 
   157)       690.7  Rx     19F8021C  8  97 FC 86 6C 00 00 FF FF 
   158)       698.7  Rx     18EF1C8F  8  0D 90 00 BF 12 D4 87 FC 
   159)       699.6  Rx     18EF1C8F  8  0D 91 16 00 22 00 83 03 
   160)       700.2  Rx     18EF1CCD  8  A1 40 FA FF FF FF 00 00 
   161)       700.7  Rx     18EF1C8F  8  0D 92 15 00 06 00 0D 00 
   162)       718.7  Rx     18EF1C8F  8  0D A0 00 DC 60 D4 87 FC 
   163)       719.6  Rx     18EF1C8F  8  0D A1 16 00 22 00 82 03 
   164)       720.6  Rx     18EF1C8F  8  0D A2 14 00 09 00 0F 00 
   165)       734.5  Rx     19F8051C  8  E0 2F 97 EE 50 83 55 86 
   166)       735.0  Rx     19F8051C  8  E1 1E 80 CE 24 2F E1 A6 
   167)       735.6  Rx     19F8051C  8  E2 98 06 E0 65 4B B4 F3 
   168)       736.2  Rx     19F8051C  8  E3 91 CB 02 41 40 68 08 
   169)       736.7  Rx     19F8051C  8  E4 00 00 00 00 20 00 0A 
   170)       737.3  Rx     19F8051C  8  E5 64 00 64 00 DC 05 00 
   171)       737.9  Rx     19F8051C  8  E6 00 01 0F 00 00 00 FF 
   172)       738.7  Rx     18EF1C8F  8  0D B0 00 01 AF D4 87 FC 
   173)       739.6  Rx     18EF1C8F  8  0D B1 17 00 22 00 84 03 
   174)       740.6  Rx     18EF1C8F  8  0D B2 16 00 0B 00 0E 00 
   175)       747.7  Rx     18EFCD1C  8  A1 01 00 00 FA FF FF FF 
   176)       758.7  Rx     18EF1C8F  8  0D C0 00 1C FD D4 87 FC 
   177)       759.6  Rx     18EF1C8F  8  0D C1 15 00 22 00 82 03 
   178)       760.2  Rx     18EF1CCD  8  A2 00 00 00 00 00 00 00 
   179)       760.7  Rx     18EF1C8F  8  0D C2 14 00 0A 00 0C 00 
   180)       767.7  Rx     18EFCD1C  8  A0 00 14 00 00 00 00 00 
   181)       768.4  Rx     18EF1CCD  8  A0 00 14 00 7A 07 00 00 
   182)       778.7  Rx     18EF1C8F  8  0D D0 00 3C 4B D5 87 FC 
   183)       779.6  Rx     18EF1C8F  8  0D D1 15 00 23 00 83 03 
   184)       780.2  Rx     18EF1CCD  8  A3 00 00 00 00 FA FF FA 
   185)       780.7  Rx     18EF1C8F  8  0D D2 14 00 0A 00 0E 00 
   186)       787.7  Rx     18EFCD1C  8  A0 00 2A 00 00 00 00 00 
   187)       788.4  Rx     18EF1CCD  8  A0 00 2A 00 73 05 00 00 
   188)       798.7  Rx     18EF1C8F  8  0D E0 00 5F 99 D5 87 FC 
   189)       799.6  Rx     18EF1C8F  8  0D E1 15 00 22 00 83 03 
   190)       800.2  Rx     18EF1CCD  8  A1 40 FA FF FF FF 00 00 
   191)       800.7  Rx     18EF1C8F  8  0D E2 15 00 07 00 0E 00 
   192)       807.7  Rx     18EFCD1C  8  A0 00 1B 00 00 00 00 00 
   193)       808.3  Rx     18EF1CCD  8  A0 00 1B 00 00 00 00 00 
   194)       818.7  Rx     18EF1C8F  8  0D F0 00 7C E7 D5 87 FC 
   195)       819.6  Rx     18EF1C8F  8  0D F1 15 00 22 00 84 03 
   196)       820.6  Rx     18EF1C8F  8  0D F2 15 00 07 00 0F 00 
   197)       827.7  Rx     18EFCD1C  8  A0 00 00 00 00 00 00 00 
   198)       828.3  Rx     18EF1CCD  8  A0 00 00 00 01 00 00 00 
   199)       838.7  Rx     18EF1C8F  8  0D 00 00 9C 35 D6 87 FC 
   200)       839.6  Rx     18EF1C8F  8  0D 01 18 00 21 00 82 03 
   201)       840.6  Rx     18EF1C8F  8  0D 02 14 00 0A 00 0D 00 
   202)       858.7  Rx     18EF1C8F  8  0D 10 00 BC 83 D6 87 FC 
   203)       859.6  Rx     18EF1C8F  8  0D 11 19 00 20 00 84 03 
   204)       860.2  Rx     18EF1CCD  8  A2 00 00 00 00 00 00 00 
   205)       860.7  Rx     18EF1C8F  8  0D 12 15 00 0A 00 0C 00 
   206)       878.7  Rx     18EF1C8F  8  0D 20 00 DC D1 D6 88 FC 
   207)       879.6  Rx     18EF1C8F  8  0D 21 17 00 22 00 83 03 
   208)       880.2  Rx     18EF1CCD  8  A3 00 00 00 00 FA FF FA 
   209)       880.8  Rx     18EF1C8F  8  0D 22 15 00 09 00 0D 00 
   210)       898.7  Rx     18EF1C8F  8  0D 30 00 FC 1F D7 87 FC 
   211)       899.6  Rx     18EF1C8F  8  0D 31 15 00 23 00 82 03 
   212)       900.2  Rx     18EF1CCD  8  A1 40 FA FF FF FF 00 00 
   213)       900.7  Rx     18EF1C8F  8  0D 32 14 00 0A 00 0F 00 
   214)       918.7  Rx     18EF1C8F  8  0D 40 00 1F 6E D7 88 FC 
   215)       919.6  Rx     18EF1C8F  8  0D 41 15 00 21 00 83 03 
   216)       920.6  Rx     18EF1C8F  8  0D 42 15 00 0A 00 0F 00 
   217)       938.7  Rx     18EF1C8F  8  0D 50 00 3C BC D7 87 FC 
   218)       939.6  Rx     18EF1C8F  8  0D 51 15 00 21 00 83 03 
   219)       940.6  Rx     18EF1C8F  8  0D 52 14 00 0B 00 0C 00 
   220)       947.8  Rx     18EFCD1C  8  A1 01 00 00 FA FF FF FF 
   221)       958.7  Rx     18EF1C8F  8  0D 60 00 5C 0A D8 88 FC 
   222)       959.6  Rx     18EF1C8F  8  0D 61 15 00 23 00 84 03 
   223)       960.3  Rx     18EF1CCD  8  A2 00 00 00 00 00 00 00 
   224)       960.9  Rx     18EF1C8F  8  0D 62 14 00 0A 00 0D 00 
   225)       967.7  Rx     18EFCD1C  8  A0 00 14 00 00 00 00 00 
   226)       968.3  Rx     18EF1CCD  8  A0 00 14 00 7B 07 00 00 
   227)       978.7  Rx     18EF1C8F  8  0D 70 00 7C 58 D8 88 FC 
   228)       979.6  Rx     18EF1C8F  8  0D 71 16 00 22 00 82 03 
   229)       980.3  Rx     18EF1CCD  8  A3 00 00 00 00 FA FF FA 
   230)       980.9  Rx     18EF1C8F  8  0D 72 15 00 0A 00 10 00 
   231)       987.7  Rx     18EFCD1C  8  A0 00 2A 00 00 00 00 00 
   232)       988.4  Rx     18EF1CCD  8  A0 00 2A 00 75 05 00 00 
   233)       998.7  Rx     18EF1C8F  8  0D 80 00 9C A6 D8 87 FC 
   234)       999.6  Rx     18EF1C8F  8  0D 81 18 00 22 00 82 03 
   235)      1000.4  Rx     18EF1CCD  8  A1 40 FA FF FF FF 00 00 
   236)      1001.0  Rx     18EF1C8F  8  0D 82 16 00 0B 00 0E 00 
   237)      1007.7  Rx     18EFCD1C  8  A0 00 1B 00 00 00 00 00 
   238)      1008.4  Rx     18EF1CCD  8  A0 00 1B 00 00 00 00 00 
   239)      1018.7  Rx     18EF1C8F  8  0D 90 00 BF F4 D8 87 FC 
   240)      1019.7  Rx     18EF1C8F  8  0D 91 17 00 21 00 81 03 
   241)      1020.6  Rx     18EF1C8F  8  0D 92 16 00 0A 00 10 00 
   242)      1027.7  Rx     18EFCD1C  8  A0 00 00 00 00 00 00 00 
   243)      1028.4  Rx     18EF1CCD  8  A0 00 00 00 01 00 00 00 
   244)      1038.7  Rx     18EF1C8F  8  0D A0 00 DC 42 D9 87 FC 
   245)      1039.6  Rx     18EF1C8F  8  0D A1 16 00 24 00 84 03 
   246)      1040.6  Rx     18EF1C8F  8  0D A2 16 00 0A 00 0F 00 
   247)      1058.7  Rx     18EF1C8F  8  0D B0 00 FC 90 D9 87 FC 
   248)      1059.6  Rx     18EF1C8F  8  0D B1 16 00 21 00 84 03 
   249)      1060.5  Rx     18EF1CCD  8  A2 00 00 00 00 00 00 00 
   250)      1061.1  Rx     18EF1C8F  8  0D B2 14 00 09 00 0E 00 
   251)      1078.7  Rx     18EF1C8F  8  0D C0 00 1C DF D9 87 FC 
   252)      1079.6  Rx     18EF1C8F  8  0D C1 17 00 21 00 82 03 
   253)      1080.6  Rx     18EF1CCD  8  A3 00 00 00 00 FA FF FA 
   254)      1081.1  Rx     18EF1C8F  8  0D C2 12 00 09 00 0E 00 
   255)      1098.7  Rx     18EF1C8F  8  0D D0 00 3F 2D DA 87 FC 
   256)      1099.6  Rx     18EF1C8F  8  0D D1 15 00 22 00 84 03 
   257)      1100.6  Rx     18EF1CCD  8  A1 40 FA FF FF FF 00 00 
   258)      1101.1  Rx     18EF1C8F  8  0D D2 14 00 0B 00 0F 00 
   259)      1118.7  Rx     18EF1C8F  8  0D E0 00 5C 7B DA 87 FC 
   260)      1119.6  Rx     18EF1C8F  8  0D E1 16 00 22 00 83 03 
   261)      1120.6  Rx     18EF1C8F  8  0D E2 15 00 08 00 10 00 
   262)      1138.7  Rx     18EF1C8F  8  0D F0 00 7C C9 DA 87 FC 
   263)      1139.6  Rx     18EF1C8F  8  0D F1 15 00 23 00 84 03 
   264)      1140.6  Rx     18EF1C8F  8  0D F2 15 00 08 00 0E 00 
   265)      1147.9  Rx     18EFCD1C  8  A1 01 00 00 FA FF FF FF 
   266)      1158.7  Rx     18EF1C8F  8  0D 00 00 9C 17 DB 88 FC 
   267)      1159.6  Rx     18EF1C8F  8  0D 01 17 00 21 00 83 03 
   268)      1160.6  Rx     18EF1C8F  8  0D 02 14 00 0B 00 0E 00 
   269)      1161.2  Rx     18EF1CCD  8  A2 00 00 00 00 00 00 00 
   270)      1167.7  Rx     18EFCD1C  8  A0 00 14 00 00 00 00 00 
   271)      1168.4  Rx     18EF1CCD  8  A0 00 14 00 7A 07 00 00 
   272)      1178.7  Rx     18EF1C8F  8  0D 10 00 BF 65 DB 87 FC 
   273)      1179.6  Rx     18EF1C8F  8  0D 11 16 00 21 00 85 03 
   274)      1180.6  Rx     18EF1C8F  8  0D 12 13 00 0B 00 0B 00 
   275)      1181.2  Rx     18EF1CCD  8  A3 00 00 00 00 FA FF FA 
   276)      1187.7  Rx     18EFCD1C  8  A0 00 2A 00 00 00 00 00 
   277)      1188.3  Rx     18EF1CCD  8  A0 00 2A 00 75 05 00 00 
   278)      1198.7  Rx     18EF1C8F  8  0D 20 00 DC B3 DB 87 FC 
   279)      1199.6  Rx     18EF1C8F  8  0D 21 16 00 22 00 84 03 
   280)      1200.6  Rx     18EF1C8F  8  0D 22 13 00 0B 00 0E 00 
   281)      1201.2  Rx     18EF1CCD  8  A1 40 FA FF FF FF 00 00 
   282)      1207.7  Rx     18EFCD1C  8  A0 00 1B 00 00 00 00 00 
   283)      1208.3  Rx     18EF1CCD  8  A0 00 1B 00 00 00 00 00 
   284)      1218.7  Rx     18EF1C8F  8  0D 30 00 FC 01 DC 87 FC 
   285)      1219.6  Rx     18EF1C8F  8  0D 31 18 00 21 00 83 03 
   286)      1220.6  Rx     18EF1C8F  8  0D 32 16 00 0A 00 0C 00 
   287)      1227.7  Rx     18EFCD1C  8  A0 00 00 00 00 00 00 00 
   288)      1228.3  Rx     18EF1CCD  8  A0 00 00 00 01 00 00 00 
   289)      1238.7  Rx     18EF1C8F  8  0D 40 00 1F 50 DC 87 FC 
   290)      1239.6  Rx     18EF1C8F  8  0D 41 14 00 22 00 83 03 
   291)      1240.6  Rx     18EF1C8F  8  0D 42 16 00 0A 00 0E 00 
   292)      1258.7  Rx     18EF1C8F  8  0D 50 00 3C 9E DC 87 FC 
   293)      1259.6  Rx     18EF1C8F  8  0D 51 17 00 23 00 81 03 
   294)      1260.6  Rx     18EF1C8F  8  0D 52 15 00 0C 00 0D 00 
   295)      1261.2  Rx     18EF1CCD  8  A2 00 00 00 00 00 00 00 
   296)      1278.7  Rx     18EF1C8F  8  0D 60 00 5C EC DC 87 FC 
   297)      1279.6  Rx     18EF1C8F  8  0D 61 15 00 22 00 82 03 
   298)      1280.6  Rx     18EF1C8F  8  0D 62 14 00 0C 00 0D 00 
   299)      1281.2  Rx     18EF1CCD  8  A3 00 00 00 00 FA FF FA 
   300)      1287.5  Rx     18EFCD1C  4  01 59 09 00 
   301)      1288.0  Rx     18EF1CCD  4  01 0A 59 00 
   302)      1298.7  Rx     18EF1C8F  8  0D 70 00 7C 3A DD 88 FC 
   303)      1299.6  Rx     18EF1C8F  8  0D 71 15 00 22 00 83 03 
   304)      1300.6  Rx     18EF1C8F  8  0D 72 11 00 0B 00 0F 00 
   305)      1301.2  Rx     18EF1CCD  8  A1 40 FA FF FF FF 00 00 
   306)      1318.7  Rx     18EF1C8F  8  0D 80 00 9C 88 DD 87 FC 
   307)      1319.6  Rx     18EF1C8F  8  0D 81 18 00 23 00 84 03 
   308)      1320.6  Rx     18EF1C8F  8  0D 82 15 00 08 00 0D 00 
   309)      1338.7  Rx     18EF1C8F  8  0D 90 00 BC D6 DD 87 FC 
   310)      1339.6  Rx     18EF1C8F  8  0D 91 16 00 22 00 84 03 
   311)      1340.6  Rx     18EF1C8F  8  0D 92 16 00 08 00 0E 00 
   312)      1347.9  Rx     18EFCD1C  8  A1 01 00 00 FA FF FF FF 
   313)      1358.7  Rx     18EF1C8F  8  0D A0 00 DC 24 DE 87 FC 
   314)      1359.6  Rx     18EF1C8F  8  0D A1 17 00 23 00 84 03 
   315)      1360.6  Rx     18EF1C8F  8  0D A2 14 00 0C 00 0E 00 
   316)      1361.2  Rx     18EF1CCD  8  A2 00 00 00 00 00 00 00 
   317)      1367.7  Rx     18EFCD1C  8  A0 00 14 00 00 00 00 00 
   318)      1368.3  Rx     18EF1CCD  8  A0 00 14 00 7A 07 00 00 
   319)      1378.7  Rx     18EF1C8F  8  0D B0 00 FC 72 DE 87 FC 
   320)      1379.6  Rx     18EF1C8F  8  0D B1 16 00 22 00 83 03 
   321)      1380.6  Rx     18EF1C8F  8  0D B2 13 00 0B 00 0F 00 
   322)      1381.2  Rx     18EF1CCD  8  A3 00 00 00 00 FA FF FA 
   323)      1387.7  Rx     18EFCD1C  8  A0 00 2A 00 00 00 00 00 
   324)      1388.3  Rx     18EF1CCD  8  A0 00 2A 00 73 05 00 00 
   325)      1398.7  Rx     18EF1C8F  8  0D C0 00 1F C1 DE 87 FC 
   326)      1399.6  Rx     18EF1C8F  8  0D C1 17 00 20 00 83 03 
   327)      1400.6  Rx     18EF1C8F  8  0D C2 15 00 09 00 0E 00 
   328)      1401.3  Rx     18EF1CCD  8  A1 40 FA FF FF FF 00 00 
   329)      1407.7  Rx     18EFCD1C  8  A0 00 1B 00 00 00 00 00 
   330)      1408.3  Rx     18EF1CCD  8  A0 00 1B 00 00 00 00 00 
   331)      1418.7  Rx     18EF1C8F  8  0D D0 00 3C 0F DF 87 FC 
   332)      1419.6  Rx     18EF1C8F  8  0D D1 15 00 22 00 84 03 
   333)      1420.6  Rx     18EF1C8F  8  0D D2 15 00 0B 00 0F 00 
   334)      1427.7  Rx     18EFCD1C  8  A0 00 00 00 00 00 00 00 
   335)      1428.3  Rx     18EF1CCD  8  A0 00 00 00 01 00 00 00 
   336)      1438.7  Rx     18EF1C8F  8  0D E0 00 5F 5D DF 87 FC 
   337)      1439.6  Rx     18EF1C8F  8  0D E1 15 00 22 00 82 03 
   338)      1440.6  Rx     18EF1C8F  8  0D E2 14 00 0A 00 0C 00 
   339)      1458.7  Rx     18EF1C8F  8  0D F0 00 7C AB DF 87 FC 
   340)      1459.6  Rx     18EF1C8F  8  0D F1 17 00 23 00 82 03 
   341)      1460.6  Rx     18EF1C8F  8  0D F2 16 00 0C 00 0E 00 
   342)      1461.4  Rx     18EF1CCD  8  A2 00 00 00 00 00 00 00 
   343)      1478.7  Rx     18EF1C8F  8  0D 00 00 9C F9 DF 88 FC 
   344)      1479.6  Rx     18EF1C8F  8  0D 01 16 00 23 00 83 03 
   345)      1480.6  Rx     18EF1C8F  8  0D 02 13 00 0B 00 0D 00 
   346)      1481.4  Rx     18EF1CCD  8  A3 00 00 00 00 FA FF FA 
   347)      1498.7  Rx     18EF1C8F  8  0D 10 00 BC 47 E0 87 FC 
   348)      1499.6  Rx     18EF1C8F  8  0D 11 15 00 22 00 83 03 
   349)      1500.6  Rx     18EF1C8F  8  0D 12 14 00 0A 00 0D 00 
   350)      1501.5  Rx     18EF1CCD  8  A1 40 FA FF FF FF 00 00 
   351)      1512.6  Rx     18EF8F1C  4  01 9C F5 00 
   352)      1513.6  Rx     18EF1C8F  4  01 F6 9C 00 
   353)      1518.7  Rx     18EF1C8F  8  0D 20 00 DF 95 E0 87 FC 
   354)      1519.6  Rx     18EF1C8F  8  0D 21 15 00 22 00 83 03 
   355)      1520.6  Rx     18EF1C8F  8  0D 22 14 00 08 00 0D 00 
   356)      1538.7  Rx     18EF1C8F  8  0D 30 00 FA E3 E0 87 FC 
   357)      1539.6  Rx     18EF1C8F  8  0D 31 14 00 23 00 83 03 
   358)      1540.6  Rx     18EF1C8F  8  0D 32 14 00 07 00 0D 00 
   359)      1547.8  Rx     18EFCD1C  8  A1 01 00 00 FA FF FF FF 
   360)      1558.7  Rx     18EF1C8F  8  0D 40 00 1F 32 E1 87 FC 
   361)      1559.6  Rx     18EF1C8F  8  0D 41 17 00 22 00 83 03 
   362)      1560.6  Rx     18EF1C8F  8  0D 42 15 00 0B 00 0D 00 
   363)      1561.6  Rx     18EF1CCD  8  A2 00 00 00 00 00 00 00 
   364)      1567.7  Rx     18EFCD1C  8  A0 00 14 00 00 00 00 00 
   365)      1568.3  Rx     18EF1CCD  8  A0 00 14 00 7A 07 00 00 
   366)      1578.7  Rx     18EF1C8F  8  0D 50 00 3F 80 E1 87 FC 
   367)      1579.6  Rx     18EF1C8F  8  0D 51 17 00 21 00 82 03 
   368)      1580.6  Rx     18EF1C8F  8  0D 52 15 00 0C 00 0E 00 
   369)      1581.6  Rx     18EF1CCD  8  A3 00 00 00 00 FA FF FA 
   370)      1587.7  Rx     18EFCD1C  8  A0 00 2A 00 00 00 00 00 
   371)      1588.3  Rx     18EF1CCD  8  A0 00 2A 00 74 05 00 00 
   372)      1598.7  Rx     18EF1C8F  8  0D 60 00 5C CE E1 87 FC 
   373)      1599.6  Rx     18EF1C8F  8  0D 61 17 00 21 00 84 03 
   374)      1600.6  Rx     18EF1C8F  8  0D 62 15 00 0C 00 0D 00 
   375)      1601.7  Rx     18EF1CCD  8  A1 40 FA FF FF FF 00 00 
   376)      1607.7  Rx     18EFCD1C  8  A0 00 1B 00 00 00 00 00 
   377)      1608.3  Rx     18EF1CCD  8  A0 00 1B 00 00 00 00 00 
   378)      1618.7  Rx     18EF1C8F  8  0D 70 00 7F 1C E2 87 FC 
   379)      1619.6  Rx     18EF1C8F  8  0D 71 16 00 24 00 84 03 
   380)      1620.6  Rx     18EF1C8F  8  0D 72 12 00 08 00 0D 00 
   381)      1627.6  Rx     18EFCD1C  8  A0 00 00 00 00 00 00 00 
   382)      1628.3  Rx     18EF1CCD  8  A0 00 00 00 01 00 00 00 
   383)      1638.7  Rx     18EF1C8F  8  0D 80 00 9C 6A E2 88 FC 
   384)      1639.6  Rx     18EF1C8F  8  0D 81 18 00 21 00 84 03 
   385)      1640.6  Rx     18EF1C8F  8  0D 82 14 00 04 00 0E 00 
   386)      1658.7  Rx     18EF1C8F  8  0D 90 00 BC B8 E2 88 FC 
   387)      1659.6  Rx     18EF1C8F  8  0D 91 17 00 21 00 85 03 
   388)      1660.6  Rx     18EF1C8F  8  0D 92 14 00 06 00 0E 00 
   389)      1661.8  Rx     18EF1CCD  8  A2 00 00 00 00 00 00 00 
   390)      1678.7  Rx     18EF1C8F  8  0D A0 00 DF 06 E3 87 FC 
   391)      1679.6  Rx     18EF1C8F  8  0D A1 16 00 21 00 83 03 
   392)      1680.6  Rx     18EF1C8F  8  0D A2 15 00 0E 00 0D 00 
   393)      1681.9  Rx     18EF1CCD  8  A3 00 00 00 00 FA FF FA 
   394)      1689.0  Rx     18FEF31C  8  5E 29 80 99 AC CE 2C 89 
   395)      1689.6  Rx     18FEE81C  8  97 4F 00 00 00 00 10 52 
   396)      1690.1  Rx     18FEE61C  8  84 0D 0E 09 57 29 00 00 
   397)      1690.7  Rx     19F8021C  8  9C FC 86 6C 00 00 FF FF 
   398)      1698.7  Rx     18EF1C8F  8  0D B0 00 FF 54 E3 88 FC 
   399)      1699.6  Rx     18EF1C8F  8  0D B1 15 00 24 00 84 03 
   400)      1700.6  Rx     18EF1C8F  8  0D B2 14 00 0B 00 0D 00 
   401)      1701.9  Rx     18EF1CCD  8  A1 40 FA FF FF FF 00 00 
   402)      1718.7  Rx     18EF1C8F  8  0D C0 00 1C A3 E3 87 FC 
   403)      1719.6  Rx     18EF1C8F  8  0D C1 16 00 23 00 84 03 
   404)      1720.6  Rx     18EF1C8F  8  0D C2 12 00 0B 00 0F 00 
   405)      1736.0  Rx     19F8051C  8  00 2F 9C EE 50 93 7C 86 
   406)      1736.6  Rx     19F8051C  8  01 1E 80 CE 24 2F E1 A6 
   407)      1737.2  Rx     19F8051C  8  02 98 06 E0 65 4B B4 F3 
   408)      1737.7  Rx     19F8051C  8  03 91 CB 02 41 40 68 08 
   409)      1738.3  Rx     19F8051C  8  04 00 00 00 00 20 00 0A 
   410)      1738.9  Rx     18EF1C8F  8  0D D0 00 3F F1 E3 87 FC 
   411)      1739.4  Rx     19F8051C  8  05 64 00 64 00 DC 05 00 
   412)      1740.0  Rx     18EF1C8F  8  0D D1 17 00 22 00 83 03 
   413)      1740.6  Rx     19F8051C  8  06 00 01 0F 00 00 00 FF 
   414)      1741.1  Rx     18EF1C8F  8  0D D2 15 00 0B 00 0C 00 
   415)      1747.8  Rx     18EFCD1C  8  A1 01 00 00 FA FF FF FF 
   416)      1758.7  Rx     18EF1C8F  8  0D E0 00 5F 3F E4 87 FC 
   417)      1759.6  Rx     18EF1C8F  8  0D E1 17 00 23 00 84 03 
   418)      1760.6  Rx     18EF1C8F  8  0D E2 15 00 08 00 0E 00 
   419)      1762.0  Rx     18EF1CCD  8  A2 00 00 00 00 00 00 00 
   420)      1767.6  Rx     18EFCD1C  8  A0 00 14 00 00 00 00 00 
   421)      1768.3  Rx     18EF1CCD  8  A0 00 14 00 7A 07 00 00 
   422)      1778.7  Rx     18EF1C8F  8  0D F0 00 7C 8D E4 88 FC 
   423)      1779.6  Rx     18EF1C8F  8  0D F1 15 00 22 00 83 03 
   424)      1780.6  Rx     18EF1C8F  8  0D F2 14 00 0A 00 0F 00 
   425)      1782.1  Rx     18EF1CCD  8  A3 00 00 00 00 FA FF FA 
   426)      1787.7  Rx     18EFCD1C  8  A0 00 2A 00 00 00 00 00 
   427)      1788.3  Rx     18EF1CCD  8  A0 00 2A 00 74 05 00 00 
   428)      1798.7  Rx     18EF1C8F  8  0D 00 00 9F DB E4 88 FC 
   429)      1799.6  Rx     18EF1C8F  8  0D 01 14 00 22 00 83 03 
   430)      1800.7  Rx     18EF1C8F  8  0D 02 15 00 0B 00 0E 00 
   431)      1802.2  Rx     18EF1CCD  8  A1 40 FA FF FF FF 00 00 
   432)      1807.7  Rx     18EFCD1C  8  A0 00 1B 00 00 00 00 00 
   433)      1808.3  Rx     18EF1CCD  8  A0 00 1B 00 00 00 00 00 
   434)      1818.7  Rx     18EF1C8F  8  0D 10 00 BC 29 E5 87 FC 
   435)      1819.7  Rx     18EF1C8F  8  0D 11 14 00 23 00 84 03 
   436)      1820.6  Rx     18EF1C8F  8  0D 12 16 00 0A 00 0F 00 
   437)      1827.7  Rx     18EFCD1C  8  A0 00 00 00 00 00 00 00 
   438)      1828.3  Rx     18EF1CCD  8  A0 00 00 00 01 00 00 00 
   439)      1838.7  Rx     18EF1C8F  8  0D 20 00 DC 77 E5 88 FC 
   440)      1839.6  Rx     18EF1C8F  8  0D 21 18 00 22 00 82 03 
   441)      1840.7  Rx     18EF1C8F  8  0D 22 16 00 0B 00 0E 00 
   442)      1858.7  Rx     18EF1C8F  8  0D 30 00 FF C5 E5 87 FC 
   443)      1859.7  Rx     18EF1C8F  8  0D 31 16 00 22 00 83 03 
   444)      1860.7  Rx     18EF1C8F  8  0D 32 15 00 0B 00 0E 00 
   445)      1862.3  Rx     18EF1CCD  8  A2 00 00 00 00 00 00 00 
   446)      1878.7  Rx     18EF1C8F  8  0D 40 00 1A 14 E6 87 FC 
   447)      1879.7  Rx     18EF1C8F  8  0D 41 16 00 20 00 83 03 
   448)      1880.7  Rx     18EF1C8F  8  0D 42 12 00 09 00 0F 00 
   449)      1882.4  Rx     18EF1CCD  8  A3 00 00 00 00 FA FF FA 
   450)      1898.8  Rx     18EF1C8F  8  0D 50 00 3F 62 E6 88 FC 
   451)      1899.6  Rx     18EF1C8F  8  0D 51 16 00 23 00 84 03 
   452)      1900.7  Rx     18EF1C8F  8  0D 52 14 00 0B 00 0D 00 
   453)      1902.4  Rx     18EF1CCD  8  A1 40 FA FF FF FF 00 00 
   454)      1918.7  Rx     18EF1C8F  8  0D 60 00 5A B0 E6 88 FC 
   455)      1919.7  Rx     18EF1C8F  8  0D 61 17 00 22 00 83 03 
   456)      1920.6  Rx     18EF1C8F  8  0D 62 13 00 0A 00 0D 00 
   457)      1938.7  Rx     18EF1C8F  8  0D 70 00 7F FE E6 87 FC 
   458)      1939.6  Rx     18EF1C8F  8  0D 71 16 00 22 00 85 03 
   459)      1940.7  Rx     18EF1C8F  8  0D 72 14 00 09 00 0D 00 
   460)      1947.8  Rx     18EFCD1C  8  A1 01 00 00 FA FF FF FF 
   461)      1958.7  Rx     18EF1C8F  8  0D 80 00 9C 4C E7 87 FC 
   462)      1959.7  Rx     18EF1C8F  8  0D 81 17 00 23 00 81 03 
   463)      1960.6  Rx     18EF1C8F  8  0D 82 14 00 0C 00 0E 00 
   464)      1962.5  Rx     18EF1CCD  8  A2 00 00 00 00 00 00 00 
   465)      1967.7  Rx     18EFCD1C  8  A0 00 14 00 00 00 00 00 
   466)      1968.4  Rx     18EF1CCD  8  A0 00 14 00 7A 07 00 00 
   467)      1978.7  Rx     18EF1C8F  8  0D 90 00 BC 9A E7 87 FC 
   468)      1979.7  Rx     18EF1C8F  8  0D 91 16 00 21 00 84 03 
   469)      1980.7  Rx     18EF1C8F  8  0D 92 13 00 0A 00 0E 00 
   470)      1982.6  Rx     18EF1CCD  8  A3 00 00 00 00 FA FF FA 
   471)      1987.7  Rx     18EFCD1C  8  A0 00 2A 00 00 00 00 00 
   472)      1988.4  Rx     18EF1CCD  8  A0 00 2A 00 74 05 00 00 
   473)      1998.7  Rx     18EF1C8F  8  0D A0 00 DF E8 E7 87 FC 
   474)      1999.7  Rx     18EF1C8F  8  0D A1 16 00 22 00 84 03 
   475)      2000.7  Rx     18EF1C8F  8  0D A2 13 00 0A 00 0F 00 
   476)      2002.6  Rx     18EF1CCD  8  A1 40 FA FF FF FF 00 00 
   477)      2007.7  Rx     18EFCD1C  8  A0 00 1B 00 00 00 00 00 
   478)      2008.3  Rx     18EF1CCD  8  A0 00 1B 00 00 00 00 00 
   479)      2018.7  Rx     18EF1C8F  8  0D B0 00 FC 36 E8 87 FC 
   480)      2019.7  Rx     18EF1C8F  8  0D B1 15 00 23 00 82 03 
   481)      2020.7  Rx     18EF1C8F  8  0D B2 15 00 09 00 10 00 
   482)      2027.7  Rx     18EFCD1C  8  A0 00 00 00 00 00 00 00 
   483)      2028.3  Rx     18EF1CCD  8  A0 00 00 00 01 00 00 00 
   484)      2038.8  Rx     18EF1C8F  8  0D C0 00 1F 85 E8 87 FC 
   485)      2039.7  Rx     18EF1C8F  8  0D C1 16 00 23 00 84 03 
   486)      2040.6  Rx     18EF1C8F  8  0D C2 15 00 09 00 0F 00 
   487)      2058.7  Rx     18EF1C8F  8  0D D0 00 3C D3 E8 88 FC 
   488)      2059.6  Rx     18EF1C8F  8  0D D1 16 00 22 00 84 03 
   489)      2060.7  Rx     18EF1C8F  8  0D D2 12 00 0B 00 0E 00 
   490)      2062.7  Rx     18EF1CCD  8  A2 00 00 00 00 00 00 00 
   491)      2078.7  Rx     18EF1C8F  8  0D E0 00 5C 21 E9 87 FC 
   492)      2079.7  Rx     18EF1C8F  8  0D E1 16 00 23 00 84 03 
   493)      2080.7  Rx     18EF1C8F  8  0D E2 16 00 09 00 0C 00 
   494)      2082.8  Rx     18EF1CCD  8  A3 00 00 00 00 FA FF FA 
   495)      2098.7  Rx     18EF1C8F  8  0D F0 00 7C 6F E9 87 FC 
   496)      2099.6  Rx     18EF1C8F  8  0D F1 16 00 22 00 84 03 
   497)      2100.6  Rx     18EF1C8F  8  0D F2 15 00 09 00 0C 00 
   498)      2102.8  Rx     18EF1CCD  8  A1 40 FA FF FF FF 00 00 
   499)      2118.7  Rx     18EF1C8F  8  0D 00 00 9F BD E9 88 FC 
   500)      2119.6  Rx     18EF1C8F  8  0D 01 16 00 23 00 81 03 
   501)      2120.6  Rx     18EF1C8F  8  0D 02 16 00 0A 00 0F 00 
   502)      2138.7  Rx     18EF1C8F  8  0D 10 00 BC 0B EA 88 FC 
   503)      2139.6  Rx     18EF1C8F  8  0D 11 16 00 21 00 86 03 
   504)      2140.6  Rx     18EF1C8F  8  0D 12 15 00 0A 00 10 00 
   505)      2147.7  Rx     18EFCD1C  8  A1 01 00 00 FA FF FF FF 
   506)      2158.7  Rx     18EF1C8F  8  0D 20 00 DF 59 EA 88 FC 
   507)      2159.6  Rx     18EF1C8F  8  0D 21 16 00 21 00 81 03 
   508)      2160.6  Rx     18EF1C8F  8  0D 22 15 00 09 00 0F 00 
   509)      2162.9  Rx     18EF1CCD  8  A2 00 00 00 00 00 00 00 
   510)      2167.6  Rx     18EFCD1C  8  A0 00 14 00 00 00 00 00 
   511)      2168.2  Rx     18EF1CCD  8  A0 00 14 00 79 07 00 00 
   512)      2178.7  Rx     18EF1C8F  8  0D 30 00 FC A7 EA 87 FC 
   513)      2179.6  Rx     18EF1C8F  8  0D 31 15 00 22 00 83 03 
   514)      2180.6  Rx     18EF1C8F  8  0D 32 14 00 0A 00 0D 00 
   515)      2182.9  Rx     18EF1CCD  8  A3 00 00 00 00 FA FF FA 
   516)      2187.7  Rx     18EFCD1C  8  A0 00 2A 00 00 00 00 00 
   517)      2188.3  Rx     18EF1CCD  8  A0 00 2A 00 75 05 00 00 
   518)      2198.7  Rx     18EF1C8F  8  0D 40 00 1F F6 EA 88 FC 
   519)      2199.6  Rx     18EF1C8F  8  0D 41 17 00 23 00 84 03 
   520)      2200.6  Rx     18EF1C8F  8  0D 42 14 00 0D 00 0D 00 
   521)      2203.0  Rx     18EF1CCD  8  A1 40 FA FF FF FF 00 00 
   522)      2207.6  Rx     18EFCD1C  8  A0 00 1B 00 00 00 00 00 
   523)      2208.3  Rx     18EF1CCD  8  A0 00 1B 00 00 00 00 00 
   524)      2218.7  Rx     18EF1C8F  8  0D 50 00 3C 44 EB 87 FC 
   525)      2219.6  Rx     18EF1C8F  8  0D 51 16 00 23 00 83 03 
   526)      2220.6  Rx     18EF1C8F  8  0D 52 13 00 09 00 10 00 
   527)      2227.6  Rx     18EFCD1C  8  A0 00 00 00 00 00 00 00 
   528)      2228.3  Rx     18EF1CCD  8  A0 00 00 00 01 00 00 00 
   529)      2238.7  Rx     18EF1C8F  8  0D 60 00 5F 92 EB 87 FC 
   530)      2239.6  Rx     18EF1C8F  8  0D 61 15 00 23 00 84 03 
   531)      2240.6  Rx     18EF1C8F  8  0D 62 14 00 07 00 0F 00 
   532)      2258.7  Rx     18EF1C8F  8  0D 70 00 7C E0 EB 87 FC 
   533)      2259.6  Rx     18EF1C8F  8  0D 71 18 00 22 00 83 03 
   534)      2260.6  Rx     18EF1C8F  8  0D 72 15 00 0B 00 11 00 
   535)      2263.1  Rx     18EF1CCD  8  A2 00 00 00 00 00 00 00 
   536)      2278.6  Rx     18EF1C8F  8  0D 80 00 9C 2E EC 87 FC 
   537)      2279.6  Rx     18EF1C8F  8  0D 81 16 00 23 00 81 03 
   538)      2280.6  Rx     18EF1C8F  8  0D 82 15 00 0A 00 0E 00 
   539)      2283.1  Rx     18EF1CCD  8  A3 00 00 00 00 FA FF FA 
   540)      2298.6  Rx     18EF1C8F  8  0D 90 00 BC 7C EC 88 FC 
   541)      2299.6  Rx     18EF1C8F  8  0D 91 16 00 22 00 84 03 
   542)      2300.6  Rx     18EF1C8F  8  0D 92 16 00 0B 00 0E 00 
   543)      2303.2  Rx     18EF1CCD  8  A1 40 FA FF FF FF 00 00 
   544)      2318.6  Rx     18EF1C8F  8  0D A0 00 DC CA EC 88 FC 
   545)      2319.6  Rx     18EF1C8F  8  0D A1 15 00 23 00 84 03 
   546)      2320.6  Rx     18EF1C8F  8  0D A2 17 00 0C 00 10 00 
   547)      2338.6  Rx     18EF1C8F  8  0D B0 00 FC 18 ED 88 FC 
   548)      2339.6  Rx     18EF1C8F  8  0D B1 16 00 22 00 84 03 
   549)      2340.6  Rx     18EF1C8F  8  0D B2 16 00 0B 00 0E 00 
   550)      2347.8  Rx     18EFCD1C  8  A1 01 00 00 FA FF FF FF 
   551)      2358.6  Rx     18EF1C8F  8  0D C0 00 1C 67 ED 88 FC 
   552)      2359.6  Rx     18EF1C8F  8  0D C1 17 00 22 00 83 03 
   553)      2360.6  Rx     18EF1C8F  8  0D C2 14 00 0C 00 0D 00 
   554)      2363.3  Rx     18EF1CCD  8  A2 00 00 00 00 00 00 00 
   555)      2367.5  Rx     18EFCD1C  8  A0 00 14 00 00 00 00 00 
   556)      2368.3  Rx     18EF1CCD  8  A0 00 14 00 7A 07 00 00 
   557)      2378.6  Rx     18EF1C8F  8  0D D0 00 3C B5 ED 87 FC 
   558)      2379.6  Rx     18EF1C8F  8  0D D1 14 00 22 00 82 03 
   559)      2380.5  Rx     18EF1C8F  8  0D D2 16 00 0B 00 0F 00 
   560)      2383.3  Rx     18EF1CCD  8  A3 00 00 00 00 FA FF FA 
   561)      2387.6  Rx     18EFCD1C  8  A0 00 2A 00 00 00 00 00 
   562)      2388.3  Rx     18EF1CCD  8  A0 00 2A 00 74 05 00 00 
   563)      2398.6  Rx     18EF1C8F  8  0D E0 00 5F 03 EE 87 FC 
   564)      2399.5  Rx     18EF1C8F  8  0D E1 17 00 23 00 83 03 
   565)      2400.6  Rx     18EF1C8F  8  0D E2 14 00 0A 00 0D 00 
   566)      2403.4  Rx     18EF1CCD  8  A1 40 FA FF FF FF 00 00 
   567)      2407.5  Rx     18EFCD1C  8  A0 00 1B 00 00 00 00 00 
   568)      2408.2  Rx     18EF1CCD  8  A0 00 1B 00 00 00 00 00 
   569)      2418.6  Rx     18EF1C8F  8  0D F0 00 7C 51 EE 87 FC 
   570)      2419.6  Rx     18EF1C8F  8  0D F1 16 00 22 00 84 03 
   571)      2420.5  Rx     18EF1C8F  8  0D F2 13 00 0A 00 0D 00 
   572)      2427.6  Rx     18EFCD1C  8  A0 00 00 00 00 00 00 00 
   573)      2428.2  Rx     18EF1CCD  8  A0 00 00 00 01 00 00 00 
   574)      2438.6  Rx     18EF1C8F  8  0D 00 00 9C 9F EE 88 FC 
   575)      2439.5  Rx     18EF1C8F  8  0D 01 15 00 23 00 83 03 
   576)      2440.5  Rx     18EF1C8F  8  0D 02 14 00 07 00 0A 00 
   577)      2458.6  Rx     18EF1C8F  8  0D 10 00 BF ED EE 87 FC 
   578)      2459.5  Rx     18EF1C8F  8  0D 11 17 00 22 00 83 03 
   579)      2460.6  Rx     18EF1C8F  8  0D 12 15 00 08 00 0E 00 
   580)      2463.5  Rx     18EF1CCD  8  A2 00 00 00 00 00 00 00 
   581)      2478.6  Rx     18EF1C8F  8  0D 20 00 DC 3B EF 88 FC 
   582)      2479.5  Rx     18EF1C8F  8  0D 21 17 00 22 00 81 03 
   583)      2480.5  Rx     18EF1C8F  8  0D 22 16 00 0C 00 0F 00 
   584)      2483.5  Rx     18EF1CCD  8  A3 00 00 00 00 FA FF FA 
   585)      2498.6  Rx     18EF1C8F  8  0D 30 00 FC 89 EF 88 FC 
   586)      2499.5  Rx     18EF1C8F  8  0D 31 16 00 22 00 84 03 
   587)      2500.5  Rx     18EF1C8F  8  0D 32 14 00 0C 00 10 00 
   588)      2503.5  Rx     18EF1CCD  8  A1 40 FA FF FF FF 00 00 
   589)      2518.6  Rx     18EF1C8F  8  0D 40 00 1F D8 EF 88 FC 
   590)      2519.5  Rx     18EF1C8F  8  0D 41 18 00 20 00 83 03 
   591)      2520.5  Rx     18EF1C8F  8  0D 42 15 00 0B 00 0D 00 
   592)      2538.6  Rx     18EF1C8F  8  0D 50 00 3C 26 F0 88 FC 
   593)      2539.5  Rx     18EF1C8F  8  0D 51 16 00 22 00 83 03 
   594)      2540.5  Rx     18EF1C8F  8  0D 52 14 00 0A 00 0E 00 
   595)      2547.6  Rx     18EFCD1C  8  A1 01 00 00 FA FF FF FF 
   596)      2558.6  Rx     18EF1C8F  8  0D 60 00 5C 74 F0 88 FC 
   597)      2559.5  Rx     18EF1C8F  8  0D 61 15 00 22 00 84 03 
   598)      2560.5  Rx     18EF1C8F  8  0D 62 16 00 09 00 10 00 
   599)      2563.7  Rx     18EF1CCD  8  A2 00 00 00 00 00 00 00 
   600)      2567.5  Rx     18EFCD1C  8  A0 00 14 00 00 00 00 00 
   601)      2568.2  Rx     18EF1CCD  8  A0 00 14 00 7B 07 00 00 
   602)      2578.6  Rx     18EF1C8F  8  0D 70 00 7F C2 F0 87 FC 
   603)      2579.5  Rx     18EF1C8F  8  0D 71 16 00 22 00 83 03 
   604)      2580.5  Rx     18EF1C8F  8  0D 72 15 00 0A 00 0D 00 
   605)      2583.8  Rx     18EF1CCD  8  A3 00 00 00 00 FA FF FA 
   606)      2587.5  Rx     18EFCD1C  8  A0 00 2A 00 00 00 00 00 
   607)      2588.2  Rx     18EF1CCD  8  A0 00 2A 00 75 05 00 00 
   608)      2598.6  Rx     18EF1C8F  8  0D 80 00 9C 10 F1 88 FC 
   609)      2599.5  Rx     18EF1C8F  8  0D 81 15 00 23 00 82 03 
   610)      2600.5  Rx     18EF1C8F  8  0D 82 14 00 0A 00 0D 00 
   611)      2603.8  Rx     18EF1CCD  8  A1 40 FA FF FF FF 00 00 
   612)      2607.5  Rx     18EFCD1C  8  A0 00 1B 00 00 00 00 00 
   613)      2608.2  Rx     18EF1CCD  8  A0 00 1B 00 00 00 00 00 
   614)      2618.6  Rx     18EF1C8F  8  0D 90 00 BF 5E F1 87 FC 
   615)      2619.5  Rx     18EF1C8F  8  0D 91 15 00 22 00 83 03 
   616)      2620.5  Rx     18EF1C8F  8  0D 92 16 00 0B 00 0E 00 
   617)      2627.5  Rx     18EFCD1C  8  A0 00 00 00 00 00 00 00 
   618)      2628.2  Rx     18EF1CCD  8  A0 00 00 00 01 00 00 00 
   619)      2638.6  Rx     18EF1C8F  8  0D A0 00 DC AC F1 87 FC 
   620)      2639.5  Rx     18EF1C8F  8  0D A1 15 00 22 00 83 03 
   621)      2640.5  Rx     18EF1C8F  8  0D A2 15 00 0A 00 0E 00 
   622)      2658.6  Rx     18EF1C8F  8  0D B0 00 FC FA F1 87 FC 
   623)      2659.5  Rx     18EF1C8F  8  0D B1 16 00 22 00 83 03 
   624)      2660.5  Rx     18EF1C8F  8  0D B2 14 00 0A 00 0F 00 
   625)      2663.9  Rx     18EF1CCD  8  A2 00 00 00 00 00 00 00 
   626)      2678.6  Rx     18EF1C8F  8  0D C0 00 1F 49 F2 87 FC 
   627)      2679.5  Rx     18EF1C8F  8  0D C1 16 00 21 00 84 03 
   628)      2680.5  Rx     18EF1C8F  8  0D C2 14 00 0A 00 0E 00 
   629)      2683.9  Rx     18EF1CCD  8  A3 00 00 00 00 FA FF FA 
   630)      2688.8  Rx     18FEF31C  8  5E 29 80 99 AC CE 2C 89 
   631)      2689.4  Rx     18FEE81C  8  97 4F 00 00 00 00 10 52 
   632)      2689.9  Rx     18FEE61C  8  88 0D 0E 09 57 29 00 00 
   633)      2690.5  Rx     19F8021C  8  A1 FC 86 6C 00 00 FF FF 
   634)      2698.6  Rx     18EF1C8F  8  0D D0 00 3C 97 F2 87 FC 
   635)      2699.5  Rx     18EF1C8F  8  0D D1 16 00 21 00 83 03 
   636)      2700.5  Rx     18EF1C8F  8  0D D2 13 00 0C 00 0C 00 
   637)      2704.0  Rx     18EF1CCD  8  A1 40 FA FF FF FF 00 00 
   638)      2718.6  Rx     18EF1C8F  8  0D E0 00 5C E5 F2 87 FC 
   639)      2719.5  Rx     18EF1C8F  8  0D E1 18 00 22 00 81 03 
   640)      2720.5  Rx     18EF1C8F  8  0D E2 16 00 0A 00 0E 00 
   641)      2734.4  Rx     19F8051C  8  20 2F A1 EE 50 A3 A3 86 
   642)      2735.0  Rx     19F8051C  8  21 1E 80 CE 24 2F E1 A6 
   643)      2735.6  Rx     19F8051C  8  22 98 06 E0 65 4B B4 F3 
   644)      2736.1  Rx     19F8051C  8  23 91 CB 02 41 40 68 08 
   645)      2736.7  Rx     19F8051C  8  24 00 00 00 00 20 00 0A 
   646)      2737.3  Rx     19F8051C  8  25 64 00 64 00 DC 05 00 
   647)      2737.9  Rx     19F8051C  8  26 00 01 0F 00 00 00 FF 
   648)      2738.6  Rx     18EF1C8F  8  0D F0 00 7F 33 F3 87 FC 
   649)      2739.5  Rx     18EF1C8F  8  0D F1 18 00 23 00 83 03 
   650)      2740.5  Rx     18EF1C8F  8  0D F2 14 00 0B 00 0E 00 
   651)      2747.6  Rx     18EFCD1C  8  A1 01 00 00 FA FF FF FF 
   652)      2758.6  Rx     18EF1C8F  8  0D 00 00 9F 81 F3 87 FC 
   653)      2759.5  Rx     18EF1C8F  8  0D 01 17 00 22 00 81 03 
   654)      2760.5  Rx     18EF1C8F  8  0D 02 15 00 09 00 10 00 
   655)      2764.1  Rx     18EF1CCD  8  A2 00 00 00 00 00 00 00 
   656)      2767.5  Rx     18EFCD1C  8  A0 00 14 00 00 00 00 00 
   657)      2768.1  Rx     18EF1CCD  8  A0 00 14 00 7A 07 00 00 
   658)      2778.6  Rx     18EF1C8F  8  0D 10 00 BC CF F3 88 FC 
   659)      2779.5  Rx     18EF1C8F  8  0D 11 16 00 22 00 82 03 
   660)      2780.5  Rx     18EF1C8F  8  0D 12 15 00 0A 00 10 00 
   661)      2784.1  Rx     18EF1CCD  8  A3 00 00 00 00 FA FF FA 
   662)      2787.5  Rx     18EFCD1C  8  A0 00 2A 00 00 00 00 00 
   663)      2788.2  Rx     18EF1CCD  8  A0 00 2A 00 75 05 00 00 
   664)      2798.6  Rx     18EF1C8F  8  0D 20 00 DC 1D F4 88 FC 
   665)      2799.5  Rx     18EF1C8F  8  0D 21 16 00 22 00 83 03 
   666)      2800.5  Rx     18EF1C8F  8  0D 22 16 00 0A 00 0F 00 
   667)      2804.2  Rx     18EF1CCD  8  A1 40 FA FF FF FF 00 00 
   668)      2807.5  Rx     18EFCD1C  8  A0 00 1B 00 00 00 00 00 
   669)      2808.2  Rx     18EF1CCD  8  A0 00 1B 00 00 00 00 00 
   670)      2818.5  Rx     18EF1C8F  8  0D 30 00 FF 6B F4 88 FC 
   671)      2819.5  Rx     18EF1C8F  8  0D 31 16 00 22 00 84 03 
   672)      2820.5  Rx     18EF1C8F  8  0D 32 15 00 0B 00 0D 00 
   673)      2827.5  Rx     18EFCD1C  8  A0 00 00 00 00 00 00 00 
   674)      2828.2  Rx     18EF1CCD  8  A0 00 00 00 01 00 00 00 
   675)      2838.5  Rx     18EF1C8F  8  0D 40 00 1C BA F4 88 FC 
   676)      2839.5  Rx     18EF1C8F  8  0D 41 16 00 23 00 84 03 
   677)      2840.5  Rx     18EF1C8F  8  0D 42 15 00 0C 00 0F 00 
   678)      2858.6  Rx     18EF1C8F  8  0D 50 00 3C 08 F5 88 FC 
   679)      2859.5  Rx     18EF1C8F  8  0D 51 18 00 21 00 84 03 
   680)      2860.5  Rx     18EF1C8F  8  0D 52 15 00 0B 00 0F 00 
   681)      2864.3  Rx     18EF1CCD  8  A2 00 00 00 00 00 00 00 
   682)      2878.5  Rx     18EF1C8F  8  0D 60 00 5F 56 F5 88 FC 
   683)      2879.4  Rx     18EF1C8F  8  0D 61 16 00 21 00 83 03 
   684)      2880.5  Rx     18EF1C8F  8  0D 62 15 00 0A 00 0F 00 
   685)      2884.3  Rx     18EF1CCD  8  A3 00 00 00 00 FA FF FA 
   686)      2898.5  Rx     18EF1C8F  8  0D 70 00 7C A4 F5 88 FC 
   687)      2899.5  Rx     18EF1C8F  8  0D 71 16 00 22 00 82 03 
   688)      2900.5  Rx     18EF1C8F  8  0D 72 14 00 08 00 0D 00 
   689)      2904.4  Rx     18EF1CCD  8  A1 40 FA FF FF FF 00 00 
   690)      2918.5  Rx     18EF1C8F  8  0D 80 00 9C F2 F5 88 FC 
   691)      2919.5  Rx     18EF1C8F  8  0D 81 16 00 21 00 84 03 
   692)      2920.5  Rx     18EF1C8F  8  0D 82 15 00 0A 00 0F 00 
   693)      2938.5  Rx     18EF1C8F  8  0D 90 00 BC 40 F6 87 FC 
   694)      2939.5  Rx     18EF1C8F  8  0D 91 17 00 23 00 85 03 
   695)      2940.5  Rx     18EF1C8F  8  0D 92 16 00 0A 00 0E 00 
   696)      2947.5  Rx     18EFCD1C  8  A1 01 00 00 FA FF FF FF 
   697)      2958.5  Rx     18EF1C8F  8  0D A0 00 DF 8E F6 87 FC 
   698)      2959.4  Rx     18EF1C8F  8  0D A1 16 00 22 00 84 03 
   699)      2960.5  Rx     18EF1C8F  8  0D A2 16 00 0A 00 0E 00 
   700)      2964.5  Rx     18EF1CCD  8  A2 00 00 00 00 00 00 00 
   701)      2967.4  Rx     18EFCD1C  8  A0 00 14 00 00 00 00 00 
   702)      2968.1  Rx     18EF1CCD  8  A0 00 14 00 7A 07 00 00 
   703)      2978.5  Rx     18EF1C8F  8  0D B0 00 FC DC F6 88 FC 
   704)      2979.4  Rx     18EF1C8F  8  0D B1 16 00 23 00 82 03 
   705)      2980.5  Rx     18EF1C8F  8  0D B2 14 00 08 00 0F 00 
   706)      2984.6  Rx     18EF1CCD  8  A3 00 00 00 00 FA FF FA 
   707)      2987.5  Rx     18EFCD1C  8  A0 00 2A 00 00 00 00 00 
   708)      2988.1  Rx     18EF1CCD  8  A0 00 2A 00 75 05 00 00 
   709)      2998.5  Rx     18EF1C8F  8  0D C0 00 1F 2B F7 88 FC 
   710)      2999.5  Rx     18EF1C8F  8  0D C1 14 00 23 00 83 03 
   711)      3000.4  Rx     18EF1C8F  8  0D C2 14 00 08 00 0A 00 
   712)      3004.5  Rx     18EF1CCD  8  A1 40 FA FF FF FF 00 00 
   713)      3007.4  Rx     18EFCD1C  8  A0 00 1B 00 00 00 00 00 
   714)      3008.1  Rx     18EF1CCD  8  A0 00 1B 00 00 00 00 00 
   715)      3018.5  Rx     18EF1C8F  8  0D D0 00 3F 79 F7 87 FC 
   716)      3019.4  Rx     18EF1C8F  8  0D D1 16 00 24 00 81 03 
   717)      3020.5  Rx     18EF1C8F  8  0D D2 15 00 09 00 0A 00 
   718)      3027.5  Rx     18EFCD1C  8  A0 00 00 00 00 00 00 00 
   719)      3028.1  Rx     18EF1CCD  8  A0 00 00 00 01 00 00 00 
   720)      3038.5  Rx     18EF1C8F  8  0D E0 00 5C C7 F7 87 FC 
   721)      3039.5  Rx     18EF1C8F  8  0D E1 17 00 24 00 83 03 
   722)      3040.5  Rx     18EF1C8F  8  0D E2 15 00 0A 00 0F 00 
   723)      3058.5  Rx     18EF1C8F  8  0D F0 00 7C 15 F8 87 FC 
   724)      3059.5  Rx     18EF1C8F  8  0D F1 16 00 24 00 83 03 
   725)      3060.5  Rx     18EF1C8F  8  0D F2 14 00 08 00 0F 00 
   726)      3064.7  Rx     18EF1CCD  8  A2 00 00 00 00 00 00 00 
   727)      3078.6  Rx     18EF1C8F  8  0D 00 00 9C 63 F8 87 FC 
   728)      3079.5  Rx     18EF1C8F  8  0D 01 18 00 23 00 82 03 
   729)      3080.5  Rx     18EF1C8F  8  0D 02 14 00 0B 00 0F 00 
   730)      3084.8  Rx     18EF1CCD  8  A3 00 00 00 00 FA FF FA 
   731)      3098.5  Rx     18EF1C8F  8  0D 10 00 BF B1 F8 87 FC 
   732)      3099.5  Rx     18EF1C8F  8  0D 11 16 00 22 00 83 03 
   733)      3100.5  Rx     18EF1C8F  8  0D 12 14 00 09 00 0F 00 
   734)      3104.8  Rx     18EF1CCD  8  A1 40 FA FF FF FF 00 00 
   735)      3118.6  Rx     18EF1C8F  8  0D 20 00 DC FF F8 87 FC 
   736)      3119.5  Rx     18EF1C8F  8  0D 21 17 00 22 00 84 03 
   737)      3120.5  Rx     18EF1C8F  8  0D 22 15 00 0A 00 0E 00 
   738)      3138.6  Rx     18EF1C8F  8  0D 30 00 FC 4D F9 88 FC 
   739)      3139.5  Rx     18EF1C8F  8  0D 31 15 00 22 00 84 03 
   740)      3140.5  Rx     18EF1C8F  8  0D 32 16 00 0B 00 0E 00 
   741)      3147.5  Rx     18EFCD1C  8  A1 01 00 00 FA FF FF FF 
   742)      3158.6  Rx     18EF1C8F  8  0D 40 00 1C 9C F9 88 FC 
   743)      3159.5  Rx     18EF1C8F  8  0D 41 16 00 23 00 85 03 
   744)      3160.5  Rx     18EF1C8F  8  0D 42 14 00 0A 00 0E 00 
   745)      3164.9  Rx     18EF1CCD  8  A2 00 00 00 00 00 00 00 
   746)      3167.5  Rx     18EFCD1C  8  A0 00 14 00 00 00 00 00 
   747)      3168.1  Rx     18EF1CCD  8  A0 00 14 00 7B 07 00 00 
   748)      3178.6  Rx     18EF1C8F  8  0D 50 00 3F EA F9 88 FC 
   749)      3179.5  Rx     18EF1C8F  8  0D 51 17 00 21 00 83 03 
   750)      3180.5  Rx     18EF1C8F  8  0D 52 16 00 09 00 0F 00 
   751)      3185.0  Rx     18EF1CCD  8  A3 00 00 00 00 FA FF FA 
   752)      3187.5  Rx     18EFCD1C  8  A0 00 2A 00 00 00 00 00 
   753)      3188.2  Rx     18EF1CCD  8  A0 00 2A 00 75 05 00 00 
   754)      3198.6  Rx     18EF1C8F  8  0D 60 00 5C 38 FA 88 FC 
   755)      3199.5  Rx     18EF1C8F  8  0D 61 14 00 23 00 83 03 
   756)      3200.5  Rx     18EF1C8F  8  0D 62 14 00 0A 00 0D 00 
   757)      3205.1  Rx     18EF1CCD  8  A1 40 FA FF FF FF 00 00 
   758)      3207.5  Rx     18EFCD1C  8  A0 00 1B 00 00 00 00 00 
   759)      3208.1  Rx     18EF1CCD  8  A0 00 1B 00 00 00 00 00 
   760)      3218.6  Rx     18EF1C8F  8  0D 70 00 7F 86 FA 87 FC 
   761)      3219.5  Rx     18EF1C8F  8  0D 71 17 00 23 00 84 03 
   762)      3220.5  Rx     18EF1C8F  8  0D 72 15 00 0A 00 0F 00 
   763)      3227.5  Rx     18EFCD1C  8  A0 00 00 00 00 00 00 00 
   764)      3229.1  Rx     18EF1CCD  8  A0 00 00 00 01 00 00 00 
   765)      3238.6  Rx     18EF1C8F  8  0D 80 00 9C D4 FA 88 FC 
   766)      3239.5  Rx     18EF1C8F  8  0D 81 17 00 22 00 85 03 
   767)      3240.5  Rx     18EF1C8F  8  0D 82 15 00 0A 00 0D 00 
   768)      3258.6  Rx     18EF1C8F  8  0D 90 00 BC 22 FB 88 FC 
   769)      3259.5  Rx     18EF1C8F  8  0D 91 17 00 22 00 83 03 
   770)      3260.5  Rx     18EF1C8F  8  0D 92 15 00 0A 00 0E 00 
   771)      3265.2  Rx     18EF1CCD  8  A2 00 00 00 00 00 00 00 
   772)      3278.6  Rx     18EF1C8F  8  0D A0 00 DC 70 FB 88 FC 
   773)      3279.5  Rx     18EF1C8F  8  0D A1 16 00 22 00 82 03 
   774)      3280.5  Rx     18EF1C8F  8  0D A2 11 00 0B 00 0F 00 
   775)      3285.2  Rx     18EF1CCD  8  A3 00 00 00 00 FA FF FA 
   776)      3298.6  Rx     18EF1C8F  8  0D B0 00 FC BE FB 88 FC 
   777)      3299.5  Rx     18EF1C8F  8  0D B1 15 00 22 00 83 03 
   778)      3300.5  Rx     18EF1C8F  8  0D B2 14 00 0B 00 0D 00 
   779)      3305.3  Rx     18EF1CCD  8  A1 40 FA FF FF FF 00 00 
   780)      3312.4  Rx     18EFCD1C  4  01 5A 0A 00 
   781)      3312.9  Rx     18EF1CCD  4  01 0B 5A 00 
   782)      3318.6  Rx     18EF1C8F  8  0D C0 00 1C 0D FC 88 FC 
   783)      3319.5  Rx     18EF1C8F  8  0D C1 16 00 23 00 82 03 
   784)      3320.5  Rx     18EF1C8F  8  0D C2 13 00 0A 00 0F 00 
   785)      3338.6  Rx     18EF1C8F  8  0D D0 00 3F 5B FC 88 FC 
   786)      3339.5  Rx     18EF1C8F  8  0D D1 17 00 23 00 84 03 
   787)      3340.5  Rx     18EF1C8F  8  0D D2 14 00 09 00 0F 00 
   788)      3347.7  Rx     18EFCD1C  8  A1 01 00 00 FA FF FF FF 
   789)      3358.6  Rx     18EF1C8F  8  0D E0 00 5C A9 FC 88 FC 
   790)      3359.5  Rx     18EF1C8F  8  0D E1 15 00 20 00 81 03 
   791)      3360.5  Rx     18EF1C8F  8  0D E2 15 00 09 00 10 00 
   792)      3365.4  Rx     18EF1CCD  8  A2 00 00 00 00 00 00 00 
   793)      3367.5  Rx     18EFCD1C  8  A0 00 14 00 00 00 00 00 
   794)      3368.2  Rx     18EF1CCD  8  A0 00 14 00 7A 07 00 00 
   795)      3378.6  Rx     18EF1C8F  8  0D F0 00 7C F7 FC 87 FC 
   796)      3379.5  Rx     18EF1C8F  8  0D F1 17 00 22 00 85 03 
   797)      3380.5  Rx     18EF1C8F  8  0D F2 14 00 0A 00 0B 00 
   798)      3385.5  Rx     18EF1CCD  8  A3 00 00 00 00 FA FF FA 
   799)      3387.5  Rx     18EFCD1C  8  A0 00 2A 00 00 00 00 00 
   800)      3388.1  Rx     18EF1CCD  8  A0 00 2A 00 74 05 00 00 
   801)      3398.6  Rx     18EF1C8F  8  0D 00 00 9F 45 FD 88 FC 
   802)      3399.5  Rx     18EF1C8F  8  0D 01 17 00 23 00 84 03 
   803)      3400.5  Rx     18EF1C8F  8  0D 02 15 00 0B 00 0D 00 
   804)      3405.5  Rx     18EF1CCD  8  A1 40 FA FF FF FF 00 00 
   805)      3407.7  Rx     18EFCD1C  8  A0 00 1B 00 00 00 00 00 
   806)      3408.4  Rx     18EF1CCD  8  A0 00 1B 00 00 00 00 00 
   807)      3418.6  Rx     18EF1C8F  8  0D 10 00 BF 93 FD 88 FC 
   808)      3419.5  Rx     18EF1C8F  8  0D 11 17 00 23 00 83 03 
   809)      3420.5  Rx     18EF1C8F  8  0D 12 13 00 09 00 0F 00 
   810)      3427.5  Rx     18EFCD1C  8  A0 00 00 00 00 00 00 00 
   811)      3428.2  Rx     18EF1CCD  8  A0 00 00 00 01 00 00 00 
   812)      3438.6  Rx     18EF1C8F  8  0D 20 00 DC E1 FD 88 FC 
   813)      3439.5  Rx     18EF1C8F  8  0D 21 14 00 22 00 83 03 
   814)      3440.5  Rx     18EF1C8F  8  0D 22 13 00 0A 00 0B 00 
   815)      3458.6  Rx     18EF1C8F  8  0D 30 00 FC 2F FE 87 FC 
   816)      3459.5  Rx     18EF1C8F  8  0D 31 15 00 21 00 83 03 
   817)      3460.5  Rx     18EF1C8F  8  0D 32 14 00 0B 00 0E 00 
   818)      3465.7  Rx     18EF1CCD  8  A2 00 00 00 00 00 00 00 
   819)      3478.6  Rx     18EF1C8F  8  0D 40 00 1C 7E FE 88 FC 
   820)      3479.5  Rx     18EF1C8F  8  0D 41 17 00 22 00 83 03 
   821)      3480.5  Rx     18EF1C8F  8  0D 42 12 00 09 00 0D 00 
   822)      3485.7  Rx     18EF1CCD  8  A3 00 00 00 00 FA FF FA 
   823)      3498.6  Rx     18EF1C8F  8  0D 50 00 3F CC FE 88 FC 
   824)      3499.5  Rx     18EF1C8F  8  0D 51 15 00 24 00 81 03 
   825)      3500.5  Rx     18EF1C8F  8  0D 52 15 00 0C 00 0E 00 
   826)      3505.7  Rx     18EF1CCD  8  A1 40 FA FF FF FF 00 00 
   827)      3518.6  Rx     18EF1C8F  8  0D 60 00 5C 1A FF 88 FC 
   828)      3519.5  Rx     18EF1C8F  8  0D 61 16 00 21 00 86 03 
   829)      3520.5  Rx     18EF1C8F  8  0D 62 14 00 0B 00 0F 00 
   830)      3538.6  Rx     18EF1C8F  8  0D 70 00 7C 68 FF 88 FC 
   831)      3539.5  Rx     18EF1C8F  8  0D 71 16 00 22 00 84 03 
   832)      3540.5  Rx     18EF1C8F  8  0D 72 15 00 09 00 0F 00 
   833)      3547.7  Rx     18EFCD1C  8  A1 01 00 00 FA FF FF FF 
   834)      3558.6  Rx     18EF1C8F  8  0D 80 00 9C B6 FF 88 FC 
   835)      3559.5  Rx     18EF1C8F  8  0D 81 15 00 22 00 83 03 
   836)      3560.5  Rx     18EF1C8F  8  0D 82 15 00 0A 00 0D 00 
   837)      3565.8  Rx     18EF1CCD  8  A2 00 00 00 00 00 00 00 
   838)      3567.5  Rx     18EFCD1C  8  A0 00 14 00 00 00 00 00 
   839)      3568.1  Rx     18EF1CCD  8  A0 00 14 00 7A 07 00 00 
   840)      3578.6  Rx     18EF1C8F  8  0D 90 00 22 6B 66 88 FC 
   841)      3579.5  Rx     18EF1C8F  8  0D 91 15 00 22 00 83 03 
   842)      3580.5  Rx     18EF1C8F  8  0D 92 14 00 08 00 0E 00 
   843)      3585.9  Rx     18EF1CCD  8  A3 00 00 00 00 FA FF FA 
   844)      3587.6  Rx     18EFCD1C  8  A0 00 2A 00 00 00 00 00 
   845)      3588.2  Rx     18EF1CCD  8  A0 00 2A 00 75 05 00 00 
   846)      3598.6  Rx     18EF1C8F  8  0D A0 00 DF 52 00 87 FC 
   847)      3599.5  Rx     18EF1C8F  8  0D A1 16 00 21 00 82 03 
   848)      3600.5  Rx     18EF1C8F  8  0D A2 14 00 0B 00 0D 00 
   849)      3605.9  Rx     18EF1CCD  8  A1 40 FA FF FF FF 00 00 
   850)      3607.6  Rx     18EFCD1C  8  A0 00 1B 00 00 00 00 00 
   851)      3608.2  Rx     18EF1CCD  8  A0 00 1B 00 00 00 00 00 
   852)      3618.6  Rx     18EF1C8F  8  0D B0 00 FC A0 00 88 FC 
   853)      3619.5  Rx     18EF1C8F  8  0D B1 16 00 21 00 82 03 
   854)      3620.5  Rx     18EF1C8F  8  0D B2 13 00 0B 00 0D 00 
   855)      3627.5  Rx     18EFCD1C  8  A0 00 00 00 00 00 00 00 
   856)      3628.1  Rx     18EF1CCD  8  A0 00 00 00 01 00 00 00 
   857)      3638.5  Rx     18EF1C8F  8  0D C0 00 1F EF 00 88 FC 
   858)      3639.5  Rx     18EF1C8F  8  0D C1 15 00 23 00 81 03 
   859)      3640.5  Rx     18EF1C8F  8  0D C2 16 00 0B 00 0E 00 
   860)      3658.6  Rx     18EF1C8F  8  0D D0 00 3C 3D 01 88 FC 
   861)      3659.5  Rx     18EF1C8F  8  0D D1 15 00 22 00 84 03 
   862)      3660.5  Rx     18EF1C8F  8  0D D2 15 00 09 00 0E 00 
   863)      3666.1  Rx     18EF1CCD  8  A2 00 00 00 00 00 00 00 
   864)      3678.5  Rx     18EF1C8F  8  0D E0 00 5C 8B 01 88 FC 
   865)      3679.4  Rx     18EF1C8F  8  0D E1 17 00 21 00 81 03 
   866)      3680.5  Rx     18EF1C8F  8  0D E2 13 00 09 00 0D 00 
   867)      3686.1  Rx     18EF1CCD  8  A3 00 00 00 00 FA FF FA 
   868)      3689.1  Rx     18FEF31C  8  5E 29 80 99 AC CE 2C 89 
   869)      3689.7  Rx     18FEE81C  8  97 4F 00 00 00 00 10 52 
   870)      3690.3  Rx     18FEE61C  8  8C 0D 0E 09 57 29 00 00 
   871)      3690.8  Rx     19F0101C  8  A6 00 EE 50 B3 CA 86 1E 
   872)      3691.4  Rx     19F8021C  8  A6 FC 86 6C 00 00 FF FF 
   873)      3698.5  Rx     18EF1C8F  8  0D F0 00 81 D9 01 88 FC 
   874)      3699.5  Rx     18EF1C8F  8  0D F1 16 00 22 00 82 03 
   875)      3700.5  Rx     18EF1C8F  8  0D F2 14 00 0B 00 0D 00 
   876)      3706.1  Rx     18EF1CCD  8  A1 40 FA FF FF FF 00 00 
   877)      3711.2  Rx     18EF8F1C  4  01 9D F6 00 
   878)      3712.4  Rx     18EF1C8F  4  01 F7 9D 00 
   879)      3718.5  Rx     18EF1C8F  8  0D 00 00 9C 27 02 88 FC 
   880)      3719.4  Rx     18EF1C8F  8  0D 01 17 00 23 00 83 03 
   881)      3720.5  Rx     18EF1C8F  8  0D 02 14 00 0A 00 10 00 
   882)      3736.8  Rx     19F8051C  8  40 2F A6 EE 50 B3 CA 86 
   883)      3737.3  Rx     19F8051C  8  41 1E 80 CE 24 2F E1 A6 
   884)      3737.9  Rx     19F8051C  8  42 98 06 E0 65 4B B4 F3 
   885)      3738.4  Rx     19F8051C  8  43 91 CB 02 41 40 68 08 
   886)      3739.0  Rx     18EF1C8F  8  0D 10 00 BF 75 02 88 FC 
   887)      3739.5  Rx     18EF1C8F  8  0D 11 16 00 23 00 84 03 
   888)      3740.1  Rx     19F8051C  8  44 00 00 00 00 20 00 0A 
   889)      3740.7  Rx     18EF1C8F  8  0D 12 14 00 09 00 11 00 
   890)      3741.2  Rx     19F8051C  8  45 64 00 64 00 DC 05 00 
   891)      3741.8  Rx     19F8051C  8  46 00 01 0F 00 00 00 FF 
   892)      3747.5  Rx     18EFCD1C  8  A1 01 00 00 FA FF FF FF 
   893)      3758.5  Rx     18EF1C8F  8  0D 20 00 E1 C3 02 87 FC 
   894)      3759.4  Rx     18EF1C8F  8  0D 21 16 00 23 00 85 03 
   895)      3760.5  Rx     18EF1C8F  8  0D 22 13 00 08 00 0F 00 
   896)      3766.2  Rx     18EF1CCD  8  A2 00 00 00 00 00 00 00 
   897)      3767.7  Rx     18EFCD1C  8  A0 00 14 00 00 00 00 00 
   898)      3768.2  Rx     18EF1CCD  8  A0 00 14 00 7B 07 00 00 
   899)      3778.5  Rx     18EF1C8F  8  0D 30 00 FF 11 03 88 FC 
   900)      3779.4  Rx     18EF1C8F  8  0D 31 17 00 23 00 82 03 
   901)      3780.4  Rx     18EF1C8F  8  0D 32 15 00 0A 00 0E 00 
   902)      3786.3  Rx     18EF1CCD  8  A3 00 00 00 00 FA FF FA 
   903)      3787.6  Rx     18EFCD1C  8  A0 00 2A 00 00 00 00 00 
   904)      3788.3  Rx     18EF1CCD  8  A0 00 2A 00 75 05 00 00 
   905)      3798.5  Rx     18EF1C8F  8  0D 40 00 1F 60 03 87 FC 
   906)      3799.4  Rx     18EF1C8F  8  0D 41 18 00 20 00 83 03 
   907)      3800.4  Rx     18EF1C8F  8  0D 42 15 00 0B 00 0E 00 
   908)      3806.3  Rx     18EF1CCD  8  A1 40 FA FF FF FF 00 00 
   909)      3807.5  Rx     18EFCD1C  8  A0 00 1B 00 00 00 00 00 
   910)      3808.1  Rx     18EF1CCD  8  A0 00 1B 00 00 00 00 00 
   911)      3818.5  Rx     18EF1C8F  8  0D 50 00 3C AE 03 88 FC 
   912)      3819.4  Rx     18EF1C8F  8  0D 51 14 00 22 00 82 03 
   913)      3820.4  Rx     18EF1C8F  8  0D 52 14 00 0C 00 0E 00 
   914)      3827.4  Rx     18EFCD1C  8  A0 00 00 00 00 00 00 00 
   915)      3828.0  Rx     18EF1CCD  8  A0 00 00 00 01 00 00 00 
   916)      3838.5  Rx     18EF1C8F  8  0D 60 00 5F FC 03 88 FC 
   917)      3839.4  Rx     18EF1C8F  8  0D 61 16 00 22 00 81 03 
   918)      3840.4  Rx     18EF1C8F  8  0D 62 15 00 0A 00 0F 00 
   919)      3858.5  Rx     18EF1C8F  8  0D 70 00 7C 4A 04 87 FC 
   920)      3859.4  Rx     18EF1C8F  8  0D 71 16 00 23 00 83 03 
   921)      3860.4  Rx     18EF1C8F  8  0D 72 15 00 0A 00 0B 00 
   922)      3866.4  Rx     18EF1CCD  8  A2 00 00 00 00 00 00 00 
   923)      3878.5  Rx     18EF1C8F  8  0D 80 00 9F 98 04 88 FC 
   924)      3879.4  Rx     18EF1C8F  8  0D 81 16 00 23 00 84 03 
   925)      3880.4  Rx     18EF1C8F  8  0D 82 15 00 08 00 0B 00 
   926)      3886.4  Rx     18EF1CCD  8  A3 00 00 00 00 FA FF FA 
   927)      3898.5  Rx     18EF1C8F  8  0D 90 00 BF E6 04 88 FC 
   928)      3899.4  Rx     18EF1C8F  8  0D 91 14 00 23 00 82 03 
   929)      3900.4  Rx     18EF1C8F  8  0D 92 16 00 09 00 0D 00 
   930)      3906.5  Rx     18EF1CCD  8  A1 40 FA FF FF FF 00 00 
   931)      3918.5  Rx     18EF1C8F  8  0D A0 00 DC 34 05 87 FC 
   932)      3919.4  Rx     18EF1C8F  8  0D A1 15 00 23 00 84 03 
   933)      3920.4  Rx     18EF1C8F  8  0D A2 16 00 0A 00 0E 00 
   934)      3938.5  Rx     18EF1C8F  8  0D B0 00 FF 82 05 88 FC 
   935)      3939.4  Rx     18EF1C8F  8  0D B1 17 00 21 00 84 03 
   936)      3940.4  Rx     18EF1C8F  8  0D B2 13 00 0D 00 12 00 
   937)      3947.4  Rx     18EFCD1C  8  A1 01 00 00 FA FF FF FF 
   938)      3958.5  Rx     18EF1C8F  8  0D C0 00 1C D1 05 88 FC 
   939)      3959.4  Rx     18EF1C8F  8  0D C1 17 00 21 00 83 03 
   940)      3960.4  Rx     18EF1C8F  8  0D C2 14 00 0C 00 0D 00 
   941)      3966.6  Rx     18EF1CCD  8  A2 00 00 00 00 00 00 00 
   942)      3967.6  Rx     18EFCD1C  8  A0 00 14 00 00 00 00 00 
   943)      3968.2  Rx     18EF1CCD  8  A0 00 14 00 7B 07 00 00 
   944)      3978.5  Rx     18EF1C8F  8  0D D0 00 3F 1F 06 87 FC 
   945)      3979.4  Rx     18EF1C8F  8  0D D1 16 00 20 00 83 03 
   946)      3980.4  Rx     18EF1C8F  8  0D D2 14 00 09 00 0E 00 
   947)      3986.7  Rx     18EF1CCD  8  A3 00 00 00 00 FA FF FA 
   948)      3987.6  Rx     18EFCD1C  8  A0 00 2A 00 00 00 00 00 
   949)      3988.3  Rx     18EF1CCD  8  A0 00 2A 00 75 05 00 00 
   950)      3998.5  Rx     18EF1C8F  8  0D E0 00 5F 6D 06 87 FC 
   951)      3999.4  Rx     18EF1C8F  8  0D E1 17 00 21 00 85 03 
   952)      4000.4  Rx     18EF1C8F  8  0D E2 12 00 08 00 11 00 
   953)      4006.7  Rx     18EF1CCD  8  A1 40 FA FF FF FF 00 00 
   954)      4007.6  Rx     18EFCD1C  8  A0 00 1B 00 00 00 00 00 
   955)      4008.3  Rx     18EF1CCD  8  A0 00 1B 00 00 00 00 00 
   956)      4018.5  Rx     18EF1C8F  8  0D F0 00 7F BB 06 88 FC 
   957)      4019.4  Rx     18EF1C8F  8  0D F1 16 00 21 00 85 03 
   958)      4020.4  Rx     18EF1C8F  8  0D F2 15 00 0A 00 0D 00 
   959)      4027.3  Rx     18EFCD1C  8  A0 00 00 00 00 00 00 00 
   960)      4028.0  Rx     18EF1CCD  8  A0 00 00 00 01 00 00 00 
   961)      4038.5  Rx     18EF1C8F  8  0D 00 00 9F 09 07 88 FC 
   962)      4039.4  Rx     18EF1C8F  8  0D 01 15 00 24 00 85 03 
   963)      4040.4  Rx     18EF1C8F  8  0D 02 13 00 0A 00 0B 00 
   964)      4058.5  Rx     18EF1C8F  8  0D 10 00 BC 57 07 88 FC 
   965)      4059.4  Rx     18EF1C8F  8  0D 11 16 00 22 00 84 03 
   966)      4060.4  Rx     18EF1C8F  8  0D 12 15 00 0C 00 0B 00 
   967)      4066.8  Rx     18EF1CCD  8  A2 00 00 00 00 00 00 00 
   968)      4078.5  Rx     18EF1C8F  8  0D 20 00 DF A5 07 87 FC 
   969)      4079.4  Rx     18EF1C8F  8  0D 21 18 00 21 00 82 03 
   970)      4080.4  Rx     18EF1C8F  8  0D 22 15 00 0A 00 10 00 
   971)      4086.9  Rx     18EF1CCD  8  A3 00 00 00 00 FA FF FA 
   972)      4098.5  Rx     18EF1C8F  8  0D 30 00 FC F3 07 87 FC 
   973)      4099.4  Rx     18EF1C8F  8  0D 31 16 00 20 00 84 03 
   974)      4100.4  Rx     18EF1C8F  8  0D 32 15 00 0A 00 10 00 
   975)      4106.9  Rx     18EF1CCD  8  A1 40 FA FF FF FF 00 00 
   976)      4118.5  Rx     18EF1C8F  8  0D 40 00 1F 42 08 88 FC 
   977)      4119.4  Rx     18EF1C8F  8  0D 41 16 00 22 00 82 03 
   978)      4120.4  Rx     18EF1C8F  8  0D 42 15 00 0B 00 10 00 
   979)      4138.5  Rx     18EF1C8F  8  0D 50 00 3C 90 08 88 FC 
   980)      4139.4  Rx     18EF1C8F  8  0D 51 16 00 21 00 85 03 
   981)      4140.4  Rx     18EF1C8F  8  0D 52 15 00 0B 00 0E 00 
   982)      4147.5  Rx     18EFCD1C  8  A1 01 00 00 FA FF FF FF 
   983)      4158.5  Rx     18EF1C8F  8  0D 60 00 5F DE 08 88 FC 
   984)      4159.4  Rx     18EF1C8F  8  0D 61 15 00 23 00 81 03 
   985)      4160.4  Rx     18EF1C8F  8  0D 62 16 00 08 00 0E 00 
   986)      4167.1  Rx     18EF1CCD  8  A2 00 00 00 00 00 00 00 
   987)      4167.6  Rx     18EFCD1C  8  A0 00 14 00 00 00 00 00 
   988)      4168.2  Rx     18EF1CCD  8  A0 00 14 00 7A 07 00 00 
   989)      4178.5  Rx     18EF1C8F  8  0D 70 00 7F 2C 09 88 FC 
   990)      4179.4  Rx     18EF1C8F  8  0D 71 15 00 22 00 84 03 
   991)      4180.4  Rx     18EF1C8F  8  0D 72 14 00 08 00 0B 00 
   992)      4187.1  Rx     18EF1CCD  8  A3 00 00 00 00 FA FF FA 
   993)      4187.7  Rx     18EFCD1C  8  A0 00 2A 00 00 00 00 00 
   994)      4188.3  Rx     18EF1CCD  8  A0 00 2A 00 74 05 00 00 
   995)      4198.5  Rx     18EF1C8F  8  0D 80 00 9C 7A 09 88 FC 
   996)      4199.4  Rx     18EF1C8F  8  0D 81 17 00 20 00 82 03 
   997)      4200.4  Rx     18EF1C8F  8  0D 82 14 00 0A 00 0D 00 
   998)      4207.1  Rx     18EF1CCD  8  A1 40 FA FF FF FF 00 00 
   999)      4207.7  Rx     18EFCD1C  8  A0 00 1B 00 00 00 00 00 
  1000)      4208.4  Rx     18EF1CCD  8  A0 00 1B 00 00 00 00 00 
  1001)      4218.5  Rx     18EF1C8F  8  0D 90 00 BF C8 09 88 FC 
  1002)      4219.4  Rx     18EF1C8F  8  0D 91 16 00 23 00 82 03 
  1003)      4220.4  Rx     18EF1C8F  8  0D 92 16 00 0B 00 0E 00 
  1004)      4227.6  Rx     18EFCD1C  8  A0 00 00 00 00 00 00 00 
  1005)      4228.2  Rx     18EF1CCD  8  A0 00 00 00 01 00 00 00 
  1006)      4238.5  Rx     18EF1C8F  8  0D A0 00 DF 16 0A 87 FC 
  1007)      4239.4  Rx     18EF1C8F  8  0D A1 16 00 22 00 84 03 
  1008)      4240.4  Rx     18EF1C8F  8  0D A2 12 00 0B 00 0E 00 
  1009)      4258.5  Rx     18EF1C8F  8  0D B0 00 FC 64 0A 88 FC 
  1010)      4259.4  Rx     18EF1C8F  8  0D B1 18 00 24 00 83 03 
  1011)      4260.4  Rx     18EF1C8F  8  0D B2 13 00 0A 00 0F 00 
  1012)      4267.3  Rx     18EF1CCD  8  A2 00 00 00 00 00 00 00 
  1013)      4278.5  Rx     18EF1C8F  8  0D C0 00 1F B3 0A 88 FC 
  1014)      4279.4  Rx     18EF1C8F  8  0D C1 16 00 22 00 84 03 
  1015)      4280.4  Rx     18EF1C8F  8  0D C2 15 00 0B 00 0F 00 
  1016)      4287.3  Rx     18EF1CCD  8  A3 00 00 00 00 FA FF FA 
  1017)      4298.5  Rx     18EF1C8F  8  0D D0 00 3C 01 0B 87 FC 
  1018)      4299.4  Rx     18EF1C8F  8  0D D1 15 00 22 00 83 03 
  1019)      4300.4  Rx     18EF1C8F  8  0D D2 13 00 0A 00 0E 00 
  1020)      4307.4  Rx     18EF1CCD  8  A1 40 FA FF FF FF 00 00 
  1021)      4318.5  Rx     18EF1C8F  8  0D E0 00 5F 4F 0B 88 FC 
  1022)      4319.4  Rx     18EF1C8F  8  0D E1 15 00 23 00 83 03 
  1023)      4320.4  Rx     18EF1C8F  8  0D E2 15 00 09 00 0F 00 
  1024)      4338.5  Rx     18EF1C8F  8  0D F0 00 7C 9D 0B 88 FC 
  1025)      4339.4  Rx     18EF1C8F  8  0D F1 15 00 24 00 83 03 
  1026)      4340.4  Rx     18EF1C8F  8  0D F2 15 00 09 00 0D 00 
  1027)      4347.6  Rx     18EFCD1C  8  A1 01 00 00 FA FF FF FF 
  1028)      4358.5  Rx     18EF1C8F  8  0D 00 00 9C EB 0B 88 FC 
  1029)      4359.4  Rx     18EF1C8F  8  0D 01 17 00 24 00 84 03 
  1030)      4360.4  Rx     18EF1C8F  8  0D 02 13 00 09 00 0E 00 
  1031)      4367.4  Rx     18EFCD1C  8  A0 00 14 00 00 00 00 00 
  1032)      4368.0  Rx     18EF1CCD  8  A2 00 00 00 00 00 00 00 
  1033)      4368.5  Rx     18EF1CCD  8  A0 00 14 00 7B 07 00 00 
  1034)      4378.5  Rx     18EF1C8F  8  0D 10 00 BF 39 0C 87 FC 
  1035)      4379.4  Rx     18EF1C8F  8  0D 11 16 00 22 00 83 03 
  1036)      4380.4  Rx     18EF1C8F  8  0D 12 13 00 08 00 0E 00 
  1037)      4387.4  Rx     18EFCD1C  8  A0 00 2A 00 00 00 00 00 
  1038)      4387.9  Rx     18EF1CCD  8  A3 00 00 00 00 FA FF FA 
  1039)      4388.6  Rx     18EF1CCD  8  A0 00 2A 00 74 05 00 00 
  1040)      4398.5  Rx     18EF1C8F  8  0D 20 00 DF 87 0C 88 FC 
  1041)      4399.4  Rx     18EF1C8F  8  0D 21 17 00 24 00 82 03 
  1042)      4400.4  Rx     18EF1C8F  8  0D 22 14 00 08 00 0F 00 
  1043)      4407.4  Rx     18EFCD1C  8  A0 00 1B 00 00 00 00 00 
  1044)      4408.0  Rx     18EF1CCD  8  A1 40 FA FF FF FF 00 00 
  1045)      4408.6  Rx     18EF1CCD  8  A0 00 1B 00 00 00 00 00 
  1046)      4418.5  Rx     18EF1C8F  8  0D 30 00 FF D5 0C 88 FC 
  1047)      4419.4  Rx     18EF1C8F  8  0D 31 15 00 22 00 83 03 
  1048)      4420.4  Rx     18EF1C8F  8  0D 32 17 00 0A 00 11 00 
  1049)      4427.4  Rx     18EFCD1C  8  A0 00 00 00 00 00 00 00 
  1050)      4428.1  Rx     18EF1CCD  8  A0 00 00 00 01 00 00 00 
  1051)      4438.5  Rx     18EF1C8F  8  0D 40 00 1C 24 0D 88 FC 
  1052)      4439.4  Rx     18EF1C8F  8  0D 41 17 00 21 00 85 03 
  1053)      4440.4  Rx     18EF1C8F  8  0D 42 17 00 0A 00 0D 00 
  1054)      4458.5  Rx     18EF1C8F  8  0D 50 00 3F 72 0D 88 FC 
  1055)      4459.4  Rx     18EF1C8F  8  0D 51 15 00 22 00 83 03 
  1056)      4460.4  Rx     18EF1C8F  8  0D 52 15 00 0C 00 0E 00 
  1057)      4467.8  Rx     18EF1CCD  8  A2 00 00 00 00 00 00 00 
  1058)      4478.5  Rx     18EF1C8F  8  0D 60 00 5C C0 0D 88 FC 
  1059)      4479.4  Rx     18EF1C8F  8  0D 61 14 00 23 00 82 03 
  1060)      4480.5  Rx     18EF1C8F  8  0D 62 14 00 0C 00 0E 00 
  1061)      4487.8  Rx     18EF1CCD  8  A3 00 00 00 00 FA FF FA 
  1062)      4498.5  Rx     18EF1C8F  8  0D 70 00 7F 0E 0E 88 FC 
  1063)      4499.5  Rx     18EF1C8F  8  0D 71 16 00 21 00 83 03 
  1064)      4500.4  Rx     18EF1C8F  8  0D 72 15 00 09 00 0D 00 
  1065)      4507.8  Rx     18EF1CCD  8  A1 40 FA FF FF FF 00 00 
  1066)      4518.5  Rx     18EF1C8F  8  0D 80 00 9C 5C 0E 88 FC 
  1067)      4519.5  Rx     18EF1C8F  8  0D 81 15 00 21 00 83 03 
  1068)      4520.5  Rx     18EF1C8F  8  0D 82 15 00 0A 00 0E 00 
  1069)      4538.5  Rx     18EF1C8F  8  0D 90 00 BC AA 0E 88 FC 
  1070)      4539.5  Rx     18EF1C8F  8  0D 91 17 00 21 00 83 03 
  1071)      4540.5  Rx     18EF1C8F  8  0D 92 15 00 0B 00 0E 00 
  1072)      4547.6  Rx     18EFCD1C  8  A1 01 00 00 FA FF FF FF 
  1073)      4558.5  Rx     18EF1C8F  8  0D A0 00 DF F8 0E 88 FC 
  1074)      4559.5  Rx     18EF1C8F  8  0D A1 18 00 21 00 82 03 
  1075)      4560.5  Rx     18EF1C8F  8  0D A2 14 00 09 00 0E 00 
  1076)      4567.4  Rx     18EFCD1C  8  A0 00 14 00 00 00 00 00 
  1077)      4568.0  Rx     18EF1CCD  8  A2 00 00 00 00 00 00 00 
  1078)      4569.0  Rx     18EF1CCD  8  A0 00 14 00 7A 07 00 00 
  1079)      4578.6  Rx     18EF1C8F  8  0D B0 00 FC 46 0F 88 FC 
  1080)      4579.4  Rx     18EF1C8F  8  0D B1 16 00 23 00 84 03 
  1081)      4580.5  Rx     18EF1C8F  8  0D B2 15 00 0B 00 0F 00 
  1082)      4587.4  Rx     18EFCD1C  8  A0 00 2A 00 00 00 00 00 
  1083)      4588.1  Rx     18EF1CCD  8  A3 00 00 00 00 FA FF FA 
  1084)      4589.0  Rx     18EF1CCD  8  A0 00 2A 00 75 05 00 00 
  1085)      4598.5  Rx     18EF1C8F  8  0D C0 00 1F 95 0F 88 FC 
  1086)      4599.5  Rx     18EF1C8F  8  0D C1 17 00 22 00 84 03 
  1087)      4600.4  Rx     18EF1C8F  8  0D C2 15 00 07 00 09 00 
  1088)      4607.4  Rx     18EFCD1C  8  A0 00 1B 00 00 00 00 00 
  1089)      4608.1  Rx     18EF1CCD  8  A1 40 FA FF FF FF 00 00 
  1090)      4609.1  Rx     18EF1CCD  8  A0 00 1B 00 00 00 00 00 
  1091)      4618.6  Rx     18EF1C8F  8  0D D0 00 3F E3 0F 88 FC 
  1092)      4619.4  Rx     18EF1C8F  8  0D D1 17 00 25 00 83 03 
  1093)      4620.5  Rx     18EF1C8F  8  0D D2 14 00 0C 00 0A 00 
  1094)      4627.4  Rx     18EFCD1C  8  A0 00 00 00 00 00 00 00 
  1095)      4628.2  Rx     18EF1CCD  8  A0 00 00 00 01 00 00 00 
  1096)      4638.5  Rx     18EF1C8F  8  0D E0 00 5C 31 10 88 FC 
  1097)      4639.5  Rx     18EF1C8F  8  0D E1 15 00 22 00 83 03 
  1098)      4640.5  Rx     18EF1C8F  8  0D E2 12 00 0A 00 0E 00 
  1099)      4658.5  Rx     18EF1C8F  8  0D F0 00 7F 7F 10 87 FC 
  1100)      4659.5  Rx     18EF1C8F  8  0D F1 18 00 22 00 84 03 
  1101)      4660.5  Rx     18EF1C8F  8  0D F2 14 00 09 00 0F 00 
  1102)      4668.2  Rx     18EF1CCD  8  A2 00 00 00 00 00 00 00 
  1103)      4678.6  Rx     18EF1C8F  8  0D 00 00 9C CD 10 88 FC 
  1104)      4679.5  Rx     18EF1C8F  8  0D 01 15 00 23 00 84 03 
  1105)      4680.5  Rx     18EF1C8F  8  0D 02 14 00 0A 00 0D 00 
  1106)      4688.3  Rx     18EF1CCD  8  A3 00 00 00 00 FA FF FA 
  1107)      4688.8  Rx     18FEF31C  8  5E 29 80 99 AC CE 2C 89 
  1108)      4689.4  Rx     18FEE81C  8  97 4F 00 00 00 00 10 52 
  1109)      4689.9  Rx     18FEE61C  8  90 0D 0E 09 57 29 00 00 
  1110)      4690.5  Rx     19F8021C  8  AB FC 86 6C 00 00 FF FF 
  1111)      4698.5  Rx     18EF1C8F  8  0D 10 00 BF 1B 11 88 FC 
  1112)      4699.5  Rx     18EF1C8F  8  0D 11 16 00 23 00 82 03 
  1113)      4700.5  Rx     18EF1C8F  8  0D 12 14 00 09 00 0E 00 
  1114)      4708.3  Rx     18EF1CCD  8  A1 40 FA FF FF FF 00 00 
  1115)      4718.6  Rx     18EF1C8F  8  0D 20 00 DF 69 11 88 FC 
  1116)      4719.5  Rx     18EF1C8F  8  0D 21 18 00 21 00 83 03 
  1117)      4720.5  Rx     18EF1C8F  8  0D 22 15 00 08 00 0D 00 
  1118)      4735.0  Rx     19F8051C  8  60 2F AB EE 50 C3 F1 86 
  1119)      4735.5  Rx     19F8051C  8  61 1E 80 CE 24 2F E1 A6 
  1120)      4736.0  Rx     19F8051C  8  62 98 06 E0 65 4B B4 F3 
  1121)      4736.6  Rx     19F8051C  8  63 91 CB 02 41 40 68 08 
  1122)      4737.2  Rx     19F8051C  8  64 00 00 00 00 20 00 0A 
  1123)      4737.7  Rx     19F8051C  8  65 64 00 64 00 DC 05 00 
  1124)      4738.3  Rx     19F8051C  8  66 00 01 0F 00 00 00 FF 
  1125)      4738.9  Rx     18EF1C8F  8  0D 30 00 FF B7 11 87 FC 
  1126)      4739.5  Rx     18EF1C8F  8  0D 31 17 00 22 00 83 03 
  1127)      4740.5  Rx     18EF1C8F  8  0D 32 15 00 07 00 0F 00 
  1128)      4747.5  Rx     18EFCD1C  8  A1 01 00 00 FA FF FF FF 
  1129)      4758.6  Rx     18EF1C8F  8  0D 40 00 1F 06 12 87 FC 
  1130)      4759.5  Rx     18EF1C8F  8  0D 41 15 00 21 00 84 03 
  1131)      4760.5  Rx     18EF1C8F  8  0D 42 15 00 0A 00 0E 00 
  1132)      4767.4  Rx     18EFCD1C  8  A0 00 14 00 00 00 00 00 
  1133)      4768.1  Rx     18EF1CCD  8  A0 00 14 00 7B 07 00 00 
  1134)      4768.6  Rx     18EF1CCD  8  A2 00 00 00 00 00 00 00 
  1135)      4778.5  Rx     18EF1C8F  8  0D 50 00 3C 54 12 88 FC 
  1136)      4779.5  Rx     18EF1C8F  8  0D 51 19 00 24 00 82 03 
  1137)      4780.5  Rx     18EF1C8F  8  0D 52 14 00 09 00 0C 00 
  1138)      4787.5  Rx     18EFCD1C  8  A0 00 2A 00 00 00 00 00 
  1139)      4788.1  Rx     18EF1CCD  8  A0 00 2A 00 75 05 00 00 
  1140)      4788.7  Rx     18EF1CCD  8  A3 00 00 00 00 FA FF FA 
  1141)      4798.6  Rx     18EF1C8F  8  0D 60 00 5F A2 12 87 FC 
  1142)      4799.5  Rx     18EF1C8F  8  0D 61 16 00 21 00 84 03 
  1143)      4800.5  Rx     18EF1C8F  8  0D 62 14 00 0B 00 0E 00 
  1144)      4807.4  Rx     18EFCD1C  8  A0 00 1B 00 00 00 00 00 
  1145)      4808.1  Rx     18EF1CCD  8  A0 00 1B 00 00 00 00 00 
  1146)      4808.6  Rx     18EF1CCD  8  A1 40 FA FF FF FF 00 00 
  1147)      4818.6  Rx     18EF1C8F  8  0D 70 00 7F F0 12 87 FC 
  1148)      4819.5  Rx     18EF1C8F  8  0D 71 16 00 21 00 84 03 
  1149)      4820.5  Rx     18EF1C8F  8  0D 72 16 00 0A 00 0D 00 
  1150)      4827.4  Rx     18EFCD1C  8  A0 00 00 00 00 00 00 00 
  1151)      4828.1  Rx     18EF1CCD  8  A0 00 00 00 01 00 00 00 
  1152)      4838.6  Rx     18EF1C8F  8  0D 80 00 9C 3E 13 87 FC 
  1153)      4839.5  Rx     18EF1C8F  8  0D 81 15 00 23 00 85 03 
  1154)      4840.5  Rx     18EF1C8F  8  0D 82 15 00 0A 00 0F 00 
  1155)      4858.6  Rx     18EF1C8F  8  0D 90 00 BF 8C 13 87 FC 
  1156)      4859.5  Rx     18EF1C8F  8  0D 91 15 00 23 00 83 03 
  1157)      4860.5  Rx     18EF1C8F  8  0D 92 14 00 09 00 0F 00 
  1158)      4868.7  Rx     18EF1CCD  8  A2 00 00 00 00 00 00 00 
  1159)      4878.5  Rx     18EF1C8F  8  0D A0 00 DC DA 13 87 FC 
  1160)      4879.5  Rx     18EF1C8F  8  0D A1 16 00 22 00 83 03 
  1161)      4880.5  Rx     18EF1C8F  8  0D A2 13 00 09 00 10 00 
  1162)      4888.7  Rx     18EF1CCD  8  A3 00 00 00 00 FA FF FA 
  1163)      4898.6  Rx     18EF1C8F  8  0D B0 00 FF 28 14 88 FC 
  1164)      4899.5  Rx     18EF1C8F  8  0D B1 16 00 22 00 85 03 
  1165)      4900.5  Rx     18EF1C8F  8  0D B2 14 00 0B 00 10 00 
  1166)      4908.7  Rx     18EF1CCD  8  A1 40 FA FF FF FF 00 00 
  1167)      4918.6  Rx     18EF1C8F  8  0D C0 00 1F 77 14 87 FC 
  1168)      4919.5  Rx     18EF1C8F  8  0D C1 16 00 21 00 83 03 
  1169)      4920.5  Rx     18EF1C8F  8  0D C2 14 00 0B 00 0D 00 
  1170)      4938.6  Rx     18EF1C8F  8  0D D0 00 3C C5 14 88 FC 
  1171)      4939.5  Rx     18EF1C8F  8  0D D1 17 00 23 00 83 03 
  1172)      4940.5  Rx     18EF1C8F  8  0D D2 13 00 09 00 0D 00 
  1173)      4947.5  Rx     18EFCD1C  8  A1 01 00 00 FA FF FF FF 
  1174)      4958.6  Rx     18EF1C8F  8  0D E0 00 5C 13 15 88 FC 
  1175)      4959.5  Rx     18EF1C8F  8  0D E1 16 00 22 00 84 03 
  1176)      4960.5  Rx     18EF1C8F  8  0D E2 13 00 0C 00 0E 00 
  1177)      4967.4  Rx     18EFCD1C  8  A0 00 14 00 00 00 00 00 
  1178)      4968.0  Rx     18EF1CCD  8  A0 00 14 00 7B 07 00 00 
  1179)      4968.9  Rx     18EF1CCD  8  A2 00 00 00 00 00 00 00 
  1180)      4978.6  Rx     18EF1C8F  8  0D F0 00 7F 61 15 88 FC 
  1181)      4979.5  Rx     18EF1C8F  8  0D F1 17 00 22 00 83 03 
  1182)      4980.5  Rx     18EF1C8F  8  0D F2 15 00 09 00 0F 00 
  1183)      4987.5  Rx     18EFCD1C  8  A0 00 2A 00 00 00 00 00 
  1184)      4988.1  Rx     18EF1CCD  8  A0 00 2A 00 74 05 00 00 
  1185)      4988.9  Rx     18EF1CCD  8  A3 00 00 00 00 FA FF FA 
  1186)      4998.6  Rx     18EF1C8F  8  0D 00 00 9C AF 15 87 FC 
  1187)      4999.5  Rx     18EF1C8F  8  0D 01 16 00 23 00 83 03 
  1188)      5000.5  Rx     18EF1C8F  8  0D 02 14 00 09 00 0D 00 
  1189)      5007.4  Rx     18EFCD1C  8  A0 00 1B 00 00 00 00 00 
  1190)      5008.0  Rx     18EF1CCD  8  A0 00 1B 00 00 00 00 00 
  1191)      5009.0  Rx     18EF1CCD  8  A1 40 FA FF FF FF 00 00 
  1192)      5018.6  Rx     18EF1C8F  8  0D 10 00 BF FD 15 87 FC 
  1193)      5019.5  Rx     18EF1C8F  8  0D 11 16 00 23 00 81 03 
  1194)      5020.5  Rx     18EF1C8F  8  0D 12 14 00 09 00 10 00 
  1195)      5027.4  Rx     18EFCD1C  8  A0 00 00 00 00 00 00 00 
  1196)      5028.0  Rx     18EF1CCD  8  A0 00 00 00 01 00 00 00 
  1197)      5038.5  Rx     18EF1C8F  8  0D 20 00 DC 4B 16 88 FC 
  1198)      5039.5  Rx     18EF1C8F  8  0D 21 15 00 21 00 81 03 
  1199)      5040.5  Rx     18EF1C8F  8  0D 22 14 00 0A 00 0F 00 
  1200)      5058.5  Rx     18EF1C8F  8  0D 30 00 FF 99 16 87 FC 
  1201)      5059.4  Rx     18EF1C8F  8  0D 31 16 00 21 00 82 03 
  1202)      5060.5  Rx     18EF1C8F  8  0D 32 13 00 0A 00 0E 00 
  1203)      5069.1  Rx     18EF1CCD  8  A2 00 00 00 00 00 00 00 
  1204)      5078.5  Rx     18EF1C8F  8  0D 40 00 1C E8 16 87 FC 
  1205)      5079.5  Rx     18EF1C8F  8  0D 41 16 00 23 00 83 03 
  1206)      5080.4  Rx     18EF1C8F  8  0D 42 14 00 0A 00 0F 00 
  1207)      5089.1  Rx     18EF1CCD  8  A3 00 00 00 00 FA FF FA 
  1208)      5098.5  Rx     18EF1C8F  8  0D 50 00 3C 36 17 87 FC 
  1209)      5099.4  Rx     18EF1C8F  8  0D 51 17 00 23 00 83 03 
  1210)      5100.5  Rx     18EF1C8F  8  0D 52 15 00 09 00 0D 00 
  1211)      5109.1  Rx     18EF1CCD  8  A1 40 FA FF FF FF 00 00 
  1212)      5118.5  Rx     18EF1C8F  8  0D 60 00 5C 84 17 87 FC 
  1213)      5119.5  Rx     18EF1C8F  8  0D 61 15 00 20 00 82 03 
  1214)      5120.4  Rx     18EF1C8F  8  0D 62 13 00 0A 00 0B 00 
  1215)      5138.5  Rx     18EF1C8F  8  0D 70 00 7C D2 17 87 FC 
  1216)      5139.4  Rx     18EF1C8F  8  0D 71 17 00 23 00 83 03 
  1217)      5140.5  Rx     18EF1C8F  8  0D 72 15 00 0A 00 0E 00 
  1218)      5147.4  Rx     18EFCD1C  8  A1 01 00 00 FA FF FF FF 
  1219)      5158.6  Rx     18EF1C8F  8  0D 80 00 9F 20 18 87 FC 
  1220)      5159.5  Rx     18EF1C8F  8  0D 81 16 00 22 00 84 03 
  1221)      5160.4  Rx     18EF1C8F  8  0D 82 15 00 0A 00 0B 00 
  1222)      5167.4  Rx     18EFCD1C  8  A0 00 14 00 00 00 00 00 
  1223)      5168.0  Rx     18EF1CCD  8  A0 00 14 00 7A 07 00 00 
  1224)      5169.2  Rx     18EF1CCD  8  A2 00 00 00 00 00 00 00 
  1225)      5178.5  Rx     18EF1C8F  8  0D 90 00 BF 6E 18 88 FC 
  1226)      5179.5  Rx     18EF1C8F  8  0D 91 16 00 23 00 83 03 
  1227)      5180.5  Rx     18EF1C8F  8  0D 92 13 00 0A 00 0F 00 
  1228)      5187.4  Rx     18EFCD1C  8  A0 00 2A 00 00 00 00 00 
  1229)      5188.0  Rx     18EF1CCD  8  A0 00 2A 00 74 05 00 00 
  1230)      5189.4  Rx     18EF1CCD  8  A3 00 00 00 00 FA FF FA 
  1231)      5198.5  Rx     18EF1C8F  8  0D A0 00 DF BC 18 88 FC 
  1232)      5199.4  Rx     18EF1C8F  8  0D A1 16 00 21 00 82 03 
  1233)      5200.5  Rx     18EF1C8F  8  0D A2 14 00 0A 00 0E 00 
  1234)      5207.4  Rx     18EFCD1C  8  A0 00 1B 00 00 00 00 00 
  1235)      5208.0  Rx     18EF1CCD  8  A0 00 1B 00 00 00 00 00 
  1236)      5209.4  Rx     18EF1CCD  8  A1 40 FA FF FF FF 00 00 
  1237)      5218.5  Rx     18EF1C8F  8  0D B0 00 FF 0A 19 87 FC 
  1238)      5219.5  Rx     18EF1C8F  8  0D B1 16 00 20 00 82 03 
  1239)      5220.4  Rx     18EF1C8F  8  0D B2 17 00 0A 00 0E 00 
  1240)      5227.4  Rx     18EFCD1C  8  A0 00 00 00 00 00 00 00 
  1241)      5228.0  Rx     18EF1CCD  8  A0 00 00 00 01 00 00 00 
  1242)      5238.5  Rx     18EF1C8F  8  0D C0 00 1C 59 19 87 FC 
  1243)      5239.4  Rx     18EF1C8F  8  0D C1 16 00 22 00 81 03 
  1244)      5240.5  Rx     18EF1C8F  8  0D C2 15 00 0A 00 0D 00 
  1245)      5258.5  Rx     18EF1C8F  8  0D D0 00 3C A7 19 88 FC 
  1246)      5259.5  Rx     18EF1C8F  8  0D D1 14 00 21 00 84 03 
  1247)      5260.4  Rx     18EF1C8F  8  0D D2 14 00 0B 00 0E 00 
  1248)      5269.5  Rx     18EF1CCD  8  A2 00 00 00 00 00 00 00 
  1249)      5278.5  Rx     18EF1C8F  8  0D E0 00 5F F5 19 88 FC 
  1250)      5279.4  Rx     18EF1C8F  8  0D E1 15 00 22 00 81 03 
  1251)      5280.5  Rx     18EF1C8F  8  0D E2 16 00 0A 00 0F 00 
  1252)      5289.5  Rx     18EF1CCD  8  A3 00 00 00 00 FA FF FA 
  1253)      5298.5  Rx     18EF1C8F  8  0D F0 00 7F 43 1A 88 FC 
  1254)      5299.5  Rx     18EF1C8F  8  0D F1 17 00 22 00 82 03 
  1255)      5300.4  Rx     18EF1C8F  8  0D F2 15 00 0A 00 0A 00 
  1256)      5309.6  Rx     18EF1CCD  8  A1 40 FA FF FF FF 00 00 
  1257)      5318.5  Rx     18EF1C8F  8  0D 00 00 9C 91 1A 88 FC 
  1258)      5319.4  Rx     18EF1C8F  8  0D 01 15 00 21 00 83 03 
  1259)      5320.5  Rx     18EF1C8F  8  0D 02 16 00 0A 00 0E 00 
  1260)      5327.2  Rx     18EFCD1C  4  01 5B 0B 00 
  1261)      5327.7  Rx     18EF1CCD  4  01 0C 5B 00 
  1262)      5338.5  Rx     18EF1C8F  8  0D 10 00 BF DF 1A 88 FC 
  1263)      5339.5  Rx     18EF1C8F  8  0D 11 15 00 23 00 83 03 
  1264)      5340.4  Rx     18EF1C8F  8  0D 12 14 00 09 00 0F 00 
  1265)      5347.7  Rx     18EFCD1C  8  A1 01 00 00 FA FF FF FF 
  1266)      5358.5  Rx     18EF1C8F  8  0D 20 00 DC 2D 1B 88 FC 
  1267)      5359.5  Rx     18EF1C8F  8  0D 21 15 00 22 00 83 03 
  1268)      5360.5  Rx     18EF1C8F  8  0D 22 15 00 09 00 0E 00 
  1269)      5367.4  Rx     18EFCD1C  8  A0 00 14 00 00 00 00 00 
  1270)      5368.0  Rx     18EF1CCD  8  A0 00 14 00 79 07 00 00 
  1271)      5369.7  Rx     18EF1CCD  8  A2 00 00 00 00 00 00 00 
  1272)      5378.5  Rx     18EF1C8F  8  0D 30 00 FF 7B 1B 88 FC 
  1273)      5379.4  Rx     18EF1C8F  8  0D 31 14 00 23 00 82 03 
  1274)      5380.5  Rx     18EF1C8F  8  0D 32 14 00 0B 00 0D 00 
  1275)      5387.4  Rx     18EFCD1C  8  A0 00 2A 00 00 00 00 00 
  1276)      5388.1  Rx     18EF1CCD  8  A0 00 2A 00 74 05 00 00 
  1277)      5389.8  Rx     18EF1CCD  8  A3 00 00 00 00 FA FF FA 
  1278)      5398.5  Rx     18EF1C8F  8  0D 40 00 1F CA 1B 87 FC 
  1279)      5399.5  Rx     18EF1C8F  8  0D 41 17 00 21 00 81 03 
  1280)      5400.4  Rx     18EF1C8F  8  0D 42 14 00 0A 00 0C 00 
  1281)      5407.3  Rx     18EFCD1C  8  A0 00 1B 00 00 00 00 00 
  1282)      5408.0  Rx     18EF1CCD  8  A0 00 1B 00 00 00 00 00 
  1283)      5409.8  Rx     18EF1CCD  8  A1 40 FA FF FF FF 00 00 
  1284)      5418.6  Rx     18EF1C8F  8  0D 50 00 3F 18 1C 87 FC 
  1285)      5419.4  Rx     18EF1C8F  8  0D 51 17 00 22 00 83 03 
  1286)      5420.5  Rx     18EF1C8F  8  0D 52 16 00 0A 00 0E 00 
  1287)      5427.4  Rx     18EFCD1C  8  A0 00 00 00 00 00 00 00 
  1288)      5428.0  Rx     18EF1CCD  8  A0 00 00 00 01 00 00 00 
  1289)      5438.5  Rx     18EF1C8F  8  0D 60 00 5C 66 1C 88 FC 
  1290)      5439.5  Rx     18EF1C8F  8  0D 61 17 00 23 00 83 03 
  1291)      5440.4  Rx     18EF1C8F  8  0D 62 12 00 08 00 0F 00 
  1292)      5458.5  Rx     18EF1C8F  8  0D 70 00 7C B4 1C 88 FC 
  1293)      5459.4  Rx     18EF1C8F  8  0D 71 16 00 23 00 84 03 
  1294)      5460.5  Rx     18EF1C8F  8  0D 72 12 00 0A 00 0F 00 
  1295)      5470.0  Rx     18EF1CCD  8  A2 00 00 00 00 00 00 00 
  1296)      5478.5  Rx     18EF1C8F  8  0D 80 00 9F 02 1D 88 FC 
  1297)      5479.5  Rx     18EF1C8F  8  0D 81 18 00 21 00 83 03 
  1298)      5480.5  Rx     18EF1C8F  8  0D 82 15 00 0A 00 10 00 
  1299)      5490.0  Rx     18EF1CCD  8  A3 00 00 00 00 FA FF FA 
  1300)      5498.5  Rx     18EF1C8F  8  0D 90 00 BC 50 1D 88 FC 
  1301)      5499.4  Rx     18EF1C8F  8  0D 91 16 00 21 00 83 03 
  1302)      5500.5  Rx     18EF1C8F  8  0D 92 14 00 0B 00 0F 00 
  1303)      5510.0  Rx     18EF1CCD  8  A1 40 FA FF FF FF 00 00 
  1304)      5518.5  Rx     18EF1C8F  8  0D A0 00 DC 9E 1D 88 FC 
  1305)      5519.5  Rx     18EF1C8F  8  0D A1 16 00 20 00 82 03 
  1306)      5520.4  Rx     18EF1C8F  8  0D A2 15 00 0A 00 10 00 
  1307)      5538.5  Rx     18EF1C8F  8  0D B0 00 FC EC 1D 87 FC 
  1308)      5539.4  Rx     18EF1C8F  8  0D B1 17 00 23 00 83 03 
  1309)      5540.5  Rx     18EF1C8F  8  0D B2 14 00 0A 00 0E 00 
  1310)      5547.4  Rx     18EFCD1C  8  A1 01 00 00 FA FF FF FF 
  1311)      5558.5  Rx     18EF1C8F  8  0D C0 00 1F 3B 1E 88 FC 
  1312)      5559.5  Rx     18EF1C8F  8  0D C1 16 00 23 00 81 03 
  1313)      5560.5  Rx     18EF1C8F  8  0D C2 14 00 0A 00 0E 00 
  1314)      5567.4  Rx     18EFCD1C  8  A0 00 14 00 00 00 00 00 
  1315)      5568.0  Rx     18EF1CCD  8  A0 00 14 00 7B 07 00 00 
  1316)      5570.2  Rx     18EF1CCD  8  A2 00 00 00 00 00 00 00 
  1317)      5578.5  Rx     18EF1C8F  8  0D D0 00 3C 89 1E 88 FC 
  1318)      5579.5  Rx     18EF1C8F  8  0D D1 17 00 23 00 83 03 
  1319)      5580.5  Rx     18EF1C8F  8  0D D2 14 00 09 00 0E 00 
  1320)      5587.4  Rx     18EFCD1C  8  A0 00 2A 00 00 00 00 00 
  1321)      5588.0  Rx     18EF1CCD  8  A0 00 2A 00 74 05 00 00 
  1322)      5590.2  Rx     18EF1CCD  8  A3 00 00 00 00 FA FF FA 
  1323)      5598.6  Rx     18EF1C8F  8  0D E0 00 5F D7 1E 87 FC 
  1324)      5599.4  Rx     18EF1C8F  8  0D E1 16 00 22 00 82 03 
  1325)      5600.5  Rx     18EF1C8F  8  0D E2 16 00 09 00 0F 00 
  1326)      5607.4  Rx     18EFCD1C  8  A0 00 1B 00 00 00 00 00 
  1327)      5608.0  Rx     18EF1CCD  8  A0 00 1B 00 00 00 00 00 
  1328)      5610.2  Rx     18EF1CCD  8  A1 40 FA FF FF FF 00 00 
  1329)      5618.5  Rx     18EF1C8F  8  0D F0 00 7C 25 1F 87 FC 
  1330)      5619.5  Rx     18EF1C8F  8  0D F1 17 00 24 00 83 03 
  1331)      5620.4  Rx     18EF1C8F  8  0D F2 17 00 0B 00 0F 00 
  1332)      5627.3  Rx     18EFCD1C  8  A0 00 00 00 00 00 00 00 
  1333)      5628.0  Rx     18EF1CCD  8  A0 00 00 00 01 00 00 00 
  1334)      5638.5  Rx     18EF1C8F  8  0D 00 00 9F 73 1F 87 FC 
  1335)      5639.4  Rx     18EF1C8F  8  0D 01 16 00 23 00 83 03 
  1336)      5640.5  Rx     18EF1C8F  8  0D 02 14 00 0A 00 0F 00 
  1337)      5658.5  Rx     18EF1C8F  8  0D 10 00 BC C1 1F 87 FC 
  1338)      5659.5  Rx     18EF1C8F  8  0D 11 15 00 23 00 83 03 
  1339)      5660.4  Rx     18EF1C8F  8  0D 12 14 00 09 00 0E 00 
  1340)      5670.4  Rx     18EF1CCD  8  A2 00 00 00 00 00 00 00 
  1341)      5678.5  Rx     18EF1C8F  8  0D 20 00 DC 0F 20 87 FC 
  1342)      5679.4  Rx     18EF1C8F  8  0D 21 17 00 21 00 83 03 
  1343)      5680.5  Rx     18EF1C8F  8  0D 22 10 00 0A 00 0D 00 
  1344)      5688.7  Rx     18FEF31C  8  5E 29 80 99 AC CE 2C 89 
  1345)      5689.2  Rx     18FEE81C  8  97 4F 00 00 00 00 10 52 
  1346)      5689.8  Rx     18FEE61C  8  94 0D 0E 09 57 29 00 00 
  1347)      5690.4  Rx     19F8021C  8  B0 FC 86 6C 00 00 FF FF 
  1348)      5690.9  Rx     18EF1CCD  8  A3 00 00 00 00 FA FF FA 
  1349)      5698.5  Rx     18EF1C8F  8  0D 30 00 01 5E 20 88 FC 
  1350)      5699.5  Rx     18EF1C8F  8  0D 31 17 00 20 00 81 03 
  1351)      5700.4  Rx     18EF1C8F  8  0D 32 15 00 0A 00 0E 00 
  1352)      5710.4  Rx     18EF1CCD  8  A1 40 FA FF FF FF 00 00 
  1353)      5718.5  Rx     18EF1C8F  8  0D 40 00 1C AC 20 87 FC 
  1354)      5719.4  Rx     18EF1C8F  8  0D 41 15 00 22 00 83 03 
  1355)      5720.5  Rx     18EF1C8F  8  0D 42 15 00 0B 00 0D 00 
  1356)      5735.3  Rx     19F8051C  8  80 2F B0 EE 50 D3 18 87 
  1357)      5735.8  Rx     19F8051C  8  81 1E 80 CE 24 2F E1 A6 
  1358)      5736.4  Rx     19F8051C  8  82 98 06 E0 65 4B B4 F3 
  1359)      5736.9  Rx     19F8051C  8  83 91 CB 02 41 40 68 08 
  1360)      5737.5  Rx     19F8051C  8  84 00 00 00 00 20 00 0A 
  1361)      5738.1  Rx     19F8051C  8  85 64 00 64 00 DC 05 00 
  1362)      5738.6  Rx     18EF1C8F  8  0D 50 00 41 FA 20 87 FC 
  1363)      5739.2  Rx     19F8051C  8  86 00 01 0F 00 00 00 FF 
  1364)      5739.8  Rx     18EF1C8F  8  0D 51 15 00 24 00 82 03 
  1365)      5740.4  Rx     18EF1C8F  8  0D 52 13 00 0A 00 0E 00 
  1366)      5747.4  Rx     18EFCD1C  8  A1 01 00 00 FA FF FF FF 
  1367)      5758.5  Rx     18EF1C8F  8  0D 60 00 5F 48 21 88 FC 
  1368)      5759.4  Rx     18EF1C8F  8  0D 61 14 00 24 00 84 03 
  1369)      5760.5  Rx     18EF1C8F  8  0D 62 15 00 0A 00 0E 00 
  1370)      5767.4  Rx     18EFCD1C  8  A0 00 14 00 00 00 00 00 
  1371)      5767.9  Rx     18EF1CCD  8  A0 00 14 00 7B 07 00 00 
  1372)      5770.6  Rx     18EF1CCD  8  A2 00 00 00 00 00 00 00 
  1373)      5778.5  Rx     18EF1C8F  8  0D 70 00 7C 96 21 88 FC 
  1374)      5779.5  Rx     18EF1C8F  8  0D 71 16 00 22 00 85 03 
  1375)      5780.4  Rx     18EF1C8F  8  0D 72 14 00 09 00 0F 00 
  1376)      5787.4  Rx     18EFCD1C  8  A0 00 2A 00 00 00 00 00 
  1377)      5788.0  Rx     18EF1CCD  8  A0 00 2A 00 74 05 00 00 
  1378)      5790.7  Rx     18EF1CCD  8  A3 00 00 00 00 FA FF FA 
  1379)      5798.5  Rx     18EF1C8F  8  0D 80 00 9F E4 21 87 FC 
  1380)      5799.4  Rx     18EF1C8F  8  0D 81 15 00 25 00 84 03 
  1381)      5800.4  Rx     18EF1C8F  8  0D 82 16 00 09 00 0D 00 
  1382)      5807.3  Rx     18EFCD1C  8  A0 00 1B 00 00 00 00 00 
  1383)      5808.0  Rx     18EF1CCD  8  A0 00 1B 00 00 00 00 00 
  1384)      5810.7  Rx     18EF1CCD  8  A1 40 FA FF FF FF 00 00 
  1385)      5818.5  Rx     18EF1C8F  8  0D 90 00 BF 32 22 88 FC 
  1386)      5819.4  Rx     18EF1C8F  8  0D 91 16 00 22 00 82 03 
  1387)      5820.4  Rx     18EF1C8F  8  0D 92 14 00 0B 00 0D 00 
  1388)      5827.3  Rx     18EFCD1C  8  A0 00 00 00 00 00 00 00 
  1389)      5828.0  Rx     18EF1CCD  8  A0 00 00 00 01 00 00 00 
  1390)      5838.5  Rx     18EF1C8F  8  0D A0 00 DC 80 22 87 FC 
  1391)      5839.4  Rx     18EF1C8F  8  0D A1 15 00 22 00 83 03 
  1392)      5840.4  Rx     18EF1C8F  8  0D A2 15 00 0B 00 0F 00 
  1393)      5858.5  Rx     18EF1C8F  8  0D B0 00 FC CE 22 87 FC 
  1394)      5859.4  Rx     18EF1C8F  8  0D B1 17 00 24 00 83 03 
  1395)      5860.4  Rx     18EF1C8F  8  0D B2 14 00 0A 00 0E 00 
  1396)      5870.8  Rx     18EF1CCD  8  A2 00 00 00 00 00 00 00 
  1397)      5878.5  Rx     18EF1C8F  8  0D C0 00 1F 1D 23 88 FC 
  1398)      5879.4  Rx     18EF1C8F  8  0D C1 14 00 21 00 84 03 
  1399)      5880.4  Rx     18EF1C8F  8  0D C2 13 00 0C 00 0D 00 
  1400)      5890.8  Rx     18EF1CCD  8  A3 00 00 00 00 FA FF FA 
  1401)      5898.5  Rx     18EF1C8F  8  0D D0 00 3F 6B 23 87 FC 
  1402)      5899.4  Rx     18EF1C8F  8  0D D1 16 00 21 00 83 03 
  1403)      5900.4  Rx     18EF1C8F  8  0D D2 14 00 0B 00 0E 00 
  1404)      5910.9  Rx     18EF1CCD  8  A1 40 FA FF FF FF 00 00 
  1405)      5911.3  Rx     18EF8F1C  4  01 9E F7 00 
  1406)      5912.4  Rx     18EF1C8F  4  01 F8 9E 00 
  1407)      5918.5  Rx     18EF1C8F  8  0D E0 00 5C B9 23 87 FC 
  1408)      5919.4  Rx     18EF1C8F  8  0D E1 17 00 23 00 81 03 
  1409)      5920.4  Rx     18EF1C8F  8  0D E2 15 00 08 00 0E 00 
  1410)      5938.5  Rx     18EF1C8F  8  0D F0 00 7C 07 24 88 FC 
  1411)      5939.4  Rx     18EF1C8F  8  0D F1 14 00 22 00 81 03 
  1412)      5940.4  Rx     18EF1C8F  8  0D F2 15 00 09 00 0F 00 
  1413)      5947.4  Rx     18EFCD1C  8  A1 01 00 00 FA FF FF FF 
  1414)      5958.5  Rx     18EF1C8F  8  0D 00 00 9F 55 24 88 FC 
  1415)      5959.4  Rx     18EF1C8F  8  0D 01 16 00 23 00 84 03 
  1416)      5960.4  Rx     18EF1C8F  8  0D 02 13 00 0A 00 0E 00 
  1417)      5967.3  Rx     18EFCD1C  8  A0 00 14 00 00 00 00 00 
  1418)      5968.0  Rx     18EF1CCD  8  A0 00 14 00 7A 07 00 00 
  1419)      5971.0  Rx     18EF1CCD  8  A2 00 00 00 00 00 00 00 
  1420)      5978.5  Rx     18EF1C8F  8  0D 10 00 BC A3 24 87 FC 
  1421)      5979.4  Rx     18EF1C8F  8  0D 11 16 00 22 00 81 03 
  1422)      5980.4  Rx     18EF1C8F  8  0D 12 14 00 0A 00 0E 00 
  1423)      5987.4  Rx     18EFCD1C  8  A0 00 2A 00 00 00 00 00 
  1424)      5988.0  Rx     18EF1CCD  8  A0 00 2A 00 74 05 00 00 
  1425)      5991.1  Rx     18EF1CCD  8  A3 00 00 00 00 FA FF FA 
  1426)      5998.5  Rx     18EF1C8F  8  0D 20 00 DF F1 24 87 FC 
  1427)      5999.4  Rx     18EF1C8F  8  0D 21 18 00 21 00 83 03 
  1428)      6000.4  Rx     18EF1C8F  8  0D 22 15 00 0A 00 0F 00 
  1429)      6007.3  Rx     18EFCD1C  8  A0 00 1B 00 00 00 00 00 
  1430)      6007.9  Rx     18EF1CCD  8  A0 00 1B 00 00 00 00 00 
  1431)      6011.0  Rx     18EF1CCD  8  A1 40 FA FF FF FF 00 00 
  1432)      6018.5  Rx     18EF1C8F  8  0D 30 00 FC 3F 25 87 FC 
  1433)      6019.4  Rx     18EF1C8F  8  0D 31 16 00 22 00 84 03 
  1434)      6020.4  Rx     18EF1C8F  8  0D 32 15 00 0A 00 0F 00 
  1435)      6027.3  Rx     18EFCD1C  8  A0 00 00 00 00 00 00 00 
  1436)      6027.9  Rx     18EF1CCD  8  A0 00 00 00 01 00 00 00 
  1437)      6038.5  Rx     18EF1C8F  8  0D 40 00 1F 8E 25 88 FC 
  1438)      6039.4  Rx     18EF1C8F  8  0D 41 18 00 22 00 83 03 
  1439)      6040.4  Rx     18EF1C8F  8  0D 42 12 00 0A 00 0C 00 
  1440)      6058.5  Rx     18EF1C8F  8  0D 50 00 3C DC 25 88 FC 
  1441)      6059.4  Rx     18EF1C8F  8  0D 51 15 00 22 00 86 03 
  1442)      6060.4  Rx     18EF1C8F  8  0D 52 14 00 0A 00 0E 00 
  1443)      6071.2  Rx     18EF1CCD  8  A2 00 00 00 00 00 00 00 
  1444)      6078.5  Rx     18EF1C8F  8  0D 60 00 5F 2A 26 87 FC 
  1445)      6079.4  Rx     18EF1C8F  8  0D 61 17 00 21 00 84 03 
  1446)      6080.4  Rx     18EF1C8F  8  0D 62 14 00 0A 00 0D 00 
  1447)      6091.2  Rx     18EF1CCD  8  A3 00 00 00 00 FA FF FA 
  1448)      6098.5  Rx     18EF1C8F  8  0D 70 00 7C 78 26 87 FC 
  1449)      6099.4  Rx     18EF1C8F  8  0D 71 15 00 22 00 84 03 
  1450)      6100.4  Rx     18EF1C8F  8  0D 72 15 00 0B 00 0D 00 
  1451)      6111.3  Rx     18EF1CCD  8  A1 40 FA FF FF FF 00 00 
  1452)      6118.5  Rx     18EF1C8F  8  0D 80 00 9F C6 26 87 FC 
  1453)      6119.4  Rx     18EF1C8F  8  0D 81 16 00 20 00 83 03 
  1454)      6120.4  Rx     18EF1C8F  8  0D 82 16 00 0B 00 0D 00 
  1455)      6138.5  Rx     18EF1C8F  8  0D 90 00 BC 14 27 87 FC 
  1456)      6139.4  Rx     18EF1C8F  8  0D 91 15 00 21 00 84 03 
  1457)      6140.4  Rx     18EF1C8F  8  0D 92 14 00 0B 00 0A 00 
  1458)      6147.3  Rx     18EFCD1C  8  A1 01 00 00 FA FF FF FF 
  1459)      6158.5  Rx     18EF1C8F  8  0D A0 00 DF 62 27 88 FC 
  1460)      6159.4  Rx     18EF1C8F  8  0D A1 17 00 23 00 83 03 
  1461)      6160.4  Rx     18EF1C8F  8  0D A2 15 00 0B 00 0D 00 
  1462)      6167.3  Rx     18EFCD1C  8  A0 00 14 00 00 00 00 00 
  1463)      6167.9  Rx     18EF1CCD  8  A0 00 14 00 7A 07 00 00 
  1464)      6171.4  Rx     18EF1CCD  8  A2 00 00 00 00 00 00 00 
  1465)      6178.5  Rx     18EF1C8F  8  0D B0 00 FF B0 27 88 FC 
  1466)      6179.4  Rx     18EF1C8F  8  0D B1 17 00 21 00 82 03 
  1467)      6180.4  Rx     18EF1C8F  8  0D B2 14 00 0B 00 10 00 
  1468)      6187.3  Rx     18EFCD1C  8  A0 00 2A 00 00 00 00 00 
  1469)      6187.9  Rx     18EF1CCD  8  A0 00 2A 00 74 05 00 00 
  1470)      6191.5  Rx     18EF1CCD  8  A3 00 00 00 00 FA FF FA 
  1471)      6198.4  Rx     18EF1C8F  8  0D C0 00 1C FF 27 87 FC 
  1472)      6199.4  Rx     18EF1C8F  8  0D C1 15 00 22 00 82 03 
  1473)      6200.4  Rx     18EF1C8F  8  0D C2 14 00 0A 00 0F 00 
  1474)      6207.3  Rx     18EFCD1C  8  A0 00 1B 00 00 00 00 00 
  1475)      6207.9  Rx     18EF1CCD  8  A0 00 1B 00 00 00 00 00 
  1476)      6211.5  Rx     18EF1CCD  8  A1 40 FA FF FF FF 00 00 
  1477)      6218.5  Rx     18EF1C8F  8  0D D0 00 3F 4D 28 88 FC 
  1478)      6219.4  Rx     18EF1C8F  8  0D D1 16 00 23 00 85 03 
  1479)      6220.4  Rx     18EF1C8F  8  0D D2 14 00 09 00 10 00 
  1480)      6227.3  Rx     18EFCD1C  8  A0 00 00 00 00 00 00 00 
  1481)      6227.9  Rx     18EF1CCD  8  A0 00 00 00 01 00 00 00 
  1482)      6238.4  Rx     18EF1C8F  8  0D E0 00 5F 9B 28 87 FC 
  1483)      6239.4  Rx     18EF1C8F  8  0D E1 14 00 21 00 83 03 
  1484)      6240.4  Rx     18EF1C8F  8  0D E2 15 00 09 00 0E 00 
  1485)      6258.5  Rx     18EF1C8F  8  0D F0 00 7C E9 28 88 FC 
  1486)      6259.4  Rx     18EF1C8F  8  0D F1 15 00 22 00 83 03 
  1487)      6260.4  Rx     18EF1C8F  8  0D F2 16 00 0A 00 0C 00 
  1488)      6271.6  Rx     18EF1CCD  8  A2 00 00 00 00 00 00 00 
  1489)      6278.4  Rx     18EF1C8F  8  0D 00 00 9C 37 29 88 FC 
  1490)      6279.4  Rx     18EF1C8F  8  0D 01 17 00 22 00 82 03 
  1491)      6280.4  Rx     18EF1C8F  8  0D 02 13 00 0A 00 0D 00 
  1492)      6291.6  Rx     18EF1CCD  8  A3 00 00 00 00 FA FF FA 
  1493)      6298.5  Rx     18EF1C8F  8  0D 10 00 BF 85 29 88 FC 
  1494)      6299.4  Rx     18EF1C8F  8  0D 11 16 00 24 00 83 03 
  1495)      6300.4  Rx     18EF1C8F  8  0D 12 15 00 0A 00 0E 00 
  1496)      6311.7  Rx     18EF1CCD  8  A1 40 FA FF FF FF 00 00 
  1497)      6318.4  Rx     18EF1C8F  8  0D 20 00 DF D3 29 88 FC 
  1498)      6319.4  Rx     18EF1C8F  8  0D 21 15 00 23 00 82 03 
  1499)      6320.4  Rx     18EF1C8F  8  0D 22 14 00 0B 00 0E 00 
  1500)      6338.5  Rx     18EF1C8F  8  0D 30 00 FC 21 2A 88 FC 
  1501)      6339.4  Rx     18EF1C8F  8  0D 31 16 00 21 00 83 03 
  1502)      6340.4  Rx     18EF1C8F  8  0D 32 15 00 0A 00 0E 00 
  1503)      6347.5  Rx     18EFCD1C  8  A1 01 00 00 FA FF FF FF 
