;$FILEVERSION=1.1
;$STARTTIME=46287.6716212963
;
;   Start time: 9/22/2026 16:07:08.080.0
;   Generated by PCAN-View v5.3.3.958
;
;   Message Number
;   |         Time Offset (ms)
;   |         |        Type
;   |         |        |        ID (hex)
;   |         |        |        |     Data Length
;   |         |        |        |     |   Data Bytes (hex) ...
;   |         |        |        |     |   |
;---+--   ----+----  --+--  ----+---  +  -+ -- -- -- -- -- -- --
     1)         0.9  Rx     18EF1CCD  8  A3 00 00 00 00 FB FF FB 
     2)        13.9  Rx     18EF1C8F  8  0D 90 00 D7 EA E6 73 FC 
     3)        14.9  Rx     18EF1C8F  8  0D 91 16 00 21 00 82 03 
     4)        15.8  Rx     18EF1C8F  8  0D 92 16 00 0B 00 0D 00 
     5)        20.9  Rx     18EF1CCD  8  A1 40 FB FF FF FF 00 00 
     6)        33.9  Rx     18EF1C8F  8  0D A0 00 F5 38 E7 72 FC 
     7)        34.8  Rx     18EF1C8F  8  0D A1 18 00 21 00 82 03 
     8)        35.9  Rx     18EF1C8F  8  0D A2 16 00 0A 00 10 00 
     9)        53.9  Rx     18EF1C8F  8  0D B0 00 12 87 E7 73 FC 
    10)        54.8  Rx     18EF1C8F  8  0D B1 18 00 21 00 85 03 
    11)        55.8  Rx     18EF1C8F  8  0D B2 18 00 0B 00 0F 00 
    12)        57.6  Rx     18EFCD1C  4  01 99 4A 00 
    13)        58.1  Rx     18EF1CCD  4  01 4B 99 00 
    14)        73.9  Rx     18EF1C8F  8  0D C0 00 35 D5 E7 73 FC 
    15)        74.8  Rx     18EF1C8F  8  0D C1 17 00 22 00 83 03 
    16)        75.8  Rx     18EF1C8F  8  0D C2 15 00 0C 00 0D 00 
    17)        81.0  Rx     18EF1CCD  8  A2 00 00 00 00 00 00 00 
    18)        93.9  Rx     18EF1C8F  8  0D D0 00 55 23 E8 73 FC 
    19)        94.8  Rx     18EF1C8F  8  0D D1 17 00 21 00 83 03 
    20)        95.8  Rx     18EF1C8F  8  0D D2 16 00 0C 00 0F 00 
    21)       101.1  Rx     18EF1CCD  8  A3 00 00 00 00 FB FF FB 
    22)       113.9  Rx     18EF1C8F  8  0D E0 00 77 71 E8 73 FC 
    23)       114.8  Rx     18EF1C8F  8  0D E1 16 00 21 00 81 03 
    24)       115.8  Rx     18EF1C8F  8  0D E2 16 00 0E 00 0E 00 
    25)       117.0  Rx     18EFCD1C  8  A1 01 00 00 FB FF FF FF 
    26)       121.0  Rx     18EF1CCD  8  A1 40 FB FF FF FF 00 00 
    27)       133.9  Rx     18EF1C8F  8  0D F0 00 95 BF E8 73 FC 
    28)       134.8  Rx     18EF1C8F  8  0D F1 18 00 23 00 82 03 
    29)       135.8  Rx     18EF1C8F  8  0D F2 15 00 0B 00 0E 00 
    30)       136.8  Rx     18EFCD1C  8  A0 00 14 00 00 00 00 00 
    31)       137.4  Rx     18EF1CCD  8  A0 00 14 00 74 07 00 00 
    32)       153.9  Rx     18EF1C8F  8  0D 00 00 B5 0D E9 73 FC 
    33)       154.8  Rx     18EF1C8F  8  0D 01 15 00 22 00 81 03 
    34)       155.8  Rx     18EF1C8F  8  0D 02 12 00 0A 00 0F 00 
    35)       156.9  Rx     18EFCD1C  8  A0 00 2A 00 00 00 00 00 
    36)       157.5  Rx     18EF1CCD  8  A0 00 2A 00 86 05 00 00 
    37)       173.9  Rx     18EF1C8F  8  0D 10 00 D5 5B E9 73 FC 
    38)       174.8  Rx     18EF1C8F  8  0D 11 16 00 21 00 83 03 
    39)       175.8  Rx     18EF1C8F  8  0D 12 14 00 0B 00 0D 00 
    40)       176.6  Rx     18EFCD1C  8  A0 00 1B 00 00 00 00 00 
    41)       177.2  Rx     18EF1CCD  8  A0 00 1B 00 00 00 00 00 
    42)       181.2  Rx     18EF1CCD  8  A2 00 00 00 00 00 00 00 
    43)       193.8  Rx     18EF1C8F  8  0D 20 00 F5 A9 E9 73 FC 
    44)       194.7  Rx     18EF1C8F  8  0D 21 16 00 23 00 85 03 
    45)       195.8  Rx     18EF1C8F  8  0D 22 15 00 09 00 0D 00 
    46)       196.6  Rx     18EFCD1C  8  A0 00 00 00 00 00 00 00 
    47)       197.3  Rx     18EF1CCD  8  A0 00 00 00 01 00 00 00 
    48)       201.2  Rx     18EF1CCD  8  A3 00 00 00 00 FB FF FB 
    49)       213.8  Rx     18EF1C8F  8  0D 30 00 17 F8 E9 73 FC 
    50)       214.8  Rx     18EF1C8F  8  0D 31 15 00 21 00 82 03 
    51)       215.7  Rx     18EF1C8F  8  0D 32 16 00 07 00 0F 00 
    52)       221.3  Rx     18EF1CCD  8  A1 40 FB FF FF FF 00 00 
    53)       233.8  Rx     18EF1C8F  8  0D 40 00 32 46 EA 73 FC 
    54)       234.7  Rx     18EF1C8F  8  0D 41 16 00 23 00 83 03 
    55)       235.8  Rx     18EF1C8F  8  0D 42 14 00 09 00 0E 00 
    56)       253.8  Rx     18EF1C8F  8  0D 50 00 55 94 EA 73 FC 
    57)       254.7  Rx     18EF1C8F  8  0D 51 14 00 23 00 84 03 
    58)       255.7  Rx     18EF1C8F  8  0D 52 14 00 0A 00 0D 00 
    59)       273.8  Rx     18EF1C8F  8  0D 60 00 75 E2 EA 73 FC 
    60)       274.7  Rx     18EF1C8F  8  0D 61 15 00 22 00 84 03 
    61)       275.7  Rx     18EF1C8F  8  0D 62 13 00 0A 00 0F 00 
    62)       281.3  Rx     18EF1CCD  8  A2 00 00 00 00 00 00 00 
    63)       293.8  Rx     18EF1C8F  8  0D 70 00 95 30 EB 73 FC 
    64)       294.7  Rx     18EF1C8F  8  0D 71 17 00 22 00 82 03 
    65)       295.8  Rx     18EF1C8F  8  0D 72 12 00 0B 00 10 00 
    66)       301.4  Rx     18EF1CCD  8  A3 00 00 00 00 FB FF FB 
    67)       313.8  Rx     18EF1C8F  8  0D 80 00 B5 7E EB 73 FC 
    68)       314.7  Rx     18EF1C8F  8  0D 81 14 00 22 00 83 03 
    69)       315.7  Rx     18EF1C8F  8  0D 82 13 00 0A 00 0F 00 
    70)       317.0  Rx     18EFCD1C  8  A1 01 00 00 FB FF FF FF 
    71)       321.4  Rx     18EF1CCD  8  A1 40 FB FF FF FF 00 00 
    72)       333.8  Rx     18EF1C8F  8  0D 90 00 D5 CC EB 73 FC 
    73)       334.7  Rx     18EF1C8F  8  0D 91 16 00 23 00 85 03 
    74)       335.7  Rx     18EF1C8F  8  0D 92 14 00 09 00 0E 00 
    75)       336.5  Rx     18EFCD1C  8  A0 00 14 00 00 00 00 00 
    76)       337.2  Rx     18EF1CCD  8  A0 00 14 00 74 07 00 00 
    77)       353.8  Rx     18EF1C8F  8  0D A0 00 F5 1A EC 73 FC 
    78)       354.7  Rx     18EF1C8F  8  0D A1 17 00 23 00 83 03 
    79)       355.7  Rx     18EF1C8F  8  0D A2 15 00 0A 00 0E 00 
    80)       356.8  Rx     18EFCD1C  8  A0 00 2A 00 00 00 00 00 
    81)       357.5  Rx     18EF1CCD  8  A0 00 2A 00 86 05 00 00 
    82)       373.8  Rx     18EF1C8F  8  0D B0 00 15 69 EC 73 FC 
    83)       374.7  Rx     18EF1C8F  8  0D B1 18 00 23 00 82 03 
    84)       375.7  Rx     18EF1C8F  8  0D B2 13 00 0C 00 0E 00 
    85)       376.5  Rx     18EFCD1C  8  A0 00 1B 00 00 00 00 00 
    86)       377.2  Rx     18EF1CCD  8  A0 00 1B 00 00 00 00 00 
    87)       381.6  Rx     18EF1CCD  8  A2 00 00 00 00 00 00 00 
    88)       393.8  Rx     18EF1C8F  8  0D C0 00 35 B7 EC 73 FC 
    89)       394.7  Rx     18EF1C8F  8  0D C1 15 00 23 00 83 03 
    90)       395.7  Rx     18EF1C8F  8  0D C2 13 00 0B 00 0F 00 
    91)       396.5  Rx     18EFCD1C  8  A0 00 00 00 00 00 00 00 
    92)       397.2  Rx     18EF1CCD  8  A0 00 00 00 01 00 00 00 
    93)       401.6  Rx     18EF1CCD  8  A3 00 00 00 00 FB FF FB 
    94)       413.8  Rx     18EF1C8F  8  0D D0 00 57 05 ED 73 FC 
    95)       414.7  Rx     18EF1C8F  8  0D D1 16 00 22 00 83 03 
    96)       415.7  Rx     18EF1C8F  8  0D D2 14 00 0B 00 0D 00 
    97)       421.6  Rx     18EF1CCD  8  A1 40 FB FF FF FF 00 00 
    98)       433.8  Rx     18EF1C8F  8  0D E0 00 75 53 ED 73 FC 
    99)       434.7  Rx     18EF1C8F  8  0D E1 16 00 21 00 84 03 
   100)       435.7  Rx     18EF1C8F  8  0D E2 13 00 0B 00 0F 00 
   101)       453.8  Rx     18EF1C8F  8  0D F0 00 95 A1 ED 73 FC 
   102)       454.7  Rx     18EF1C8F  8  0D F1 17 00 23 00 81 03 
   103)       455.7  Rx     18EF1C8F  8  0D F2 13 00 09 00 10 00 
   104)       473.8  Rx     18EF1C8F  8  0D 00 00 B5 EF ED 73 FC 
   105)       474.7  Rx     18EF1C8F  8  0D 01 17 00 22 00 82 03 
   106)       475.7  Rx     18EF1C8F  8  0D 02 15 00 08 00 0F 00 
   107)       481.7  Rx     18EF1CCD  8  A2 00 00 00 00 00 00 00 
   108)       482.2  Rx     18EF8F1C  4  01 EB 45 00 
   109)       482.7  Rx     18EF1C8F  4  01 46 EB 00 
   110)       493.7  Rx     18EF1C8F  8  0D 10 00 D5 3D EE 73 FC 
   111)       494.7  Rx     18EF1C8F  8  0D 11 15 00 22 00 82 03 
   112)       495.7  Rx     18EF1C8F  8  0D 12 13 00 0D 00 0F 00 
   113)       501.8  Rx     18EF1CCD  8  A3 00 00 00 00 FB FF FB 
   114)       513.8  Rx     18EF1C8F  8  0D 20 00 F5 8B EE 73 FC 
   115)       514.7  Rx     18EF1C8F  8  0D 21 16 00 22 00 83 03 
   116)       515.6  Rx     18EF1C8F  8  0D 22 13 00 0B 00 0F 00 
   117)       518.4  Rx     18EFCD1C  8  A1 01 00 00 FB FF FF FF 
   118)       521.8  Rx     18EF1CCD  8  A1 40 FB FF FF FF 00 00 
   119)       533.7  Rx     18EF1C8F  8  0D 30 00 15 DA EE 73 FC 
   120)       534.6  Rx     18EF1C8F  8  0D 31 16 00 22 00 83 03 
   121)       535.7  Rx     18EF1C8F  8  0D 32 13 00 0B 00 0D 00 
   122)       536.6  Rx     18EFCD1C  8  A0 00 14 00 00 00 00 00 
   123)       537.2  Rx     18EF1CCD  8  A0 00 14 00 74 07 00 00 
   124)       553.7  Rx     18EF1C8F  8  0D 40 00 37 28 EF 73 FC 
   125)       554.7  Rx     18EF1C8F  8  0D 41 17 00 22 00 83 03 
   126)       555.7  Rx     18EF1C8F  8  0D 42 16 00 0B 00 0C 00 
   127)       556.8  Rx     18EFCD1C  8  A0 00 2A 00 00 00 00 00 
   128)       557.4  Rx     18EF1CCD  8  A0 00 2A 00 85 05 00 00 
   129)       573.7  Rx     18EF1C8F  8  0D 50 00 55 76 EF 73 FC 
   130)       574.6  Rx     18EF1C8F  8  0D 51 16 00 23 00 84 03 
   131)       575.7  Rx     18EF1C8F  8  0D 52 14 00 0A 00 0F 00 
   132)       576.5  Rx     18EFCD1C  8  A0 00 1B 00 00 00 00 00 
   133)       577.1  Rx     18EF1CCD  8  A0 00 1B 00 00 00 00 00 
   134)       582.0  Rx     18EF1CCD  8  A2 00 00 00 00 00 00 00 
   135)       593.7  Rx     18EF1C8F  8  0D 60 00 75 C4 EF 73 FC 
   136)       594.7  Rx     18EF1C8F  8  0D 61 16 00 22 00 84 03 
   137)       595.6  Rx     18EF1C8F  8  0D 62 16 00 0A 00 0F 00 
   138)       596.4  Rx     18EFCD1C  8  A0 00 00 00 00 00 00 00 
   139)       597.1  Rx     18EF1CCD  8  A0 00 00 00 01 00 00 00 
   140)       602.0  Rx     18EF1CCD  8  A3 00 00 00 00 FB FF FB 
   141)       613.7  Rx     18EF1C8F  8  0D 70 00 97 12 F0 73 FC 
   142)       614.6  Rx     18EF1C8F  8  0D 71 17 00 23 00 84 03 
   143)       615.7  Rx     18EF1C8F  8  0D 72 15 00 0A 00 0F 00 
   144)       622.0  Rx     18EF1CCD  8  A1 40 FB FF FF FF 00 00 
   145)       633.7  Rx     18EF1C8F  8  0D 80 00 B5 60 F0 73 FC 
   146)       634.7  Rx     18EF1C8F  8  0D 81 16 00 22 00 84 03 
   147)       635.6  Rx     18EF1C8F  8  0D 82 15 00 0C 00 0F 00 
   148)       653.7  Rx     18EF1C8F  8  0D 90 00 D5 AE F0 73 FC 
   149)       654.6  Rx     18EF1C8F  8  0D 91 15 00 20 00 83 03 
   150)       655.7  Rx     18EF1C8F  8  0D 92 16 00 09 00 0D 00 
   151)       657.5  Rx     18FEF31C  8  F1 28 80 99 AD CE 2C 89 
   152)       658.1  Rx     18FEE81C  8  97 4F 0E 00 00 00 2C 51 
   153)       658.6  Rx     18FEE61C  8  20 07 0E 09 57 29 00 00 
   154)       659.2  Rx     19F8021C  8  EF FC 86 6C 01 00 FF FF 
   155)       673.7  Rx     18EF1C8F  8  0D A0 00 F5 FC F0 73 FC 
   156)       674.6  Rx     18EF1C8F  8  0D A1 17 00 21 00 82 03 
   157)       675.6  Rx     18EF1C8F  8  0D A2 16 00 0A 00 0E 00 
   158)       682.1  Rx     18EF1CCD  8  A2 00 00 00 00 00 00 00 
   159)       693.7  Rx     18EF1C8F  8  0D B0 00 15 4B F1 73 FC 
   160)       694.6  Rx     18EF1C8F  8  0D B1 15 00 23 00 84 03 
   161)       695.6  Rx     18EF1C8F  8  0D B2 15 00 0C 00 0D 00 
   162)       702.2  Rx     18EF1CCD  8  A3 00 00 00 00 FB FF FB 
   163)       713.7  Rx     18EF1C8F  8  0D C0 00 35 99 F1 73 FC 
   164)       714.6  Rx     18EF1C8F  8  0D C1 16 00 23 00 84 03 
   165)       715.6  Rx     18EF1C8F  8  0D C2 16 00 0B 00 0F 00 
   166)       717.6  Rx     18EFCD1C  8  A1 01 00 00 FB FF FF FF 
   167)       722.2  Rx     18EF1CCD  8  A1 40 FB FF FF FF 00 00 
   168)       723.8  Rx     19F8051C  8  E0 2F EF EE 50 46 BE 4B 
   169)       724.3  Rx     19F8051C  8  E1 1E 40 70 4D A1 C7 A6 
   170)       724.8  Rx     19F8051C  8  E2 98 06 60 98 C3 0F F4 
   171)       725.4  Rx     19F8051C  8  E3 91 CB 02 16 E0 41 08 
   172)       726.0  Rx     19F8051C  8  E4 00 00 00 00 40 00 0D 
   173)       726.5  Rx     19F8051C  8  E5 4E 00 85 00 FC 0F 00 
   174)       727.1  Rx     19F8051C  8  E6 00 01 AF 02 58 02 FF 
   175)       733.7  Rx     18EF1C8F  8  0D D0 00 57 E7 F1 73 FC 
   176)       734.6  Rx     18EF1C8F  8  0D D1 15 00 22 00 82 03 
   177)       735.6  Rx     18EF1C8F  8  0D D2 14 00 09 00 0E 00 
   178)       736.4  Rx     18EFCD1C  8  A0 00 14 00 00 00 00 00 
   179)       737.1  Rx     18EF1CCD  8  A0 00 14 00 74 07 00 00 
   180)       753.7  Rx     18EF1C8F  8  0D E0 00 75 35 F2 73 FC 
   181)       754.6  Rx     18EF1C8F  8  0D E1 15 00 23 00 80 03 
   182)       755.6  Rx     18EF1C8F  8  0D E2 15 00 09 00 0F 00 
   183)       756.7  Rx     18EFCD1C  8  A0 00 2A 00 00 00 00 00 
   184)       757.3  Rx     18EF1CCD  8  A0 00 2A 00 85 05 00 00 
   185)       773.7  Rx     18EF1C8F  8  0D F0 00 95 83 F2 74 FC 
   186)       774.6  Rx     18EF1C8F  8  0D F1 17 00 23 00 82 03 
   187)       775.6  Rx     18EF1C8F  8  0D F2 14 00 0A 00 0E 00 
   188)       776.4  Rx     18EFCD1C  8  A0 00 1B 00 00 00 00 00 
   189)       777.1  Rx     18EF1CCD  8  A0 00 1B 00 00 00 00 00 
   190)       782.4  Rx     18EF1CCD  8  A2 00 00 00 00 00 00 00 
   191)       793.7  Rx     18EF1C8F  8  0D 00 00 B5 D1 F2 74 FC 
   192)       794.6  Rx     18EF1C8F  8  0D 01 15 00 23 00 83 03 
   193)       795.6  Rx     18EF1C8F  8  0D 02 16 00 0A 00 0C 00 
   194)       796.4  Rx     18EFCD1C  8  A0 00 00 00 00 00 00 00 
   195)       797.1  Rx     18EF1CCD  8  A0 00 00 00 01 00 00 00 
   196)       802.4  Rx     18EF1CCD  8  A3 00 00 00 00 FB FF FB 
   197)       813.7  Rx     18EF1C8F  8  0D 10 00 D5 1F F3 73 FC 
   198)       814.6  Rx     18EF1C8F  8  0D 11 16 00 23 00 83 03 
   199)       815.6  Rx     18EF1C8F  8  0D 12 16 00 0A 00 0E 00 
   200)       822.4  Rx     18EF1CCD  8  A1 40 FB FF FF FF 00 00 
   201)       833.7  Rx     18EF1C8F  8  0D 20 00 F5 6D F3 73 FC 
   202)       834.6  Rx     18EF1C8F  8  0D 21 14 00 22 00 83 03 
   203)       835.6  Rx     18EF1C8F  8  0D 22 15 00 08 00 0D 00 
   204)       853.7  Rx     18EF1C8F  8  0D 30 00 15 BC F3 73 FC 
   205)       854.6  Rx     18EF1C8F  8  0D 31 16 00 23 00 83 03 
   206)       855.6  Rx     18EF1C8F  8  0D 32 17 00 0B 00 0D 00 
   207)       873.7  Rx     18EF1C8F  8  0D 40 00 35 0A F4 73 FC 
   208)       874.6  Rx     18EF1C8F  8  0D 41 16 00 21 00 84 03 
   209)       875.6  Rx     18EF1C8F  8  0D 42 16 00 0A 00 0E 00 
   210)       882.5  Rx     18EF1CCD  8  A2 00 00 00 00 00 00 00 
   211)       893.7  Rx     18EF1C8F  8  0D 50 00 55 58 F4 73 FC 
   212)       894.6  Rx     18EF1C8F  8  0D 51 17 00 22 00 84 03 
   213)       895.6  Rx     18EF1C8F  8  0D 52 16 00 09 00 0D 00 
   214)       902.6  Rx     18EF1CCD  8  A3 00 00 00 00 FB FF FB 
   215)       913.7  Rx     18EF1C8F  8  0D 60 00 75 A6 F4 73 FC 
   216)       914.6  Rx     18EF1C8F  8  0D 61 16 00 21 00 84 03 
   217)       915.6  Rx     18EF1C8F  8  0D 62 14 00 0B 00 0D 00 
   218)       917.6  Rx     18EFCD1C  8  A1 01 00 00 FB FF FF FF 
   219)       922.6  Rx     18EF1CCD  8  A1 40 FB FF FF FF 00 00 
   220)       933.7  Rx     18EF1C8F  8  0D 70 00 95 F4 F4 73 FC 
   221)       934.6  Rx     18EF1C8F  8  0D 71 14 00 23 00 84 03 
   222)       935.6  Rx     18EF1C8F  8  0D 72 13 00 0B 00 0D 00 
   223)       937.8  Rx     18EFCD1C  8  A0 00 14 00 00 00 00 00 
   224)       938.4  Rx     18EF1CCD  8  A0 00 14 00 75 07 00 00 
   225)       953.7  Rx     18EF1C8F  8  0D 80 00 B7 42 F5 73 FC 
   226)       954.6  Rx     18EF1C8F  8  0D 81 17 00 21 00 83 03 
   227)       955.6  Rx     18EF1C8F  8  0D 82 13 00 0A 00 0C 00 
   228)       956.4  Rx     18EFCD1C  8  A0 00 2A 00 00 00 00 00 
   229)       957.1  Rx     18EF1CCD  8  A0 00 2A 00 86 05 00 00 
   230)       973.7  Rx     18EF1C8F  8  0D 90 00 D5 90 F5 73 FC 
   231)       974.6  Rx     18EF1C8F  8  0D 91 15 00 21 00 85 03 
   232)       975.6  Rx     18EF1C8F  8  0D 92 17 00 09 00 0F 00 
   233)       976.4  Rx     18EFCD1C  8  A0 00 1B 00 00 00 00 00 
   234)       977.0  Rx     18EF1CCD  8  A0 00 1B 00 00 00 00 00 
   235)       982.8  Rx     18EF1CCD  8  A2 00 00 00 00 00 00 00 
   236)       993.7  Rx     18EF1C8F  8  0D A0 00 F5 DE F5 73 FC 
   237)       994.6  Rx     18EF1C8F  8  0D A1 16 00 25 00 83 03 
   238)       995.6  Rx     18EF1C8F  8  0D A2 17 00 0A 00 0F 00 
   239)       996.4  Rx     18EFCD1C  8  A0 00 00 00 00 00 00 00 
   240)       997.0  Rx     18EF1CCD  8  A0 00 00 00 01 00 00 00 
   241)      1002.8  Rx     18EF1CCD  8  A3 00 00 00 00 FB FF FB 
   242)      1013.7  Rx     18EF1C8F  8  0D B0 00 15 2D F6 73 FC 
   243)      1014.6  Rx     18EF1C8F  8  0D B1 15 00 21 00 83 03 
   244)      1015.5  Rx     18EF1C8F  8  0D B2 14 00 0D 00 0D 00 
   245)      1022.8  Rx     18EF1CCD  8  A1 40 FB FF FF FF 00 00 
   246)      1033.7  Rx     18EF1C8F  8  0D C0 00 35 7B F6 73 FC 
   247)      1034.5  Rx     18EF1C8F  8  0D C1 16 00 22 00 83 03 
   248)      1035.6  Rx     18EF1C8F  8  0D C2 15 00 0E 00 0E 00 
   249)      1053.6  Rx     18EF1C8F  8  0D D0 00 55 C9 F6 73 FC 
   250)      1054.6  Rx     18EF1C8F  8  0D D1 17 00 21 00 83 03 
   251)      1055.5  Rx     18EF1C8F  8  0D D2 15 00 0B 00 0E 00 
   252)      1073.7  Rx     18EF1C8F  8  0D E0 00 75 17 F7 73 FC 
   253)      1074.5  Rx     18EF1C8F  8  0D E1 17 00 24 00 83 03 
   254)      1075.6  Rx     18EF1C8F  8  0D E2 14 00 0B 00 0D 00 
   255)      1082.9  Rx     18EF1CCD  8  A2 00 00 00 00 00 00 00 
   256)      1093.6  Rx     18EF1C8F  8  0D F0 00 95 65 F7 73 FC 
   257)      1094.6  Rx     18EF1C8F  8  0D F1 15 00 22 00 82 03 
   258)      1095.5  Rx     18EF1C8F  8  0D F2 13 00 0B 00 0E 00 
   259)      1103.0  Rx     18EF1CCD  8  A3 00 00 00 00 FB FF FB 
   260)      1113.6  Rx     18EF1C8F  8  0D 00 00 B5 B3 F7 73 FC 
   261)      1114.5  Rx     18EF1C8F  8  0D 01 13 00 24 00 84 03 
   262)      1115.6  Rx     18EF1C8F  8  0D 02 12 00 0B 00 0E 00 
   263)      1117.0  Rx     18EFCD1C  8  A1 01 00 00 FB FF FF FF 
   264)      1123.0  Rx     18EF1CCD  8  A1 40 FB FF FF FF 00 00 
   265)      1133.6  Rx     18EF1C8F  8  0D 10 00 D5 01 F8 73 FC 
   266)      1134.5  Rx     18EF1C8F  8  0D 11 16 00 23 00 82 03 
   267)      1135.5  Rx     18EF1C8F  8  0D 12 12 00 09 00 0E 00 
   268)      1137.6  Rx     18EFCD1C  8  A0 00 14 00 00 00 00 00 
   269)      1138.2  Rx     18EF1CCD  8  A0 00 14 00 74 07 00 00 
   270)      1153.6  Rx     18EF1C8F  8  0D 20 00 F5 4F F8 73 FC 
   271)      1154.5  Rx     18EF1C8F  8  0D 21 15 00 22 00 83 03 
   272)      1155.5  Rx     18EF1C8F  8  0D 22 13 00 08 00 0D 00 
   273)      1157.8  Rx     18EFCD1C  8  A0 00 2A 00 00 00 00 00 
   274)      1158.5  Rx     18EF1CCD  8  A0 00 2A 00 85 05 00 00 
   275)      1173.6  Rx     18EF1C8F  8  0D 30 00 17 9E F8 73 FC 
   276)      1174.5  Rx     18EF1C8F  8  0D 31 16 00 22 00 83 03 
   277)      1175.5  Rx     18EF1C8F  8  0D 32 13 00 08 00 0E 00 
   278)      1176.1  Rx     18EFCD1C  8  A0 00 1B 00 00 00 00 00 
   279)      1176.8  Rx     18EF1CCD  8  A0 00 1B 00 00 00 00 00 
   280)      1183.2  Rx     18EF1CCD  8  A2 00 00 00 00 00 00 00 
   281)      1193.6  Rx     18EF1C8F  8  0D 40 00 35 EC F8 73 FC 
   282)      1194.5  Rx     18EF1C8F  8  0D 41 17 00 24 00 84 03 
   283)      1195.5  Rx     18EF1C8F  8  0D 42 14 00 09 00 0F 00 
   284)      1196.1  Rx     18EFCD1C  8  A0 00 00 00 00 00 00 00 
   285)      1196.8  Rx     18EF1CCD  8  A0 00 00 00 01 00 00 00 
   286)      1203.2  Rx     18EF1CCD  8  A3 00 00 00 00 FB FF FB 
   287)      1213.6  Rx     18EF1C8F  8  0D 50 00 55 3A F9 73 FC 
   288)      1214.5  Rx     18EF1C8F  8  0D 51 16 00 22 00 82 03 
   289)      1215.5  Rx     18EF1C8F  8  0D 52 16 00 0B 00 0D 00 
   290)      1223.2  Rx     18EF1CCD  8  A1 40 FB FF FF FF 00 00 
   291)      1233.6  Rx     18EF1C8F  8  0D 60 00 72 88 F9 73 FC 
   292)      1234.5  Rx     18EF1C8F  8  0D 61 16 00 21 00 82 03 
   293)      1235.5  Rx     18EF1C8F  8  0D 62 18 00 0C 00 0C 00 
   294)      1253.6  Rx     18EF1C8F  8  0D 70 00 95 D6 F9 73 FC 
   295)      1254.5  Rx     18EF1C8F  8  0D 71 15 00 20 00 84 03 
   296)      1255.5  Rx     18EF1C8F  8  0D 72 15 00 0E 00 0D 00 
   297)      1273.6  Rx     18EF1C8F  8  0D 80 00 B5 24 FA 73 FC 
   298)      1274.5  Rx     18EF1C8F  8  0D 81 15 00 23 00 83 03 
   299)      1275.5  Rx     18EF1C8F  8  0D 82 16 00 08 00 0F 00 
   300)      1283.4  Rx     18EF1CCD  8  A2 00 00 00 00 00 00 00 
   301)      1293.6  Rx     18EF1C8F  8  0D 90 00 D5 72 FA 73 FC 
   302)      1294.5  Rx     18EF1C8F  8  0D 91 15 00 22 00 83 03 
   303)      1295.6  Rx     18EF1C8F  8  0D 92 14 00 06 00 0E 00 
   304)      1303.4  Rx     18EF1CCD  8  A3 00 00 00 00 FB FF FB 
   305)      1313.6  Rx     18EF1C8F  8  0D A0 00 F5 C0 FA 73 FC 
   306)      1314.5  Rx     18EF1C8F  8  0D A1 16 00 21 00 84 03 
   307)      1315.5  Rx     18EF1C8F  8  0D A2 14 00 07 00 0D 00 
   308)      1316.7  Rx     18EFCD1C  8  A1 01 00 00 FB FF FF FF 
   309)      1323.4  Rx     18EF1CCD  8  A1 40 FB FF FF FF 00 00 
   310)      1333.6  Rx     18EF1C8F  8  0D B0 00 17 0F FB 73 FC 
   311)      1334.5  Rx     18EF1C8F  8  0D B1 17 00 21 00 83 03 
   312)      1335.5  Rx     18EF1C8F  8  0D B2 13 00 0A 00 0F 00 
   313)      1337.4  Rx     18EFCD1C  8  A0 00 14 00 00 00 00 00 
   314)      1338.0  Rx     18EF1CCD  8  A0 00 14 00 74 07 00 00 
   315)      1353.6  Rx     18EF1C8F  8  0D C0 00 35 5D FB 73 FC 
   316)      1354.5  Rx     18EF1C8F  8  0D C1 16 00 22 00 82 03 
   317)      1355.5  Rx     18EF1C8F  8  0D C2 15 00 0E 00 0C 00 
   318)      1357.7  Rx     18EFCD1C  8  A0 00 2A 00 00 00 00 00 
   319)      1358.3  Rx     18EF1CCD  8  A0 00 2A 00 86 05 00 00 
   320)      1373.6  Rx     18EF1C8F  8  0D D0 00 55 AB FB 73 FC 
   321)      1374.5  Rx     18EF1C8F  8  0D D1 18 00 23 00 83 03 
   322)      1375.5  Rx     18EF1C8F  8  0D D2 13 00 0E 00 0C 00 
   323)      1376.1  Rx     18EFCD1C  8  A0 00 1B 00 00 00 00 00 
   324)      1376.8  Rx     18EF1CCD  8  A0 00 1B 00 00 00 00 00 
   325)      1383.6  Rx     18EF1CCD  8  A2 00 00 00 00 00 00 00 
   326)      1393.6  Rx     18EF1C8F  8  0D E0 00 75 F9 FB 73 FC 
   327)      1394.5  Rx     18EF1C8F  8  0D E1 17 00 22 00 83 03 
   328)      1395.5  Rx     18EF1C8F  8  0D E2 13 00 09 00 0E 00 
   329)      1396.1  Rx     18EFCD1C  8  A0 00 00 00 00 00 00 00 
   330)      1396.8  Rx     18EF1CCD  8  A0 00 00 00 01 00 00 00 
   331)      1403.6  Rx     18EF1CCD  8  A3 00 00 00 00 FB FF FB 
   332)      1413.6  Rx     18EF1C8F  8  0D F0 00 97 47 FC 73 FC 
   333)      1414.5  Rx     18EF1C8F  8  0D F1 17 00 23 00 85 03 
   334)      1415.5  Rx     18EF1C8F  8  0D F2 13 00 09 00 0D 00 
   335)      1423.6  Rx     18EF1CCD  8  A1 40 FB FF FF FF 00 00 
   336)      1433.6  Rx     18EF1C8F  8  0D 00 00 B5 95 FC 73 FC 
   337)      1434.5  Rx     18EF1C8F  8  0D 01 16 00 23 00 83 03 
   338)      1435.5  Rx     18EF1C8F  8  0D 02 15 00 0A 00 0C 00 
   339)      1453.6  Rx     18EF1C8F  8  0D 10 00 D5 E3 FC 73 FC 
   340)      1454.5  Rx     18EF1C8F  8  0D 11 15 00 22 00 82 03 
   341)      1455.5  Rx     18EF1C8F  8  0D 12 16 00 0A 00 0C 00 
   342)      1473.6  Rx     18EF1C8F  8  0D 20 00 F2 31 FD 73 FC 
   343)      1474.5  Rx     18EF1C8F  8  0D 21 13 00 21 00 81 03 
   344)      1475.5  Rx     18EF1C8F  8  0D 22 16 00 0B 00 0C 00 
   345)      1483.7  Rx     18EF1CCD  8  A2 00 00 00 00 00 00 00 
   346)      1493.5  Rx     18EF1C8F  8  0D 30 00 17 80 FD 73 FC 
   347)      1494.5  Rx     18EF1C8F  8  0D 31 16 00 24 00 82 03 
   348)      1495.5  Rx     18EF1C8F  8  0D 32 14 00 09 00 0E 00 
   349)      1503.8  Rx     18EF1CCD  8  A3 00 00 00 00 FB FF FB 
   350)      1513.6  Rx     18EF1C8F  8  0D 40 00 35 CE FD 74 FC 
   351)      1514.5  Rx     18EF1C8F  8  0D 41 15 00 22 00 83 03 
   352)      1515.5  Rx     18EF1C8F  8  0D 42 14 00 09 00 10 00 
   353)      1516.6  Rx     18EFCD1C  8  A1 01 00 00 FB FF FF FF 
   354)      1523.8  Rx     18EF1CCD  8  A1 40 FB FF FF FF 00 00 
   355)      1533.5  Rx     18EF1C8F  8  0D 50 00 55 1C FE 74 FC 
   356)      1534.4  Rx     18EF1C8F  8  0D 51 16 00 21 00 83 03 
   357)      1535.5  Rx     18EF1C8F  8  0D 52 16 00 0A 00 0E 00 
   358)      1536.1  Rx     18EFCD1C  8  A0 00 14 00 00 00 00 00 
   359)      1536.7  Rx     18EF1CCD  8  A0 00 14 00 75 07 00 00 
   360)      1553.5  Rx     18EF1C8F  8  0D 60 00 75 6A FE 73 FC 
   361)      1554.5  Rx     18EF1C8F  8  0D 61 15 00 22 00 83 03 
   362)      1555.4  Rx     18EF1C8F  8  0D 62 15 00 09 00 0F 00 
   363)      1557.6  Rx     18EFCD1C  8  A0 00 2A 00 00 00 00 00 
   364)      1558.2  Rx     18EF1CCD  8  A0 00 2A 00 85 05 00 00 
   365)      1573.5  Rx     18EF1C8F  8  0D 70 00 95 B8 FE 73 FC 
   366)      1574.4  Rx     18EF1C8F  8  0D 71 17 00 22 00 83 03 
   367)      1575.5  Rx     18EF1C8F  8  0D 72 16 00 0A 00 0E 00 
   368)      1577.5  Rx     18EFCD1C  8  A0 00 1B 00 00 00 00 00 
   369)      1578.1  Rx     18EF1CCD  8  A0 00 1B 00 00 00 00 00 
   370)      1583.9  Rx     18EF1CCD  8  A2 00 00 00 00 00 00 00 
   371)      1593.5  Rx     18EF1C8F  8  0D 80 00 B7 06 FF 73 FC 
   372)      1594.5  Rx     18EF1C8F  8  0D 81 17 00 22 00 82 03 
   373)      1595.4  Rx     18EF1C8F  8  0D 82 16 00 0B 00 0E 00 
   374)      1596.0  Rx     18EFCD1C  8  A0 00 00 00 00 00 00 00 
   375)      1596.7  Rx     18EF1CCD  8  A0 00 00 00 01 00 00 00 
   376)      1604.0  Rx     18EF1CCD  8  A3 00 00 00 00 FB FF FB 
   377)      1613.5  Rx     18EF1C8F  8  0D 90 00 D5 54 FF 73 FC 
   378)      1614.4  Rx     18EF1C8F  8  0D 91 16 00 20 00 83 03 
   379)      1615.4  Rx     18EF1C8F  8  0D 92 14 00 09 00 10 00 
   380)      1624.0  Rx     18EF1CCD  8  A1 40 FB FF FF FF 00 00 
   381)      1633.5  Rx     18EF1C8F  8  0D A0 00 F5 A2 FF 73 FC 
   382)      1634.4  Rx     18EF1C8F  8  0D A1 15 00 22 00 83 03 
   383)      1635.4  Rx     18EF1C8F  8  0D A2 15 00 0B 00 0E 00 
   384)      1653.5  Rx     18EF1C8F  8  0D B0 00 15 F1 FF 74 FC 
   385)      1654.4  Rx     18EF1C8F  8  0D B1 15 00 22 00 82 03 
   386)      1655.4  Rx     18EF1C8F  8  0D B2 16 00 0A 00 0C 00 
   387)      1657.3  Rx     18FEF31C  8  F0 28 80 99 AD CE 2C 89 
   388)      1657.8  Rx     18FEE81C  8  97 4F 01 00 00 00 2C 51 
   389)      1658.4  Rx     18FEE61C  8  24 07 0E 09 57 29 00 00 
   390)      1659.0  Rx     19F8021C  8  F4 FC 86 6C 00 00 FF FF 
   391)      1673.5  Rx     18EF1C8F  8  0D C0 00 35 3F 00 73 FC 
   392)      1674.4  Rx     18EF1C8F  8  0D C1 15 00 21 00 82 03 
   393)      1675.4  Rx     18EF1C8F  8  0D C2 16 00 0A 00 0E 00 
   394)      1684.1  Rx     18EF1CCD  8  A2 00 00 00 00 00 00 00 
   395)      1693.5  Rx     18EF1C8F  8  0D D0 00 55 8D 00 74 FC 
   396)      1694.4  Rx     18EF1C8F  8  0D D1 17 00 22 00 84 03 
   397)      1695.4  Rx     18EF1C8F  8  0D D2 14 00 0A 00 0D 00 
   398)      1704.1  Rx     18EF1CCD  8  A3 00 00 00 00 FB FF FB 
   399)      1706.8  Rx     19F8051C  8  00 2F F4 EE 50 56 E5 4B 
   400)      1707.3  Rx     19F8051C  8  01 1E 80 4B CB 8D C7 A6 
   401)      1707.9  Rx     19F8051C  8  02 98 06 00 BF CA 12 F4 
   402)      1708.4  Rx     19F8051C  8  03 91 CB 02 46 E3 41 08 
   403)      1709.0  Rx     19F8051C  8  04 00 00 00 00 40 00 0D 
   404)      1709.6  Rx     19F8051C  8  05 4E 00 85 00 FC 0F 00 
   405)      1710.1  Rx     19F8051C  8  06 00 01 AF 02 BC 02 FF 
   406)      1713.5  Rx     18EF1C8F  8  0D E0 00 77 DB 00 74 FC 
   407)      1714.4  Rx     18EF1C8F  8  0D E1 17 00 22 00 83 03 
   408)      1715.4  Rx     18EF1C8F  8  0D E2 15 00 0B 00 10 00 
   409)      1716.5  Rx     18EFCD1C  8  A1 01 00 00 FB FF FF FF 
   410)      1724.2  Rx     18EF1CCD  8  A1 40 FB FF FF FF 00 00 
   411)      1733.5  Rx     18EF1C8F  8  0D F0 00 95 29 01 73 FC 
   412)      1734.4  Rx     18EF1C8F  8  0D F1 14 00 23 00 82 03 
   413)      1735.4  Rx     18EF1C8F  8  0D F2 14 00 0A 00 0F 00 
   414)      1736.0  Rx     18EFCD1C  8  A0 00 14 00 00 00 00 00 
   415)      1736.6  Rx     18EF1CCD  8  A0 00 14 00 74 07 00 00 
   416)      1753.5  Rx     18EF1C8F  8  0D 00 00 B5 77 01 74 FC 
   417)      1754.4  Rx     18EF1C8F  8  0D 01 15 00 22 00 83 03 
   418)      1755.4  Rx     18EF1C8F  8  0D 02 16 00 0A 00 10 00 
   419)      1756.2  Rx     18EFCD1C  8  A0 00 2A 00 00 00 00 00 
   420)      1756.8  Rx     18EF1CCD  8  A0 00 2A 00 85 05 00 00 
   421)      1773.4  Rx     18EF1C8F  8  0D 10 00 D5 C5 01 74 FC 
   422)      1774.4  Rx     18EF1C8F  8  0D 11 16 00 23 00 83 03 
   423)      1775.4  Rx     18EF1C8F  8  0D 12 17 00 09 00 0E 00 
   424)      1777.6  Rx     18EFCD1C  8  A0 00 1B 00 00 00 00 00 
   425)      1778.3  Rx     18EF1CCD  8  A0 00 1B 00 00 00 00 00 
   426)      1784.3  Rx     18EF1CCD  8  A2 00 00 00 00 00 00 00 
   427)      1793.5  Rx     18EF1C8F  8  0D 20 00 F5 13 02 73 FC 
   428)      1794.4  Rx     18EF1C8F  8  0D 21 15 00 24 00 84 03 
   429)      1795.4  Rx     18EF1C8F  8  0D 22 14 00 0B 00 0D 00 
   430)      1797.5  Rx     18EFCD1C  8  A0 00 00 00 00 00 00 00 
   431)      1798.2  Rx     18EF1CCD  8  A0 00 00 00 01 00 00 00 
   432)      1804.3  Rx     18EF1CCD  8  A3 00 00 00 00 FB FF FB 
   433)      1813.4  Rx     18EF1C8F  8  0D 30 00 17 62 02 74 FC 
   434)      1814.4  Rx     18EF1C8F  8  0D 31 15 00 23 00 83 03 
   435)      1815.4  Rx     18EF1C8F  8  0D 32 12 00 09 00 0D 00 
   436)      1824.4  Rx     18EF1CCD  8  A1 40 FB FF FF FF 00 00 
   437)      1833.5  Rx     18EF1C8F  8  0D 40 00 35 B0 02 74 FC 
   438)      1834.4  Rx     18EF1C8F  8  0D 41 14 00 21 00 84 03 
   439)      1835.4  Rx     18EF1C8F  8  0D 42 15 00 09 00 0E 00 
   440)      1853.4  Rx     18EF1C8F  8  0D 50 00 55 FE 02 73 FC 
   441)      1854.3  Rx     18EF1C8F  8  0D 51 16 00 24 00 84 03 
   442)      1855.4  Rx     18EF1C8F  8  0D 52 17 00 08 00 0F 00 
   443)      1873.4  Rx     18EF1C8F  8  0D 60 00 75 4C 03 73 FC 
   444)      1874.4  Rx     18EF1C8F  8  0D 61 15 00 22 00 82 03 
   445)      1875.3  Rx     18EF1C8F  8  0D 62 15 00 09 00 0E 00 
   446)      1884.5  Rx     18EF1CCD  8  A2 00 00 00 00 00 00 00 
   447)      1893.4  Rx     18EF1C8F  8  0D 70 00 95 9A 03 74 FC 
   448)      1894.3  Rx     18EF1C8F  8  0D 71 16 00 23 00 82 03 
   449)      1895.4  Rx     18EF1C8F  8  0D 72 15 00 09 00 0B 00 
   450)      1904.6  Rx     18EF1CCD  8  A3 00 00 00 00 FB FF FB 
   451)      1913.4  Rx     18EF1C8F  8  0D 80 00 B5 E8 03 74 FC 
   452)      1914.4  Rx     18EF1C8F  8  0D 81 16 00 24 00 82 03 
   453)      1915.3  Rx     18EF1C8F  8  0D 82 15 00 09 00 0D 00 
   454)      1916.4  Rx     18EFCD1C  8  A1 01 00 00 FB FF FF FF 
   455)      1924.5  Rx     18EF1CCD  8  A1 40 FB FF FF FF 00 00 
   456)      1933.4  Rx     18EF1C8F  8  0D 90 00 D5 36 04 74 FC 
   457)      1934.3  Rx     18EF1C8F  8  0D 91 17 00 23 00 83 03 
   458)      1935.4  Rx     18EF1C8F  8  0D 92 13 00 0B 00 0E 00 
   459)      1936.0  Rx     18EFCD1C  8  A0 00 14 00 00 00 00 00 
   460)      1936.6  Rx     18EF1CCD  8  A0 00 14 00 74 07 00 00 
   461)      1953.4  Rx     18EF1C8F  8  0D A0 00 F7 84 04 74 FC 
   462)      1954.4  Rx     18EF1C8F  8  0D A1 15 00 24 00 84 03 
   463)      1955.3  Rx     18EF1C8F  8  0D A2 14 00 0B 00 0F 00 
   464)      1956.1  Rx     18EFCD1C  8  A0 00 2A 00 00 00 00 00 
   465)      1956.8  Rx     18EF1CCD  8  A0 00 2A 00 85 05 00 00 
   466)      1973.4  Rx     18EF1C8F  8  0D B0 00 15 D3 04 74 FC 
   467)      1974.3  Rx     18EF1C8F  8  0D B1 17 00 22 00 83 03 
   468)      1975.4  Rx     18EF1C8F  8  0D B2 15 00 0A 00 0E 00 
   469)      1975.9  Rx     18EFCD1C  8  A0 00 1B 00 00 00 00 00 
   470)      1976.7  Rx     18EF1CCD  8  A0 00 1B 00 00 00 00 00 
   471)      1984.7  Rx     18EF1CCD  8  A2 00 00 00 00 00 00 00 
   472)      1993.4  Rx     18EF1C8F  8  0D C0 00 35 21 05 73 FC 
   473)      1994.3  Rx     18EF1C8F  8  0D C1 17 00 22 00 84 03 
   474)      1995.3  Rx     18EF1C8F  8  0D C2 14 00 0B 00 0D 00 
   475)      1997.5  Rx     18EFCD1C  8  A0 00 00 00 00 00 00 00 
   476)      1998.1  Rx     18EF1CCD  8  A0 00 00 00 01 00 00 00 
   477)      2004.7  Rx     18EF1CCD  8  A3 00 00 00 00 FB FF FB 
   478)      2013.4  Rx     18EF1C8F  8  0D D0 00 57 6F 05 73 FC 
   479)      2014.3  Rx     18EF1C8F  8  0D D1 16 00 23 00 82 03 
   480)      2015.3  Rx     18EF1C8F  8  0D D2 16 00 09 00 0E 00 
   481)      2024.8  Rx     18EF1CCD  8  A1 40 FB FF FF FF 00 00 
   482)      2033.4  Rx     18EF1C8F  8  0D E0 00 72 BD 05 73 FC 
   483)      2034.3  Rx     18EF1C8F  8  0D E1 17 00 22 00 84 03 
   484)      2035.3  Rx     18EF1C8F  8  0D E2 14 00 0B 00 0E 00 
   485)      2053.4  Rx     18EF1C8F  8  0D F0 00 95 0B 06 73 FC 
   486)      2054.3  Rx     18EF1C8F  8  0D F1 17 00 24 00 83 03 
   487)      2055.3  Rx     18EF1C8F  8  0D F2 12 00 0A 00 10 00 
   488)      2073.4  Rx     18EF1C8F  8  0D 00 00 B5 59 06 74 FC 
   489)      2074.3  Rx     18EF1C8F  8  0D 01 14 00 22 00 82 03 
   490)      2075.3  Rx     18EF1C8F  8  0D 02 15 00 05 00 0E 00 
   491)      2080.3  Rx     18EFCD1C  4  01 9A 4B 00 
   492)      2080.8  Rx     18EF1CCD  4  01 4C 9A 00 
   493)      2084.9  Rx     18EF1CCD  8  A2 00 00 00 00 00 00 00 
   494)      2093.4  Rx     18EF1C8F  8  0D 10 00 D5 A7 06 73 FC 
   495)      2094.3  Rx     18EF1C8F  8  0D 11 17 00 21 00 83 03 
   496)      2095.3  Rx     18EF1C8F  8  0D 12 14 00 06 00 0E 00 
   497)      2104.9  Rx     18EF1CCD  8  A3 00 00 00 00 FB FF FB 
   498)      2113.4  Rx     18EF1C8F  8  0D 20 00 F5 F5 06 73 FC 
   499)      2114.3  Rx     18EF1C8F  8  0D 21 17 00 23 00 83 03 
   500)      2115.3  Rx     18EF1C8F  8  0D 22 19 00 09 00 0C 00 
   501)      2116.4  Rx     18EFCD1C  8  A1 01 00 00 FB FF FF FF 
   502)      2124.9  Rx     18EF1CCD  8  A1 40 FB FF FF FF 00 00 
   503)      2133.4  Rx     18EF1C8F  8  0D 30 00 15 44 07 74 FC 
   504)      2134.3  Rx     18EF1C8F  8  0D 31 16 00 21 00 83 03 
   505)      2135.3  Rx     18EF1C8F  8  0D 32 17 00 0A 00 0E 00 
   506)      2136.1  Rx     18EFCD1C  8  A0 00 14 00 00 00 00 00 
   507)      2136.7  Rx     18EF1CCD  8  A0 00 14 00 74 07 00 00 
   508)      2153.4  Rx     18EF1C8F  8  0D 40 00 35 92 07 73 FC 
   509)      2154.3  Rx     18EF1C8F  8  0D 41 16 00 21 00 82 03 
   510)      2155.3  Rx     18EF1C8F  8  0D 42 16 00 0C 00 0E 00 
   511)      2155.9  Rx     18EFCD1C  8  A0 00 2A 00 00 00 00 00 
   512)      2156.5  Rx     18EF1CCD  8  A0 00 2A 00 86 05 00 00 
   513)      2173.4  Rx     18EF1C8F  8  0D 50 00 55 E0 07 73 FC 
   514)      2174.3  Rx     18EF1C8F  8  0D 51 17 00 23 00 83 03 
   515)      2175.3  Rx     18EF1C8F  8  0D 52 14 00 0A 00 0F 00 
   516)      2176.4  Rx     18EFCD1C  8  A0 00 1B 00 00 00 00 00 
   517)      2177.1  Rx     18EF1CCD  8  A0 00 1B 00 00 00 00 00 
   518)      2185.1  Rx     18EF1CCD  8  A2 00 00 00 00 00 00 00 
   519)      2193.4  Rx     18EF1C8F  8  0D 60 00 77 2E 08 73 FC 
   520)      2194.3  Rx     18EF1C8F  8  0D 61 15 00 22 00 83 03 
   521)      2195.3  Rx     18EF1C8F  8  0D 62 16 00 0B 00 0F 00 
   522)      2196.3  Rx     18EFCD1C  8  A0 00 00 00 00 00 00 00 
   523)      2197.1  Rx     18EF1CCD  8  A0 00 00 00 01 00 00 00 
   524)      2205.1  Rx     18EF1CCD  8  A3 00 00 00 00 FB FF FB 
   525)      2213.3  Rx     18EF1C8F  8  0D 70 00 97 7C 08 73 FC 
   526)      2214.3  Rx     18EF1C8F  8  0D 71 17 00 23 00 82 03 
   527)      2215.3  Rx     18EF1C8F  8  0D 72 14 00 0A 00 0E 00 
   528)      2225.1  Rx     18EF1CCD  8  A1 40 FB FF FF FF 00 00 
   529)      2233.3  Rx     18EF1C8F  8  0D 80 00 B5 CA 08 73 FC 
   530)      2234.3  Rx     18EF1C8F  8  0D 81 16 00 23 00 83 03 
   531)      2235.2  Rx     18EF1C8F  8  0D 82 14 00 0B 00 0F 00 
   532)      2253.3  Rx     18EF1C8F  8  0D 90 00 D2 18 09 73 FC 
   533)      2254.2  Rx     18EF1C8F  8  0D 91 16 00 22 00 85 03 
   534)      2255.2  Rx     18EF1C8F  8  0D 92 14 00 0B 00 0E 00 
   535)      2273.3  Rx     18EF1C8F  8  0D A0 00 F5 66 09 73 FC 
   536)      2274.2  Rx     18EF1C8F  8  0D A1 16 00 22 00 83 03 
   537)      2275.2  Rx     18EF1C8F  8  0D A2 12 00 0E 00 0D 00 
   538)      2285.2  Rx     18EF1CCD  8  A2 00 00 00 00 00 00 00 
   539)      2293.3  Rx     18EF1C8F  8  0D B0 00 15 B5 09 73 FC 
   540)      2294.2  Rx     18EF1C8F  8  0D B1 16 00 21 00 84 03 
   541)      2295.2  Rx     18EF1C8F  8  0D B2 10 00 0A 00 0D 00 
   542)      2305.3  Rx     18EF1CCD  8  A3 00 00 00 00 FB FF FB 
   543)      2313.3  Rx     18EF1C8F  8  0D C0 00 35 03 0A 73 FC 
   544)      2314.2  Rx     18EF1C8F  8  0D C1 13 00 22 00 83 03 
   545)      2315.2  Rx     18EF1C8F  8  0D C2 13 00 07 00 0D 00 
   546)      2316.4  Rx     18EFCD1C  8  A1 01 00 00 FB FF FF FF 
   547)      2325.3  Rx     18EF1CCD  8  A1 40 FB FF FF FF 00 00 
   548)      2333.3  Rx     18EF1C8F  8  0D D0 00 57 51 0A 73 FC 
   549)      2334.2  Rx     18EF1C8F  8  0D D1 13 00 21 00 84 03 
   550)      2335.2  Rx     18EF1C8F  8  0D D2 14 00 0B 00 0F 00 
   551)      2335.8  Rx     18EFCD1C  8  A0 00 14 00 00 00 00 00 
   552)      2336.4  Rx     18EF1CCD  8  A0 00 14 00 75 07 00 00 
   553)      2353.3  Rx     18EF1C8F  8  0D E0 00 75 9F 0A 73 FC 
   554)      2354.2  Rx     18EF1C8F  8  0D E1 16 00 22 00 83 03 
   555)      2355.2  Rx     18EF1C8F  8  0D E2 15 00 0A 00 0E 00 
   556)      2356.0  Rx     18EFCD1C  8  A0 00 2A 00 00 00 00 00 
   557)      2356.6  Rx     18EF1CCD  8  A0 00 2A 00 86 05 00 00 
   558)      2373.3  Rx     18EF1C8F  8  0D F0 00 95 ED 0A 73 FC 
   559)      2374.2  Rx     18EF1C8F  8  0D F1 15 00 21 00 84 03 
   560)      2375.2  Rx     18EF1C8F  8  0D F2 14 00 0A 00 0E 00 
   561)      2375.8  Rx     18EFCD1C  8  A0 00 1B 00 00 00 00 00 
   562)      2376.4  Rx     18EF1CCD  8  A0 00 1B 00 00 00 00 00 
   563)      2385.4  Rx     18EF1CCD  8  A2 00 00 00 00 00 00 00 
   564)      2393.2  Rx     18EF1C8F  8  0D 00 00 B5 3B 0B 73 FC 
   565)      2394.2  Rx     18EF1C8F  8  0D 01 16 00 23 00 82 03 
   566)      2395.2  Rx     18EF1C8F  8  0D 02 13 00 0A 00 0E 00 
   567)      2395.8  Rx     18EFCD1C  8  A0 00 00 00 00 00 00 00 
   568)      2396.4  Rx     18EF1CCD  8  A0 00 00 00 01 00 00 00 
   569)      2405.4  Rx     18EF1CCD  8  A3 00 00 00 00 FB FF FB 
   570)      2413.3  Rx     18EF1C8F  8  0D 10 00 D7 89 0B 73 FC 
   571)      2414.2  Rx     18EF1C8F  8  0D 11 15 00 22 00 82 03 
   572)      2415.1  Rx     18EF1C8F  8  0D 12 12 00 0A 00 10 00 
   573)      2425.5  Rx     18EF1CCD  8  A1 40 FB FF FF FF 00 00 
   574)      2433.2  Rx     18EF1C8F  8  0D 20 00 F5 D7 0B 73 FC 
   575)      2434.1  Rx     18EF1C8F  8  0D 21 15 00 22 00 82 03 
   576)      2435.2  Rx     18EF1C8F  8  0D 22 14 00 09 00 0E 00 
   577)      2453.2  Rx     18EF1C8F  8  0D 30 00 15 26 0C 73 FC 
   578)      2454.1  Rx     18EF1C8F  8  0D 31 17 00 22 00 82 03 
   579)      2455.1  Rx     18EF1C8F  8  0D 32 15 00 09 00 10 00 
   580)      2473.2  Rx     18EF1C8F  8  0D 40 00 32 74 0C 74 FC 
   581)      2474.1  Rx     18EF1C8F  8  0D 41 17 00 23 00 83 03 
   582)      2475.1  Rx     18EF1C8F  8  0D 42 15 00 0C 00 0E 00 
   583)      2485.6  Rx     18EF1CCD  8  A2 00 00 00 00 00 00 00 
   584)      2493.2  Rx     18EF1C8F  8  0D 50 00 55 C2 0C 73 FC 
   585)      2494.1  Rx     18EF1C8F  8  0D 51 15 00 22 00 82 03 
   586)      2495.1  Rx     18EF1C8F  8  0D 52 13 00 0A 00 0E 00 
   587)      2505.6  Rx     18EF1CCD  8  A3 00 00 00 00 FB FF FB 
   588)      2513.2  Rx     18EF1C8F  8  0D 60 00 75 10 0D 73 FC 
   589)      2514.1  Rx     18EF1C8F  8  0D 61 16 00 23 00 83 03 
   590)      2515.1  Rx     18EF1C8F  8  0D 62 14 00 09 00 0F 00 
   591)      2515.9  Rx     18EFCD1C  8  A1 01 00 00 FB FF FF FF 
   592)      2525.6  Rx     18EF1CCD  8  A1 40 FB FF FF FF 00 00 
   593)      2533.2  Rx     18EF1C8F  8  0D 70 00 95 5E 0D 73 FC 
   594)      2534.1  Rx     18EF1C8F  8  0D 71 16 00 22 00 83 03 
   595)      2535.1  Rx     18EF1C8F  8  0D 72 13 00 09 00 10 00 
   596)      2536.3  Rx     18EFCD1C  8  A0 00 14 00 00 00 00 00 
   597)      2536.9  Rx     18EF1CCD  8  A0 00 14 00 73 07 00 00 
   598)      2553.2  Rx     18EF1C8F  8  0D 80 00 B5 AC 0D 73 FC 
   599)      2554.1  Rx     18EF1C8F  8  0D 81 17 00 23 00 84 03 
   600)      2555.1  Rx     18EF1C8F  8  0D 82 14 00 0A 00 0E 00 
   601)      2555.9  Rx     18EFCD1C  8  A0 00 2A 00 00 00 00 00 
   602)      2556.5  Rx     18EF1CCD  8  A0 00 2A 00 85 05 00 00 
   603)      2573.1  Rx     18EF1C8F  8  0D 90 00 D5 FA 0D 73 FC 
   604)      2574.1  Rx     18EF1C8F  8  0D 91 16 00 22 00 83 03 
   605)      2575.1  Rx     18EF1C8F  8  0D 92 14 00 09 00 0C 00 
   606)      2575.7  Rx     18EFCD1C  8  A0 00 1B 00 00 00 00 00 
   607)      2576.3  Rx     18EF1CCD  8  A0 00 1B 00 00 00 00 00 
   608)      2585.7  Rx     18EF1CCD  8  A2 00 00 00 00 00 00 00 
   609)      2593.2  Rx     18EF1C8F  8  0D A0 00 F7 48 0E 73 FC 
   610)      2594.0  Rx     18EF1C8F  8  0D A1 15 00 21 00 83 03 
   611)      2595.1  Rx     18EF1C8F  8  0D A2 14 00 09 00 0E 00 
   612)      2595.6  Rx     18EFCD1C  8  A0 00 00 00 00 00 00 00 
   613)      2596.3  Rx     18EF1CCD  8  A0 00 00 00 01 00 00 00 
   614)      2605.8  Rx     18EF1CCD  8  A3 00 00 00 00 FB FF FB 
   615)      2613.1  Rx     18EF1C8F  8  0D B0 00 15 97 0E 73 FC 
   616)      2614.0  Rx     18EF1C8F  8  0D B1 17 00 23 00 84 03 
   617)      2615.0  Rx     18EF1C8F  8  0D B2 13 00 09 00 0E 00 
   618)      2625.8  Rx     18EF1CCD  8  A1 40 FB FF FF FF 00 00 
   619)      2633.1  Rx     18EF1C8F  8  0D C0 00 32 E5 0E 73 FC 
   620)      2634.0  Rx     18EF1C8F  8  0D C1 16 00 22 00 85 03 
   621)      2635.0  Rx     18EF1C8F  8  0D C2 14 00 07 00 0E 00 
   622)      2653.1  Rx     18EF1C8F  8  0D D0 00 55 33 0F 73 FC 
   623)      2654.0  Rx     18EF1C8F  8  0D D1 17 00 23 00 84 03 
   624)      2655.0  Rx     18EF1C8F  8  0D D2 17 00 08 00 0D 00 
   625)      2658.3  Rx     18FEF31C  8  F0 28 80 99 AE CE 2C 89 
   626)      2658.9  Rx     18FEE81C  8  97 4F 04 00 00 00 2C 51 
   627)      2659.4  Rx     18FEE61C  8  28 07 0E 09 57 29 00 00 
   628)      2660.0  Rx     19F0101C  8  F9 00 EE 50 66 0C 4C 1E 
   629)      2660.6  Rx     19F8021C  8  F9 FC 86 6C 00 00 FF FF 
   630)      2673.1  Rx     18EF1C8F  8  0D E0 00 77 81 0F 73 FC 
   631)      2674.0  Rx     18EF1C8F  8  0D E1 15 00 23 00 85 03 
   632)      2675.0  Rx     18EF1C8F  8  0D E2 17 00 08 00 0E 00 
   633)      2679.0  Rx     18EF8F1C  4  01 EC 46 00 
   634)      2679.9  Rx     18EF1C8F  4  01 47 EC 00 
   635)      2685.9  Rx     18EF1CCD  8  A2 00 00 00 00 00 00 00 
   636)      2693.1  Rx     18EF1C8F  8  0D F0 00 97 CF 0F 73 FC 
   637)      2694.0  Rx     18EF1C8F  8  0D F1 16 00 22 00 84 03 
   638)      2695.0  Rx     18EF1C8F  8  0D F2 16 00 0B 00 0D 00 
   639)      2705.9  Rx     18EF1CCD  8  A3 00 00 00 00 FB FF FB 
   640)      2709.2  Rx     19F8051C  8  20 2F F9 EE 50 66 0C 4C 
   641)      2709.8  Rx     19F8051C  8  21 1E 80 BB D3 83 C7 A6 
   642)      2710.3  Rx     19F8051C  8  22 98 06 A0 47 8E 3A F4 
   643)      2710.9  Rx     19F8051C  8  23 91 CB 02 BC E5 41 08 
   644)      2711.5  Rx     19F8051C  8  24 00 00 00 00 40 00 0D 
   645)      2712.0  Rx     19F8051C  8  25 4E 00 85 00 FC 0F 00 
   646)      2712.6  Rx     19F8051C  8  26 00 01 AF 02 20 03 FF 
   647)      2713.2  Rx     18EF1C8F  8  0D 00 00 B7 1D 10 73 FC 
   648)      2714.0  Rx     18EF1C8F  8  0D 01 15 00 22 00 82 03 
   649)      2715.0  Rx     18EF1C8F  8  0D 02 14 00 0C 00 0D 00 
   650)      2716.1  Rx     18EFCD1C  8  A1 01 00 00 FB FF FF FF 
   651)      2725.9  Rx     18EF1CCD  8  A1 40 FB FF FF FF 00 00 
   652)      2733.1  Rx     18EF1C8F  8  0D 10 00 D7 6B 10 73 FC 
   653)      2734.0  Rx     18EF1C8F  8  0D 11 15 00 22 00 82 03 
   654)      2735.0  Rx     18EF1C8F  8  0D 12 16 00 0C 00 0D 00 
   655)      2735.6  Rx     18EFCD1C  8  A0 00 14 00 00 00 00 00 
   656)      2736.2  Rx     18EF1CCD  8  A0 00 14 00 74 07 00 00 
   657)      2753.1  Rx     18EF1C8F  8  0D 20 00 F5 B9 10 73 FC 
   658)      2754.0  Rx     18EF1C8F  8  0D 21 18 00 22 00 81 03 
   659)      2755.0  Rx     18EF1C8F  8  0D 22 17 00 08 00 0B 00 
   660)      2755.8  Rx     18EFCD1C  8  A0 00 2A 00 00 00 00 00 
   661)      2756.5  Rx     18EF1CCD  8  A0 00 2A 00 86 05 00 00 
   662)      2773.0  Rx     18EF1C8F  8  0D 30 00 15 08 11 73 FC 
   663)      2774.0  Rx     18EF1C8F  8  0D 31 18 00 22 00 83 03 
   664)      2775.0  Rx     18EF1C8F  8  0D 32 15 00 0C 00 0D 00 
   665)      2775.8  Rx     18EFCD1C  8  A0 00 1B 00 00 00 00 00 
   666)      2776.4  Rx     18EF1CCD  8  A0 00 1B 00 00 00 00 00 
   667)      2786.1  Rx     18EF1CCD  8  A2 00 00 00 00 00 00 00 
   668)      2793.0  Rx     18EF1C8F  8  0D 40 00 35 56 11 73 FC 
   669)      2793.9  Rx     18EF1C8F  8  0D 41 16 00 23 00 84 03 
   670)      2794.9  Rx     18EF1C8F  8  0D 42 16 00 09 00 0D 00 
   671)      2795.5  Rx     18EFCD1C  8  A0 00 00 00 00 00 00 00 
   672)      2796.2  Rx     18EF1CCD  8  A0 00 00 00 01 00 00 00 
   673)      2806.1  Rx     18EF1CCD  8  A3 00 00 00 00 FB FF FB 
   674)      2813.0  Rx     18EF1C8F  8  0D 50 00 57 A4 11 73 FC 
   675)      2813.9  Rx     18EF1C8F  8  0D 51 17 00 21 00 83 03 
   676)      2814.9  Rx     18EF1C8F  8  0D 52 15 00 0A 00 0E 00 
   677)      2826.1  Rx     18EF1CCD  8  A1 40 FB FF FF FF 00 00 
   678)      2833.0  Rx     18EF1C8F  8  0D 60 00 75 F2 11 73 FC 
   679)      2833.9  Rx     18EF1C8F  8  0D 61 18 00 23 00 82 03 
   680)      2834.9  Rx     18EF1C8F  8  0D 62 15 00 0B 00 10 00 
   681)      2853.0  Rx     18EF1C8F  8  0D 70 00 92 40 12 73 FC 
   682)      2853.9  Rx     18EF1C8F  8  0D 71 15 00 21 00 82 03 
   683)      2854.9  Rx     18EF1C8F  8  0D 72 15 00 0A 00 0E 00 
   684)      2873.0  Rx     18EF1C8F  8  0D 80 00 B5 8E 12 73 FC 
   685)      2873.9  Rx     18EF1C8F  8  0D 81 17 00 21 00 84 03 
   686)      2874.9  Rx     18EF1C8F  8  0D 82 16 00 09 00 0D 00 
   687)      2886.2  Rx     18EF1CCD  8  A2 00 00 00 00 00 00 00 
   688)      2892.9  Rx     18EF1C8F  8  0D 90 00 D5 DC 12 73 FC 
   689)      2893.9  Rx     18EF1C8F  8  0D 91 16 00 21 00 84 03 
   690)      2894.9  Rx     18EF1C8F  8  0D 92 17 00 0B 00 0F 00 
   691)      2906.2  Rx     18EF1CCD  8  A3 00 00 00 00 FB FF FB 
   692)      2913.0  Rx     18EF1C8F  8  0D A0 00 F5 2A 13 73 FC 
   693)      2913.9  Rx     18EF1C8F  8  0D A1 16 00 23 00 82 03 
   694)      2914.9  Rx     18EF1C8F  8  0D A2 15 00 0A 00 0E 00 
   695)      2915.9  Rx     18EFCD1C  8  A1 01 00 00 FB FF FF FF 
   696)      2926.3  Rx     18EF1CCD  8  A1 40 FB FF FF FF 00 00 
   697)      2932.9  Rx     18EF1C8F  8  0D B0 00 15 79 13 73 FC 
   698)      2933.9  Rx     18EF1C8F  8  0D B1 18 00 23 00 82 03 
   699)      2934.9  Rx     18EF1C8F  8  0D B2 12 00 0A 00 0F 00 
   700)      2935.5  Rx     18EFCD1C  8  A0 00 14 00 00 00 00 00 
   701)      2936.1  Rx     18EF1CCD  8  A0 00 14 00 74 07 00 00 
   702)      2953.0  Rx     18EF1C8F  8  0D C0 00 35 C7 13 73 FC 
   703)      2953.9  Rx     18EF1C8F  8  0D C1 16 00 21 00 82 03 
   704)      2954.9  Rx     18EF1C8F  8  0D C2 13 00 0D 00 0F 00 
   705)      2956.0  Rx     18EFCD1C  8  A0 00 2A 00 00 00 00 00 
   706)      2956.6  Rx     18EF1CCD  8  A0 00 2A 00 85 05 00 00 
   707)      2972.9  Rx     18EF1C8F  8  0D D0 00 55 15 14 73 FC 
   708)      2973.9  Rx     18EF1C8F  8  0D D1 16 00 22 00 83 03 
   709)      2974.9  Rx     18EF1C8F  8  0D D2 13 00 0B 00 0D 00 
   710)      2975.5  Rx     18EFCD1C  8  A0 00 1B 00 00 00 00 00 
   711)      2976.1  Rx     18EF1CCD  8  A0 00 1B 00 00 00 00 00 
   712)      2986.4  Rx     18EF1CCD  8  A2 00 00 00 00 00 00 00 
   713)      2992.9  Rx     18EF1C8F  8  0D E0 00 75 63 14 73 FC 
   714)      2993.9  Rx     18EF1C8F  8  0D E1 14 00 22 00 83 03 
   715)      2994.8  Rx     18EF1C8F  8  0D E2 14 00 0B 00 0F 00 
   716)      2995.6  Rx     18EFCD1C  8  A0 00 00 00 00 00 00 00 
   717)      2996.3  Rx     18EF1CCD  8  A0 00 00 00 01 00 00 00 
   718)      3006.5  Rx     18EF1CCD  8  A3 00 00 00 00 FB FF FB 
   719)      3012.9  Rx     18EF1C8F  8  0D F0 00 97 B1 14 73 FC 
   720)      3013.8  Rx     18EF1C8F  8  0D F1 14 00 22 00 82 03 
   721)      3014.9  Rx     18EF1C8F  8  0D F2 13 00 0A 00 0F 00 
   722)      3026.5  Rx     18EF1CCD  8  A1 40 FB FF FF FF 00 00 
   723)      3032.9  Rx     18EF1C8F  8  0D 00 00 B5 FF 14 73 FC 
   724)      3033.9  Rx     18EF1C8F  8  0D 01 16 00 21 00 83 03 
   725)      3034.9  Rx     18EF1C8F  8  0D 02 15 00 0A 00 0F 00 
   726)      3052.9  Rx     18EF1C8F  8  0D 10 00 D2 4D 15 73 FC 
   727)      3053.8  Rx     18EF1C8F  8  0D 11 16 00 22 00 83 03 
   728)      3054.9  Rx     18EF1C8F  8  0D 12 13 00 0B 00 0C 00 
   729)      3072.9  Rx     18EF1C8F  8  0D 20 00 F5 9B 15 73 FC 
   730)      3073.8  Rx     18EF1C8F  8  0D 21 16 00 21 00 85 03 
   731)      3074.8  Rx     18EF1C8F  8  0D 22 16 00 0A 00 0F 00 
   732)      3086.6  Rx     18EF1CCD  8  A2 00 00 00 00 00 00 00 
   733)      3092.9  Rx     18EF1C8F  8  0D 30 00 15 EA 15 73 FC 
   734)      3093.8  Rx     18EF1C8F  8  0D 31 15 00 22 00 83 03 
   735)      3094.8  Rx     18EF1C8F  8  0D 32 14 00 0B 00 0E 00 
   736)      3106.6  Rx     18EF1CCD  8  A3 00 00 00 00 FB FF FB 
   737)      3112.9  Rx     18EF1C8F  8  0D 40 00 35 38 16 74 FC 
   738)      3113.8  Rx     18EF1C8F  8  0D 41 17 00 23 00 84 03 
   739)      3114.8  Rx     18EF1C8F  8  0D 42 15 00 0A 00 0E 00 
   740)      3115.9  Rx     18EFCD1C  8  A1 01 00 00 FB FF FF FF 
   741)      3126.7  Rx     18EF1CCD  8  A1 40 FB FF FF FF 00 00 
   742)      3132.9  Rx     18EF1C8F  8  0D 50 00 55 86 16 74 FC 
   743)      3133.8  Rx     18EF1C8F  8  0D 51 16 00 1F 00 85 03 
   744)      3134.8  Rx     18EF1C8F  8  0D 52 17 00 09 00 0E 00 
   745)      3135.4  Rx     18EFCD1C  8  A0 00 14 00 00 00 00 00 
   746)      3136.0  Rx     18EF1CCD  8  A0 00 14 00 73 07 00 00 
   747)      3152.9  Rx     18EF1C8F  8  0D 60 00 75 D4 16 74 FC 
   748)      3153.8  Rx     18EF1C8F  8  0D 61 16 00 24 00 84 03 
   749)      3154.8  Rx     18EF1C8F  8  0D 62 16 00 0B 00 0C 00 
   750)      3155.4  Rx     18EFCD1C  8  A0 00 2A 00 00 00 00 00 
   751)      3156.0  Rx     18EF1CCD  8  A0 00 2A 00 86 05 00 00 
   752)      3172.9  Rx     18EF1C8F  8  0D 70 00 95 22 17 73 FC 
   753)      3173.8  Rx     18EF1C8F  8  0D 71 15 00 25 00 84 03 
   754)      3174.8  Rx     18EF1C8F  8  0D 72 16 00 09 00 0F 00 
   755)      3175.6  Rx     18EFCD1C  8  A0 00 1B 00 00 00 00 00 
   756)      3176.2  Rx     18EF1CCD  8  A0 00 1B 00 00 00 00 00 
   757)      3186.8  Rx     18EF1CCD  8  A2 00 00 00 00 00 00 00 
   758)      3192.9  Rx     18EF1C8F  8  0D 80 00 B7 70 17 74 FC 
   759)      3193.8  Rx     18EF1C8F  8  0D 81 15 00 22 00 83 03 
   760)      3194.8  Rx     18EF1C8F  8  0D 82 17 00 0B 00 11 00 
   761)      3195.6  Rx     18EFCD1C  8  A0 00 00 00 00 00 00 00 
   762)      3196.3  Rx     18EF1CCD  8  A0 00 00 00 01 00 00 00 
   763)      3206.8  Rx     18EF1CCD  8  A3 00 00 00 00 FB FF FB 
   764)      3212.9  Rx     18EF1C8F  8  0D 90 00 D5 BE 17 73 FC 
   765)      3213.8  Rx     18EF1C8F  8  0D 91 14 00 21 00 82 03 
   766)      3214.8  Rx     18EF1C8F  8  0D 92 15 00 0A 00 0D 00 
   767)      3226.9  Rx     18EF1CCD  8  A1 40 FB FF FF FF 00 00 
   768)      3232.9  Rx     18EF1C8F  8  0D A0 00 F5 0C 18 74 FC 
   769)      3233.8  Rx     18EF1C8F  8  0D A1 16 00 23 00 82 03 
   770)      3234.8  Rx     18EF1C8F  8  0D A2 16 00 0A 00 0D 00 
   771)      3252.9  Rx     18EF1C8F  8  0D B0 00 15 5B 18 74 FC 
   772)      3253.8  Rx     18EF1C8F  8  0D B1 14 00 21 00 83 03 
   773)      3254.8  Rx     18EF1C8F  8  0D B2 15 00 0B 00 0D 00 
   774)      3272.9  Rx     18EF1C8F  8  0D C0 00 35 A9 18 73 FC 
   775)      3273.8  Rx     18EF1C8F  8  0D C1 15 00 21 00 84 03 
   776)      3274.8  Rx     18EF1C8F  8  0D C2 16 00 0B 00 0F 00 
   777)      3287.0  Rx     18EF1CCD  8  A2 00 00 00 00 00 00 00 
   778)      3292.9  Rx     18EF1C8F  8  0D D0 00 55 F7 18 73 FC 
   779)      3293.8  Rx     18EF1C8F  8  0D D1 16 00 22 00 82 03 
   780)      3294.8  Rx     18EF1C8F  8  0D D2 11 00 0A 00 0D 00 
   781)      3307.0  Rx     18EF1CCD  8  A3 00 00 00 00 FB FF FB 
   782)      3312.9  Rx     18EF1C8F  8  0D E0 00 75 45 19 74 FC 
   783)      3313.8  Rx     18EF1C8F  8  0D E1 17 00 22 00 82 03 
   784)      3314.8  Rx     18EF1C8F  8  0D E2 13 00 0A 00 10 00 
   785)      3317.5  Rx     18EFCD1C  8  A1 01 00 00 FB FF FF FF 
   786)      3327.1  Rx     18EF1CCD  8  A1 40 FB FF FF FF 00 00 
   787)      3332.9  Rx     18EF1C8F  8  0D F0 00 95 93 19 74 FC 
   788)      3333.8  Rx     18EF1C8F  8  0D F1 17 00 22 00 82 03 
   789)      3334.8  Rx     18EF1C8F  8  0D F2 11 00 0B 00 11 00 
   790)      3335.4  Rx     18EFCD1C  8  A0 00 14 00 00 00 00 00 
   791)      3336.1  Rx     18EF1CCD  8  A0 00 14 00 75 07 00 00 
   792)      3352.9  Rx     18EF1C8F  8  0D 00 00 B7 E1 19 73 FC 
   793)      3353.8  Rx     18EF1C8F  8  0D 01 16 00 20 00 82 03 
   794)      3354.8  Rx     18EF1C8F  8  0D 02 13 00 0A 00 0D 00 
   795)      3355.4  Rx     18EFCD1C  8  A0 00 2A 00 00 00 00 00 
   796)      3356.0  Rx     18EF1CCD  8  A0 00 2A 00 85 05 00 00 
   797)      3372.9  Rx     18EF1C8F  8  0D 10 00 D5 2F 1A 73 FC 
   798)      3373.8  Rx     18EF1C8F  8  0D 11 16 00 21 00 84 03 
   799)      3374.8  Rx     18EF1C8F  8  0D 12 13 00 08 00 0E 00 
   800)      3375.4  Rx     18EFCD1C  8  A0 00 1B 00 00 00 00 00 
   801)      3376.1  Rx     18EF1CCD  8  A0 00 1B 00 00 00 00 00 
   802)      3387.2  Rx     18EF1CCD  8  A2 00 00 00 00 00 00 00 
   803)      3392.9  Rx     18EF1C8F  8  0D 20 00 F5 7D 1A 73 FC 
   804)      3393.8  Rx     18EF1C8F  8  0D 21 16 00 24 00 83 03 
   805)      3394.8  Rx     18EF1C8F  8  0D 22 13 00 0A 00 10 00 
   806)      3395.4  Rx     18EFCD1C  8  A0 00 00 00 00 00 00 00 
   807)      3396.0  Rx     18EF1CCD  8  A0 00 00 00 01 00 00 00 
   808)      3407.3  Rx     18EF1CCD  8  A3 00 00 00 00 FB FF FB 
   809)      3412.9  Rx     18EF1C8F  8  0D 30 00 12 CC 1A 74 FC 
   810)      3413.8  Rx     18EF1C8F  8  0D 31 17 00 21 00 85 03 
   811)      3414.8  Rx     18EF1C8F  8  0D 32 15 00 0B 00 0F 00 
   812)      3427.3  Rx     18EF1CCD  8  A1 40 FB FF FF FF 00 00 
   813)      3432.9  Rx     18EF1C8F  8  0D 40 00 35 1A 1B 73 FC 
   814)      3433.8  Rx     18EF1C8F  8  0D 41 16 00 22 00 83 03 
   815)      3434.8  Rx     18EF1C8F  8  0D 42 13 00 08 00 10 00 
   816)      3452.9  Rx     18EF1C8F  8  0D 50 00 55 68 1B 73 FC 
   817)      3453.8  Rx     18EF1C8F  8  0D 51 17 00 22 00 83 03 
   818)      3454.8  Rx     18EF1C8F  8  0D 52 14 00 09 00 0E 00 
   819)      3472.9  Rx     18EF1C8F  8  0D 60 00 75 B6 1B 73 FC 
   820)      3473.8  Rx     18EF1C8F  8  0D 61 14 00 23 00 84 03 
   821)      3474.8  Rx     18EF1C8F  8  0D 62 15 00 09 00 0F 00 
   822)      3487.4  Rx     18EF1CCD  8  A2 00 00 00 00 00 00 00 
   823)      3492.9  Rx     18EF1C8F  8  0D 70 00 95 04 1C 73 FC 
   824)      3493.7  Rx     18EF1C8F  8  0D 71 15 00 21 00 83 03 
   825)      3494.8  Rx     18EF1C8F  8  0D 72 16 00 0A 00 0F 00 
   826)      3507.5  Rx     18EF1CCD  8  A3 00 00 00 00 FB FF FB 
   827)      3512.8  Rx     18EF1C8F  8  0D 80 00 B5 52 1C 73 FC 
   828)      3513.8  Rx     18EF1C8F  8  0D 81 16 00 20 00 85 03 
   829)      3514.7  Rx     18EF1C8F  8  0D 82 15 00 0B 00 0B 00 
   830)      3516.9  Rx     18EFCD1C  8  A1 01 00 00 FB FF FF FF 
   831)      3527.4  Rx     18EF1CCD  8  A1 40 FB FF FF FF 00 00 
   832)      3532.8  Rx     18EF1C8F  8  0D 90 00 D5 A0 1C 74 FC 
   833)      3533.7  Rx     18EF1C8F  8  0D 91 15 00 22 00 83 03 
   834)      3534.8  Rx     18EF1C8F  8  0D 92 16 00 0B 00 0C 00 
   835)      3535.3  Rx     18EFCD1C  8  A0 00 14 00 00 00 00 00 
   836)      3536.0  Rx     18EF1CCD  8  A0 00 14 00 74 07 00 00 
   837)      3552.8  Rx     18EF1C8F  8  0D A0 00 F5 EE 1C 73 FC 
   838)      3553.7  Rx     18EF1C8F  8  0D A1 18 00 23 00 83 03 
   839)      3554.7  Rx     18EF1C8F  8  0D A2 14 00 0A 00 0C 00 
   840)      3555.3  Rx     18EFCD1C  8  A0 00 2A 00 00 00 00 00 
   841)      3555.9  Rx     18EF1CCD  8  A0 00 2A 00 84 05 00 00 
   842)      3572.8  Rx     18EF1C8F  8  0D B0 00 15 3D 1D 73 FC 
   843)      3573.7  Rx     18EF1C8F  8  0D B1 16 00 22 00 84 03 
   844)      3574.7  Rx     18EF1C8F  8  0D B2 15 00 09 00 0E 00 
   845)      3575.3  Rx     18EFCD1C  8  A0 00 1B 00 00 00 00 00 
   846)      3576.0  Rx     18EF1CCD  8  A0 00 1B 00 00 00 00 00 
   847)      3587.6  Rx     18EF1CCD  8  A2 00 00 00 00 00 00 00 
   848)      3592.8  Rx     18EF1C8F  8  0D C0 00 35 8B 1D 74 FC 
   849)      3593.7  Rx     18EF1C8F  8  0D C1 15 00 23 00 86 03 
   850)      3594.7  Rx     18EF1C8F  8  0D C2 15 00 0B 00 0D 00 
   851)      3595.3  Rx     18EFCD1C  8  A0 00 00 00 00 00 00 00 
   852)      3595.9  Rx     18EF1CCD  8  A0 00 00 00 01 00 00 00 
   853)      3607.6  Rx     18EF1CCD  8  A3 00 00 00 00 FB FF FB 
   854)      3612.8  Rx     18EF1C8F  8  0D D0 00 55 D9 1D 74 FC 
   855)      3613.7  Rx     18EF1C8F  8  0D D1 17 00 23 00 82 03 
   856)      3614.7  Rx     18EF1C8F  8  0D D2 14 00 0B 00 0C 00 
   857)      3627.6  Rx     18EF1CCD  8  A1 40 FB FF FF FF 00 00 
   858)      3632.8  Rx     18EF1C8F  8  0D E0 00 77 27 1E 73 FC 
   859)      3633.7  Rx     18EF1C8F  8  0D E1 17 00 22 00 83 03 
   860)      3634.7  Rx     18EF1C8F  8  0D E2 16 00 0A 00 0E 00 
   861)      3652.8  Rx     18EF1C8F  8  0D F0 00 92 75 1E 73 FC 
   862)      3653.7  Rx     18EF1C8F  8  0D F1 15 00 23 00 84 03 
   863)      3654.7  Rx     18EF1C8F  8  0D F2 14 00 0C 00 0D 00 
   864)      3656.5  Rx     18FEF31C  8  EF 28 80 99 AE CE 2C 89 
   865)      3657.0  Rx     18FEE81C  8  97 4F 0A 00 00 00 2C 51 
   866)      3657.6  Rx     18FEE61C  8  2C 07 0E 09 57 29 00 00 
   867)      3658.2  Rx     19F8021C  8  03 FC 86 6C 00 00 FF FF 
   868)      3672.8  Rx     18EF1C8F  8  0D 00 00 B7 C3 1E 74 FC 
   869)      3673.7  Rx     18EF1C8F  8  0D 01 16 00 24 00 84 03 
   870)      3674.7  Rx     18EF1C8F  8  0D 02 15 00 09 00 0B 00 
   871)      3687.8  Rx     18EF1CCD  8  A2 00 00 00 00 00 00 00 
   872)      3692.8  Rx     18EF1C8F  8  0D 10 00 D5 11 1F 73 FC 
   873)      3693.6  Rx     18EF1C8F  8  0D 11 17 00 22 00 83 03 
   874)      3694.7  Rx     18EF1C8F  8  0D 12 15 00 0A 00 0F 00 
   875)      3705.7  Rx     19F8051C  8  40 2F 03 EE 50 76 33 4C 
   876)      3706.3  Rx     19F8051C  8  41 1E 40 FC A2 5B C7 A6 
   877)      3706.8  Rx     19F8051C  8  42 98 06 40 6F 6E 46 F4 
   878)      3707.3  Rx     19F8051C  8  43 91 CB 02 EC 9C 41 08 
   879)      3707.9  Rx     18EF1CCD  8  A3 00 00 00 00 FB FF FB 
   880)      3708.5  Rx     19F8051C  8  44 00 00 00 00 40 00 0D 
   881)      3709.1  Rx     19F8051C  8  45 4E 00 85 00 FC 0F 00 
   882)      3709.6  Rx     19F8051C  8  46 00 01 AF 02 F4 01 FF 
   883)      3712.7  Rx     18EF1C8F  8  0D 20 00 FA 5F 1F 74 FC 
   884)      3713.7  Rx     18EF1C8F  8  0D 21 17 00 21 00 83 03 
   885)      3714.6  Rx     18EF1C8F  8  0D 22 16 00 0B 00 0F 00 
   886)      3716.3  Rx     18EFCD1C  8  A1 01 00 00 FB FF FF FF 
   887)      3727.8  Rx     18EF1CCD  8  A1 40 FB FF FF FF 00 00 
   888)      3732.8  Rx     18EF1C8F  8  0D 30 00 15 AE 1F 74 FC 
   889)      3733.6  Rx     18EF1C8F  8  0D 31 17 00 23 00 84 03 
   890)      3734.6  Rx     18EF1C8F  8  0D 32 16 00 0B 00 0F 00 
   891)      3736.7  Rx     18EFCD1C  8  A0 00 14 00 00 00 00 00 
   892)      3737.3  Rx     18EF1CCD  8  A0 00 14 00 74 07 00 00 
   893)      3752.7  Rx     18EF1C8F  8  0D 40 00 35 FC 1F 74 FC 
   894)      3753.6  Rx     18EF1C8F  8  0D 41 16 00 23 00 83 03 
   895)      3754.6  Rx     18EF1C8F  8  0D 42 15 00 0B 00 0F 00 
   896)      3755.2  Rx     18EFCD1C  8  A0 00 2A 00 00 00 00 00 
   897)      3755.9  Rx     18EF1CCD  8  A0 00 2A 00 85 05 00 00 
   898)      3772.7  Rx     18EF1C8F  8  0D 50 00 55 4A 20 73 FC 
   899)      3773.6  Rx     18EF1C8F  8  0D 51 17 00 23 00 84 03 
   900)      3774.6  Rx     18EF1C8F  8  0D 52 14 00 0C 00 0D 00 
   901)      3775.2  Rx     18EFCD1C  8  A0 00 1B 00 00 00 00 00 
   902)      3775.9  Rx     18EF1CCD  8  A0 00 1B 00 00 00 00 00 
   903)      3788.0  Rx     18EF1CCD  8  A2 00 00 00 00 00 00 00 
   904)      3792.7  Rx     18EF1C8F  8  0D 60 00 75 98 20 73 FC 
   905)      3793.6  Rx     18EF1C8F  8  0D 61 15 00 23 00 81 03 
   906)      3794.6  Rx     18EF1C8F  8  0D 62 13 00 0B 00 0E 00 
   907)      3795.2  Rx     18EFCD1C  8  A0 00 00 00 00 00 00 00 
   908)      3795.9  Rx     18EF1CCD  8  A0 00 00 00 01 00 00 00 
   909)      3808.0  Rx     18EF1CCD  8  A3 00 00 00 00 FB FF FB 
   910)      3812.7  Rx     18EF1C8F  8  0D 70 00 97 E6 20 74 FC 
   911)      3813.6  Rx     18EF1C8F  8  0D 71 17 00 23 00 84 03 
   912)      3814.6  Rx     18EF1C8F  8  0D 72 11 00 09 00 0E 00 
   913)      3828.0  Rx     18EF1CCD  8  A1 40 FB FF FF FF 00 00 
   914)      3832.7  Rx     18EF1C8F  8  0D 80 00 B5 34 21 74 FC 
   915)      3833.6  Rx     18EF1C8F  8  0D 81 17 00 23 00 84 03 
   916)      3834.6  Rx     18EF1C8F  8  0D 82 13 00 08 00 0E 00 
   917)      3852.7  Rx     18EF1C8F  8  0D 90 00 D2 82 21 74 FC 
   918)      3853.6  Rx     18EF1C8F  8  0D 91 18 00 21 00 81 03 
   919)      3854.6  Rx     18EF1C8F  8  0D 92 15 00 0B 00 0E 00 
   920)      3872.7  Rx     18EF1C8F  8  0D A0 00 F5 D0 21 74 FC 
   921)      3873.6  Rx     18EF1C8F  8  0D A1 16 00 23 00 81 03 
   922)      3874.6  Rx     18EF1C8F  8  0D A2 13 00 0A 00 0E 00 
   923)      3888.1  Rx     18EF1CCD  8  A2 00 00 00 00 00 00 00 
   924)      3892.7  Rx     18EF1C8F  8  0D B0 00 15 1F 22 74 FC 
   925)      3893.6  Rx     18EF1C8F  8  0D B1 16 00 22 00 82 03 
   926)      3894.6  Rx     18EF1C8F  8  0D B2 12 00 0B 00 10 00 
   927)      3908.2  Rx     18EF1CCD  8  A3 00 00 00 00 FB FF FB 
   928)      3912.7  Rx     18EF1C8F  8  0D C0 00 35 6D 22 74 FC 
   929)      3913.6  Rx     18EF1C8F  8  0D C1 17 00 23 00 82 03 
   930)      3914.6  Rx     18EF1C8F  8  0D C2 12 00 0A 00 0E 00 
   931)      3915.7  Rx     18EFCD1C  8  A1 01 00 00 FB FF FF FF 
   932)      3928.2  Rx     18EF1CCD  8  A1 40 FB FF FF FF 00 00 
   933)      3932.7  Rx     18EF1C8F  8  0D D0 00 55 BB 22 74 FC 
   934)      3933.6  Rx     18EF1C8F  8  0D D1 16 00 22 00 82 03 
   935)      3934.6  Rx     18EF1C8F  8  0D D2 14 00 0D 00 0C 00 
   936)      3936.4  Rx     18EFCD1C  8  A0 00 14 00 00 00 00 00 
   937)      3937.0  Rx     18EF1CCD  8  A0 00 14 00 75 07 00 00 
   938)      3952.7  Rx     18EF1C8F  8  0D E0 00 75 09 23 74 FC 
   939)      3953.6  Rx     18EF1C8F  8  0D E1 18 00 21 00 84 03 
   940)      3954.6  Rx     18EF1C8F  8  0D E2 13 00 0A 00 0E 00 
   941)      3956.8  Rx     18EFCD1C  8  A0 00 2A 00 00 00 00 00 
   942)      3957.4  Rx     18EF1CCD  8  A0 00 2A 00 85 05 00 00 
   943)      3972.7  Rx     18EF1C8F  8  0D F0 00 97 57 23 73 FC 
   944)      3973.6  Rx     18EF1C8F  8  0D F1 16 00 22 00 84 03 
   945)      3974.6  Rx     18EF1C8F  8  0D F2 14 00 0B 00 0F 00 
   946)      3975.2  Rx     18EFCD1C  8  A0 00 1B 00 00 00 00 00 
   947)      3975.8  Rx     18EF1CCD  8  A0 00 1B 00 00 00 00 00 
   948)      3988.3  Rx     18EF1CCD  8  A2 00 00 00 00 00 00 00 
   949)      3992.7  Rx     18EF1C8F  8  0D 00 00 B5 A5 23 74 FC 
   950)      3993.6  Rx     18EF1C8F  8  0D 01 16 00 22 00 83 03 
   951)      3994.6  Rx     18EF1C8F  8  0D 02 11 00 0C 00 0D 00 
   952)      3995.2  Rx     18EFCD1C  8  A0 00 00 00 00 00 00 00 
   953)      3995.8  Rx     18EF1CCD  8  A0 00 00 00 01 00 00 00 
   954)      4008.4  Rx     18EF1CCD  8  A3 00 00 00 00 FB FF FB 
   955)      4012.7  Rx     18EF1C8F  8  0D 10 00 D5 F3 23 74 FC 
   956)      4013.6  Rx     18EF1C8F  8  0D 11 16 00 22 00 85 03 
   957)      4014.6  Rx     18EF1C8F  8  0D 12 16 00 0B 00 0B 00 
   958)      4028.4  Rx     18EF1CCD  8  A1 40 FB FF FF FF 00 00 
   959)      4032.7  Rx     18EF1C8F  8  0D 20 00 F5 41 24 74 FC 
   960)      4033.6  Rx     18EF1C8F  8  0D 21 17 00 21 00 84 03 
   961)      4034.6  Rx     18EF1C8F  8  0D 22 15 00 0B 00 0C 00 
   962)      4052.7  Rx     18EF1C8F  8  0D 30 00 15 90 24 73 FC 
   963)      4053.6  Rx     18EF1C8F  8  0D 31 16 00 22 00 84 03 
   964)      4054.6  Rx     18EF1C8F  8  0D 32 15 00 0A 00 0E 00 
   965)      4072.7  Rx     18EF1C8F  8  0D 40 00 35 DE 24 74 FC 
   966)      4073.6  Rx     18EF1C8F  8  0D 41 16 00 21 00 84 03 
   967)      4074.6  Rx     18EF1C8F  8  0D 42 17 00 0A 00 0D 00 
   968)      4088.5  Rx     18EF1CCD  8  A2 00 00 00 00 00 00 00 
   969)      4092.6  Rx     18EF1C8F  8  0D 50 00 55 2C 25 73 FC 
   970)      4093.6  Rx     18EF1C8F  8  0D 51 15 00 21 00 83 03 
   971)      4094.6  Rx     18EF1C8F  8  0D 52 15 00 09 00 0F 00 
   972)      4095.0  Rx     18EFCD1C  4  01 9B 4C 00 
   973)      4095.5  Rx     18EF1CCD  4  01 4D 9B 00 
   974)      4108.6  Rx     18EF1CCD  8  A3 00 00 00 00 FB FF FB 
   975)      4112.7  Rx     18EF1C8F  8  0D 60 00 75 7A 25 74 FC 
   976)      4113.6  Rx     18EF1C8F  8  0D 61 16 00 23 00 83 03 
   977)      4114.6  Rx     18EF1C8F  8  0D 62 16 00 0B 00 0F 00 
   978)      4115.4  Rx     18EFCD1C  8  A1 01 00 00 FB FF FF FF 
   979)      4128.6  Rx     18EF1CCD  8  A1 40 FB FF FF FF 00 00 
   980)      4132.6  Rx     18EF1C8F  8  0D 70 00 97 C8 25 74 FC 
   981)      4133.6  Rx     18EF1C8F  8  0D 71 18 00 22 00 83 03 
   982)      4134.6  Rx     18EF1C8F  8  0D 72 18 00 0A 00 0F 00 
   983)      4135.8  Rx     18EFCD1C  8  A0 00 14 00 00 00 00 00 
   984)      4136.4  Rx     18EF1CCD  8  A0 00 14 00 74 07 00 00 
   985)      4152.7  Rx     18EF1C8F  8  0D 80 00 B5 16 26 74 FC 
   986)      4153.6  Rx     18EF1C8F  8  0D 81 16 00 22 00 81 03 
   987)      4154.6  Rx     18EF1C8F  8  0D 82 16 00 0B 00 0D 00 
   988)      4156.4  Rx     18EFCD1C  8  A0 00 2A 00 00 00 00 00 
   989)      4157.0  Rx     18EF1CCD  8  A0 00 2A 00 85 05 00 00 
   990)      4172.6  Rx     18EF1C8F  8  0D 90 00 D5 64 26 74 FC 
   991)      4173.5  Rx     18EF1C8F  8  0D 91 16 00 21 00 85 03 
   992)      4174.6  Rx     18EF1C8F  8  0D 92 15 00 0A 00 0E 00 
   993)      4176.8  Rx     18EFCD1C  8  A0 00 1B 00 00 00 00 00 
   994)      4177.4  Rx     18EF1CCD  8  A0 00 1B 00 00 00 00 00 
   995)      4188.7  Rx     18EF1CCD  8  A2 00 00 00 00 00 00 00 
   996)      4192.6  Rx     18EF1C8F  8  0D A0 00 F7 B2 26 74 FC 
   997)      4193.6  Rx     18EF1C8F  8  0D A1 15 00 23 00 83 03 
   998)      4194.5  Rx     18EF1C8F  8  0D A2 16 00 09 00 0E 00 
   999)      4195.1  Rx     18EFCD1C  8  A0 00 00 00 00 00 00 00 
  1000)      4195.8  Rx     18EF1CCD  8  A0 00 00 00 01 00 00 00 
  1001)      4208.8  Rx     18EF1CCD  8  A3 00 00 00 00 FB FF FB 
  1002)      4212.6  Rx     18EF1C8F  8  0D B0 00 17 01 27 74 FC 
  1003)      4213.5  Rx     18EF1C8F  8  0D B1 16 00 22 00 82 03 
  1004)      4214.6  Rx     18EF1C8F  8  0D B2 15 00 09 00 0D 00 
  1005)      4228.8  Rx     18EF1CCD  8  A1 40 FB FF FF FF 00 00 
  1006)      4232.6  Rx     18EF1C8F  8  0D C0 00 35 4F 27 73 FC 
  1007)      4233.6  Rx     18EF1C8F  8  0D C1 17 00 21 00 83 03 
  1008)      4234.5  Rx     18EF1C8F  8  0D C2 13 00 09 00 0F 00 
  1009)      4252.6  Rx     18EF1C8F  8  0D D0 00 55 9D 27 74 FC 
  1010)      4253.5  Rx     18EF1C8F  8  0D D1 16 00 21 00 84 03 
  1011)      4254.6  Rx     18EF1C8F  8  0D D2 15 00 0B 00 0D 00 
  1012)      4272.6  Rx     18EF1C8F  8  0D E0 00 72 EB 27 74 FC 
  1013)      4273.6  Rx     18EF1C8F  8  0D E1 15 00 21 00 82 03 
  1014)      4274.5  Rx     18EF1C8F  8  0D E2 15 00 09 00 0F 00 
  1015)      4289.0  Rx     18EF1CCD  8  A2 00 00 00 00 00 00 00 
  1016)      4292.7  Rx     18EF1C8F  8  0D F0 00 97 39 28 73 FC 
  1017)      4293.6  Rx     18EF1C8F  8  0D F1 15 00 22 00 84 03 
  1018)      4294.6  Rx     18EF1C8F  8  0D F2 14 00 0A 00 0C 00 
  1019)      4309.0  Rx     18EF1CCD  8  A3 00 00 00 00 FB FF FB 
  1020)      4312.6  Rx     18EF1C8F  8  0D 00 00 B5 87 28 73 FC 
  1021)      4313.6  Rx     18EF1C8F  8  0D 01 16 00 21 00 84 03 
  1022)      4314.6  Rx     18EF1C8F  8  0D 02 15 00 0A 00 0F 00 
  1023)      4315.7  Rx     18EFCD1C  8  A1 01 00 00 FB FF FF FF 
  1024)      4329.0  Rx     18EF1CCD  8  A1 40 FB FF FF FF 00 00 
  1025)      4332.7  Rx     18EF1C8F  8  0D 10 00 D5 D5 28 74 FC 
  1026)      4333.6  Rx     18EF1C8F  8  0D 11 16 00 22 00 83 03 
  1027)      4334.6  Rx     18EF1C8F  8  0D 12 17 00 0B 00 0F 00 
  1028)      4335.1  Rx     18EFCD1C  8  A0 00 14 00 00 00 00 00 
  1029)      4335.8  Rx     18EF1CCD  8  A0 00 14 00 75 07 00 00 
  1030)      4352.6  Rx     18EF1C8F  8  0D 20 00 F5 23 29 73 FC 
  1031)      4353.6  Rx     18EF1C8F  8  0D 21 17 00 22 00 82 03 
  1032)      4354.6  Rx     18EF1C8F  8  0D 22 15 00 0B 00 0D 00 
  1033)      4356.1  Rx     18EFCD1C  8  A0 00 2A 00 00 00 00 00 
  1034)      4356.8  Rx     18EF1CCD  8  A0 00 2A 00 84 05 00 00 
  1035)      4372.7  Rx     18EF1C8F  8  0D 30 00 15 72 29 73 FC 
  1036)      4373.6  Rx     18EF1C8F  8  0D 31 16 00 23 00 83 03 
  1037)      4374.6  Rx     18EF1C8F  8  0D 32 14 00 09 00 0E 00 
  1038)      4376.4  Rx     18EFCD1C  8  A0 00 1B 00 00 00 00 00 
  1039)      4377.0  Rx     18EF1CCD  8  A0 00 1B 00 00 00 00 00 
  1040)      4389.2  Rx     18EF1CCD  8  A2 00 00 00 00 00 00 00 
  1041)      4392.6  Rx     18EF1C8F  8  0D 40 00 35 C0 29 74 FC 
  1042)      4393.6  Rx     18EF1C8F  8  0D 41 17 00 22 00 82 03 
  1043)      4394.6  Rx     18EF1C8F  8  0D 42 14 00 0A 00 0F 00 
  1044)      4395.2  Rx     18EFCD1C  8  A0 00 00 00 00 00 00 00 
  1045)      4395.8  Rx     18EF1CCD  8  A0 00 00 00 01 00 00 00 
  1046)      4409.2  Rx     18EF1CCD  8  A3 00 00 00 00 FB FF FB 
  1047)      4412.7  Rx     18EF1C8F  8  0D 50 00 55 0E 2A 74 FC 
  1048)      4413.6  Rx     18EF1C8F  8  0D 51 16 00 22 00 83 03 
  1049)      4414.6  Rx     18EF1C8F  8  0D 52 13 00 0A 00 10 00 
  1050)      4429.3  Rx     18EF1CCD  8  A1 40 FB FF FF FF 00 00 
  1051)      4432.6  Rx     18EF1C8F  8  0D 60 00 75 5C 2A 74 FC 
  1052)      4433.6  Rx     18EF1C8F  8  0D 61 16 00 23 00 83 03 
  1053)      4434.6  Rx     18EF1C8F  8  0D 62 15 00 0B 00 0E 00 
  1054)      4452.7  Rx     18EF1C8F  8  0D 70 00 95 AA 2A 74 FC 
  1055)      4453.5  Rx     18EF1C8F  8  0D 71 16 00 21 00 83 03 
  1056)      4454.6  Rx     18EF1C8F  8  0D 72 16 00 0A 00 0B 00 
  1057)      4472.7  Rx     18EF1C8F  8  0D 80 00 B5 F8 2A 74 FC 
  1058)      4473.6  Rx     18EF1C8F  8  0D 81 18 00 23 00 83 03 
  1059)      4474.6  Rx     18EF1C8F  8  0D 82 14 00 09 00 0C 00 
  1060)      4489.4  Rx     18EF1CCD  8  A2 00 00 00 00 00 00 00 
  1061)      4492.7  Rx     18EF1C8F  8  0D 90 00 D5 46 2B 74 FC 
  1062)      4493.5  Rx     18EF1C8F  8  0D 91 16 00 21 00 85 03 
  1063)      4494.6  Rx     18EF1C8F  8  0D 92 12 00 0B 00 0E 00 
  1064)      4509.4  Rx     18EF1CCD  8  A3 00 00 00 00 FB FF FB 
  1065)      4512.7  Rx     18EF1C8F  8  0D A0 00 F5 94 2B 74 FC 
  1066)      4513.6  Rx     18EF1C8F  8  0D A1 17 00 22 00 82 03 
  1067)      4514.6  Rx     18EF1C8F  8  0D A2 13 00 0A 00 0D 00 
  1068)      4515.3  Rx     18EFCD1C  8  A1 01 00 00 FB FF FF FF 
  1069)      4529.5  Rx     18EF1CCD  8  A1 40 FB FF FF FF 00 00 
  1070)      4532.7  Rx     18EF1C8F  8  0D B0 00 15 E3 2B 74 FC 
  1071)      4533.6  Rx     18EF1C8F  8  0D B1 16 00 21 00 85 03 
  1072)      4534.6  Rx     18EF1C8F  8  0D B2 14 00 0A 00 0D 00 
  1073)      4535.2  Rx     18EFCD1C  8  A0 00 14 00 00 00 00 00 
  1074)      4535.8  Rx     18EF1CCD  8  A0 00 14 00 75 07 00 00 
  1075)      4552.7  Rx     18EF1C8F  8  0D C0 00 35 31 2C 74 FC 
  1076)      4553.6  Rx     18EF1C8F  8  0D C1 16 00 23 00 82 03 
  1077)      4554.6  Rx     18EF1C8F  8  0D C2 16 00 0A 00 0F 00 
  1078)      4555.1  Rx     18EFCD1C  8  A0 00 2A 00 00 00 00 00 
  1079)      4555.8  Rx     18EF1CCD  8  A0 00 2A 00 85 05 00 00 
  1080)      4572.6  Rx     18EF1C8F  8  0D D0 00 55 7F 2C 73 FC 
  1081)      4573.6  Rx     18EF1C8F  8  0D D1 16 00 23 00 83 03 
  1082)      4574.6  Rx     18EF1C8F  8  0D D2 15 00 0A 00 0F 00 
  1083)      4576.3  Rx     18EFCD1C  8  A0 00 1B 00 00 00 00 00 
  1084)      4576.9  Rx     18EF1CCD  8  A0 00 1B 00 00 00 00 00 
  1085)      4589.6  Rx     18EF1CCD  8  A2 00 00 00 00 00 00 00 
  1086)      4592.7  Rx     18EF1C8F  8  0D E0 00 77 CD 2C 73 FC 
  1087)      4593.6  Rx     18EF1C8F  8  0D E1 15 00 21 00 83 03 
  1088)      4594.6  Rx     18EF1C8F  8  0D E2 14 00 0A 00 0E 00 
  1089)      4596.4  Rx     18EFCD1C  8  A0 00 00 00 00 00 00 00 
  1090)      4597.0  Rx     18EF1CCD  8  A0 00 00 00 01 00 00 00 
  1091)      4609.7  Rx     18EF1CCD  8  A3 00 00 00 00 FB FF FB 
  1092)      4612.6  Rx     18EF1C8F  8  0D F0 00 95 1B 2D 74 FC 
  1093)      4613.6  Rx     18EF1C8F  8  0D F1 18 00 23 00 84 03 
  1094)      4614.6  Rx     18EF1C8F  8  0D F2 12 00 0B 00 0F 00 
  1095)      4629.7  Rx     18EF1CCD  8  A1 40 FB FF FF FF 00 00 
  1096)      4632.7  Rx     18EF1C8F  8  0D 00 00 B5 69 2D 73 FC 
  1097)      4633.6  Rx     18EF1C8F  8  0D 01 16 00 22 00 83 03 
  1098)      4634.6  Rx     18EF1C8F  8  0D 02 15 00 0A 00 11 00 
  1099)      4652.6  Rx     18EF1C8F  8  0D 10 00 D5 B7 2D 73 FC 
  1100)      4653.6  Rx     18EF1C8F  8  0D 11 17 00 22 00 82 03 
  1101)      4654.6  Rx     18EF1C8F  8  0D 12 13 00 0A 00 0D 00 
  1102)      4656.4  Rx     18FEF31C  8  F0 28 80 99 AE CE 2C 89 
  1103)      4657.0  Rx     18FEE81C  8  97 4F 09 00 00 00 2C 51 
  1104)      4657.5  Rx     18FEE61C  8  30 07 0E 09 57 29 00 00 
  1105)      4658.1  Rx     19F8021C  8  08 FC 86 6C 00 00 FF FF 
  1106)      4672.7  Rx     18EF1C8F  8  0D 20 00 F5 05 2E 74 FC 
  1107)      4673.6  Rx     18EF1C8F  8  0D 21 16 00 23 00 85 03 
  1108)      4674.6  Rx     18EF1C8F  8  0D 22 15 00 0A 00 0E 00 
  1109)      4679.4  Rx     18EF8F1C  4  01 ED 47 00 
  1110)      4680.5  Rx     18EF1C8F  4  01 48 ED 00 
  1111)      4689.8  Rx     18EF1CCD  8  A2 00 00 00 00 00 00 00 
  1112)      4692.7  Rx     18EF1C8F  8  0D 30 00 17 54 2E 74 FC 
  1113)      4693.6  Rx     18EF1C8F  8  0D 31 15 00 22 00 82 03 
  1114)      4694.6  Rx     18EF1C8F  8  0D 32 17 00 0C 00 0E 00 
  1115)      4709.9  Rx     18EF1CCD  8  A3 00 00 00 00 FB FF FB 
  1116)      4712.7  Rx     18EF1C8F  8  0D 40 00 35 A2 2E 73 FC 
  1117)      4713.6  Rx     18EF1C8F  8  0D 41 15 00 23 00 84 03 
  1118)      4714.6  Rx     18EF1C8F  8  0D 42 15 00 0B 00 0E 00 
  1119)      4715.2  Rx     18EFCD1C  8  A1 01 00 00 FB FF FF FF 
  1120)      4719.7  Rx     19F8051C  8  60 2F 08 EE 50 86 5A 4C 
  1121)      4721.1  Rx     19F8051C  8  61 1E C0 A3 5D 90 C7 A6 
  1122)      4721.6  Rx     19F8051C  8  62 98 06 60 71 F2 56 F4 
  1123)      4722.2  Rx     19F8051C  8  63 91 CB 02 54 52 41 08 
  1124)      4722.7  Rx     19F8051C  8  64 00 00 00 00 40 00 0D 
  1125)      4723.3  Rx     19F8051C  8  65 4E 00 85 00 FC 0F 00 
  1126)      4723.9  Rx     19F8051C  8  66 00 01 AF 02 58 02 FF 
  1127)      4729.9  Rx     18EF1CCD  8  A1 40 FB FF FF FF 00 00 
  1128)      4732.7  Rx     18EF1C8F  8  0D 50 00 57 F0 2E 74 FC 
  1129)      4733.6  Rx     18EF1C8F  8  0D 51 16 00 22 00 83 03 
  1130)      4734.6  Rx     18EF1C8F  8  0D 52 13 00 0B 00 0D 00 
  1131)      4735.2  Rx     18EFCD1C  8  A0 00 14 00 00 00 00 00 
  1132)      4735.8  Rx     18EF1CCD  8  A0 00 14 00 75 07 00 00 
  1133)      4752.7  Rx     18EF1C8F  8  0D 60 00 75 3E 2F 74 FC 
  1134)      4753.6  Rx     18EF1C8F  8  0D 61 16 00 22 00 84 03 
  1135)      4754.6  Rx     18EF1C8F  8  0D 62 15 00 0B 00 0D 00 
  1136)      4755.2  Rx     18EFCD1C  8  A0 00 2A 00 00 00 00 00 
  1137)      4755.8  Rx     18EF1CCD  8  A0 00 2A 00 85 05 00 00 
  1138)      4772.7  Rx     18EF1C8F  8  0D 70 00 95 8C 2F 74 FC 
  1139)      4773.6  Rx     18EF1C8F  8  0D 71 14 00 24 00 83 03 
  1140)      4774.6  Rx     18EF1C8F  8  0D 72 15 00 0A 00 0D 00 
  1141)      4775.2  Rx     18EFCD1C  8  A0 00 1B 00 00 00 00 00 
  1142)      4775.8  Rx     18EF1CCD  8  A0 00 1B 00 00 00 00 00 
  1143)      4790.1  Rx     18EF1CCD  8  A2 00 00 00 00 00 00 00 
  1144)      4792.7  Rx     18EF1C8F  8  0D 80 00 B5 DA 2F 73 FC 
  1145)      4793.6  Rx     18EF1C8F  8  0D 81 17 00 22 00 82 03 
  1146)      4794.6  Rx     18EF1C8F  8  0D 82 15 00 09 00 10 00 
  1147)      4796.4  Rx     18EFCD1C  8  A0 00 00 00 00 00 00 00 
  1148)      4797.1  Rx     18EF1CCD  8  A0 00 00 00 01 00 00 00 
  1149)      4810.1  Rx     18EF1CCD  8  A3 00 00 00 00 FB FF FB 
  1150)      4812.7  Rx     18EF1C8F  8  0D 90 00 D5 28 30 74 FC 
  1151)      4813.6  Rx     18EF1C8F  8  0D 91 14 00 21 00 82 03 
  1152)      4814.6  Rx     18EF1C8F  8  0D 92 13 00 0A 00 0C 00 
  1153)      4830.2  Rx     18EF1CCD  8  A1 40 FB FF FF FF 00 00 
  1154)      4832.7  Rx     18EF1C8F  8  0D A0 00 F5 76 30 74 FC 
  1155)      4833.6  Rx     18EF1C8F  8  0D A1 15 00 20 00 83 03 
  1156)      4834.6  Rx     18EF1C8F  8  0D A2 12 00 0A 00 0E 00 
  1157)      4852.7  Rx     18EF1C8F  8  0D B0 00 15 C5 30 74 FC 
  1158)      4853.6  Rx     18EF1C8F  8  0D B1 17 00 22 00 83 03 
  1159)      4854.6  Rx     18EF1C8F  8  0D B2 13 00 0A 00 0E 00 
  1160)      4872.7  Rx     18EF1C8F  8  0D C0 00 32 13 31 74 FC 
  1161)      4873.6  Rx     18EF1C8F  8  0D C1 15 00 22 00 85 03 
  1162)      4874.6  Rx     18EF1C8F  8  0D C2 15 00 0B 00 0C 00 
  1163)      4890.3  Rx     18EF1CCD  8  A2 00 00 00 00 00 00 00 
  1164)      4892.7  Rx     18EF1C8F  8  0D D0 00 55 61 31 74 FC 
  1165)      4893.6  Rx     18EF1C8F  8  0D D1 16 00 23 00 85 03 
  1166)      4894.6  Rx     18EF1C8F  8  0D D2 15 00 0B 00 0C 00 
  1167)      4910.4  Rx     18EF1CCD  8  A3 00 00 00 00 FB FF FB 
  1168)      4912.7  Rx     18EF1C8F  8  0D E0 00 75 AF 31 73 FC 
  1169)      4913.6  Rx     18EF1C8F  8  0D E1 15 00 22 00 83 03 
  1170)      4914.6  Rx     18EF1C8F  8  0D E2 15 00 0B 00 0C 00 
  1171)      4915.2  Rx     18EFCD1C  8  A1 01 00 00 FB FF FF FF 
  1172)      4930.4  Rx     18EF1CCD  8  A1 40 FB FF FF FF 00 00 
  1173)      4932.7  Rx     18EF1C8F  8  0D F0 00 95 FD 31 74 FC 
  1174)      4933.6  Rx     18EF1C8F  8  0D F1 16 00 24 00 83 03 
  1175)      4934.6  Rx     18EF1C8F  8  0D F2 16 00 0A 00 10 00 
  1176)      4935.2  Rx     18EFCD1C  8  A0 00 14 00 00 00 00 00 
  1177)      4935.8  Rx     18EF1CCD  8  A0 00 14 00 75 07 00 00 
  1178)      4952.7  Rx     18EF1C8F  8  0D 00 00 B5 4B 32 74 FC 
  1179)      4953.6  Rx     18EF1C8F  8  0D 01 17 00 21 00 82 03 
  1180)      4954.6  Rx     18EF1C8F  8  0D 02 16 00 0A 00 0F 00 
  1181)      4955.2  Rx     18EFCD1C  8  A0 00 2A 00 00 00 00 00 
  1182)      4955.8  Rx     18EF1CCD  8  A0 00 2A 00 84 05 00 00 
  1183)      4972.7  Rx     18EF1C8F  8  0D 10 00 D5 99 32 74 FC 
  1184)      4973.6  Rx     18EF1C8F  8  0D 11 17 00 24 00 84 03 
  1185)      4974.6  Rx     18EF1C8F  8  0D 12 15 00 05 00 0E 00 
  1186)      4975.2  Rx     18EFCD1C  8  A0 00 1B 00 00 00 00 00 
  1187)      4975.9  Rx     18EF1CCD  8  A0 00 1B 00 00 00 00 00 
  1188)      4990.6  Rx     18EF1CCD  8  A2 00 00 00 00 00 00 00 
  1189)      4992.7  Rx     18EF1C8F  8  0D 20 00 F7 E7 32 74 FC 
  1190)      4993.6  Rx     18EF1C8F  8  0D 21 16 00 23 00 83 03 
  1191)      4994.6  Rx     18EF1C8F  8  0D 22 15 00 05 00 0F 00 
  1192)      4995.2  Rx     18EFCD1C  8  A0 00 00 00 00 00 00 00 
  1193)      4995.8  Rx     18EF1CCD  8  A0 00 00 00 01 00 00 00 
  1194)      5010.6  Rx     18EF1CCD  8  A3 00 00 00 00 FB FF FB 
  1195)      5012.7  Rx     18EF1C8F  8  0D 30 00 15 36 33 74 FC 
  1196)      5013.6  Rx     18EF1C8F  8  0D 31 18 00 23 00 83 03 
  1197)      5014.6  Rx     18EF1C8F  8  0D 32 15 00 0A 00 0E 00 
  1198)      5030.6  Rx     18EF1CCD  8  A1 40 FB FF FF FF 00 00 
  1199)      5032.7  Rx     18EF1C8F  8  0D 40 00 35 84 33 74 FC 
  1200)      5033.7  Rx     18EF1C8F  8  0D 41 16 00 23 00 82 03 
  1201)      5034.6  Rx     18EF1C8F  8  0D 42 15 00 0D 00 0E 00 
  1202)      5052.7  Rx     18EF1C8F  8  0D 50 00 55 D2 33 74 FC 
  1203)      5053.6  Rx     18EF1C8F  8  0D 51 15 00 23 00 84 03 
  1204)      5054.6  Rx     18EF1C8F  8  0D 52 14 00 0B 00 0E 00 
  1205)      5072.7  Rx     18EF1C8F  8  0D 60 00 75 20 34 74 FC 
  1206)      5073.6  Rx     18EF1C8F  8  0D 61 15 00 23 00 83 03 
  1207)      5074.6  Rx     18EF1C8F  8  0D 62 15 00 09 00 0E 00 
  1208)      5090.7  Rx     18EF1CCD  8  A2 00 00 00 00 00 00 00 
  1209)      5092.7  Rx     18EF1C8F  8  0D 70 00 95 6E 34 73 FC 
  1210)      5093.6  Rx     18EF1C8F  8  0D 71 17 00 23 00 82 03 
  1211)      5094.7  Rx     18EF1C8F  8  0D 72 12 00 08 00 10 00 
  1212)      5110.8  Rx     18EF1CCD  8  A3 00 00 00 00 FB FF FB 
  1213)      5112.7  Rx     18EF1C8F  8  0D 80 00 B5 BC 34 74 FC 
  1214)      5113.7  Rx     18EF1C8F  8  0D 81 17 00 24 00 83 03 
  1215)      5114.6  Rx     18EF1C8F  8  0D 82 14 00 06 00 0D 00 
  1216)      5115.2  Rx     18EFCD1C  8  A1 01 00 00 FB FF FF FF 
  1217)      5130.8  Rx     18EF1CCD  8  A1 40 FB FF FF FF 00 00 
  1218)      5132.7  Rx     18EF1C8F  8  0D 90 00 D5 0A 35 74 FC 
  1219)      5133.6  Rx     18EF1C8F  8  0D 91 16 00 21 00 84 03 
  1220)      5134.7  Rx     18EF1C8F  8  0D 92 15 00 0B 00 0F 00 
  1221)      5135.2  Rx     18EFCD1C  8  A0 00 14 00 00 00 00 00 
  1222)      5135.9  Rx     18EF1CCD  8  A0 00 14 00 74 07 00 00 
  1223)      5152.7  Rx     18EF1C8F  8  0D A0 00 F5 58 35 74 FC 
  1224)      5153.6  Rx     18EF1C8F  8  0D A1 15 00 23 00 83 03 
  1225)      5154.6  Rx     18EF1C8F  8  0D A2 16 00 09 00 0C 00 
  1226)      5155.2  Rx     18EFCD1C  8  A0 00 2A 00 00 00 00 00 
  1227)      5155.9  Rx     18EF1CCD  8  A0 00 2A 00 85 05 00 00 
  1228)      5172.7  Rx     18EF1C8F  8  0D B0 00 15 A7 35 74 FC 
  1229)      5173.6  Rx     18EF1C8F  8  0D B1 15 00 22 00 82 03 
  1230)      5174.7  Rx     18EF1C8F  8  0D B2 16 00 09 00 0E 00 
  1231)      5175.2  Rx     18EFCD1C  8  A0 00 1B 00 00 00 00 00 
  1232)      5175.9  Rx     18EF1CCD  8  A0 00 1B 00 00 00 00 00 
  1233)      5191.0  Rx     18EF1CCD  8  A2 00 00 00 00 00 00 00 
  1234)      5192.7  Rx     18EF1C8F  8  0D C0 00 37 F5 35 74 FC 
  1235)      5193.7  Rx     18EF1C8F  8  0D C1 16 00 23 00 82 03 
  1236)      5194.6  Rx     18EF1C8F  8  0D C2 13 00 09 00 0D 00 
  1237)      5195.2  Rx     18EFCD1C  8  A0 00 00 00 00 00 00 00 
  1238)      5195.8  Rx     18EF1CCD  8  A0 00 00 00 01 00 00 00 
  1239)      5211.0  Rx     18EF1CCD  8  A3 00 00 00 00 FB FF FB 
  1240)      5212.7  Rx     18EF1C8F  8  0D D0 00 55 43 36 74 FC 
  1241)      5213.6  Rx     18EF1C8F  8  0D D1 17 00 23 00 84 03 
  1242)      5214.7  Rx     18EF1C8F  8  0D D2 15 00 0B 00 0E 00 
  1243)      5231.1  Rx     18EF1CCD  8  A1 40 FB FF FF FF 00 00 
  1244)      5232.7  Rx     18EF1C8F  8  0D E0 00 75 91 36 74 FC 
  1245)      5233.6  Rx     18EF1C8F  8  0D E1 16 00 21 00 84 03 
  1246)      5234.6  Rx     18EF1C8F  8  0D E2 14 00 0B 00 0D 00 
  1247)      5252.7  Rx     18EF1C8F  8  0D F0 00 92 DF 36 74 FC 
  1248)      5253.6  Rx     18EF1C8F  8  0D F1 19 00 22 00 84 03 
  1249)      5254.7  Rx     18EF1C8F  8  0D F2 13 00 0E 00 0E 00 
  1250)      5272.7  Rx     18EF1C8F  8  0D 00 00 B5 2D 37 73 FC 
  1251)      5273.7  Rx     18EF1C8F  8  0D 01 18 00 23 00 83 03 
  1252)      5274.6  Rx     18EF1C8F  8  0D 02 14 00 0D 00 0F 00 
  1253)      5291.2  Rx     18EF1CCD  8  A2 00 00 00 00 00 00 00 
  1254)      5292.8  Rx     18EF1C8F  8  0D 10 00 D5 7B 37 74 FC 
  1255)      5293.7  Rx     18EF1C8F  8  0D 11 15 00 23 00 84 03 
  1256)      5294.7  Rx     18EF1C8F  8  0D 12 12 00 0B 00 0F 00 
  1257)      5311.3  Rx     18EF1CCD  8  A3 00 00 00 00 FB FF FB 
  1258)      5312.7  Rx     18EF1C8F  8  0D 20 00 F5 C9 37 74 FC 
  1259)      5313.7  Rx     18EF1C8F  8  0D 21 15 00 22 00 83 03 
  1260)      5314.7  Rx     18EF1C8F  8  0D 22 13 00 0C 00 0F 00 
  1261)      5315.8  Rx     18EFCD1C  8  A1 01 00 00 FB FF FF FF 
  1262)      5331.3  Rx     18EF1CCD  8  A1 40 FB FF FF FF 00 00 
  1263)      5332.8  Rx     18EF1C8F  8  0D 30 00 15 18 38 74 FC 
  1264)      5333.7  Rx     18EF1C8F  8  0D 31 14 00 21 00 85 03 
  1265)      5334.7  Rx     18EF1C8F  8  0D 32 13 00 0C 00 0E 00 
  1266)      5335.2  Rx     18EFCD1C  8  A0 00 14 00 00 00 00 00 
  1267)      5335.9  Rx     18EF1CCD  8  A0 00 14 00 74 07 00 00 
  1268)      5352.7  Rx     18EF1C8F  8  0D 40 00 35 66 38 74 FC 
  1269)      5353.7  Rx     18EF1C8F  8  0D 41 16 00 22 00 83 03 
  1270)      5354.7  Rx     18EF1C8F  8  0D 42 15 00 0F 00 10 00 
  1271)      5355.3  Rx     18EFCD1C  8  A0 00 2A 00 00 00 00 00 
  1272)      5355.8  Rx     18EF1CCD  8  A0 00 2A 00 85 05 00 00 
  1273)      5372.8  Rx     18EF1C8F  8  0D 50 00 55 B4 38 74 FC 
  1274)      5373.7  Rx     18EF1C8F  8  0D 51 15 00 23 00 81 03 
  1275)      5374.7  Rx     18EF1C8F  8  0D 52 18 00 07 00 0F 00 
  1276)      5375.2  Rx     18EFCD1C  8  A0 00 1B 00 00 00 00 00 
  1277)      5375.9  Rx     18EF1CCD  8  A0 00 1B 00 00 00 00 00 
  1278)      5391.5  Rx     18EF1CCD  8  A2 00 00 00 00 00 00 00 
  1279)      5392.7  Rx     18EF1C8F  8  0D 60 00 77 02 39 74 FC 
  1280)      5393.7  Rx     18EF1C8F  8  0D 61 15 00 20 00 83 03 
  1281)      5394.7  Rx     18EF1C8F  8  0D 62 15 00 08 00 0E 00 
  1282)      5395.2  Rx     18EFCD1C  8  A0 00 00 00 00 00 00 00 
  1283)      5395.9  Rx     18EF1CCD  8  A0 00 00 00 01 00 00 00 
  1284)      5411.5  Rx     18EF1CCD  8  A3 00 00 00 00 FB FF FB 
  1285)      5412.8  Rx     18EF1C8F  8  0D 70 00 95 50 39 74 FC 
  1286)      5413.7  Rx     18EF1C8F  8  0D 71 15 00 21 00 81 03 
  1287)      5414.7  Rx     18EF1C8F  8  0D 72 16 00 09 00 10 00 
  1288)      5431.5  Rx     18EF1CCD  8  A1 40 FB FF FF FF 00 00 
  1289)      5432.8  Rx     18EF1C8F  8  0D 80 00 B5 9E 39 74 FC 
  1290)      5433.7  Rx     18EF1C8F  8  0D 81 15 00 21 00 83 03 
  1291)      5434.7  Rx     18EF1C8F  8  0D 82 15 00 0B 00 0C 00 
  1292)      5452.8  Rx     18EF1C8F  8  0D 90 00 D5 EC 39 74 FC 
  1293)      5453.6  Rx     18EF1C8F  8  0D 91 14 00 22 00 83 03 
  1294)      5454.7  Rx     18EF1C8F  8  0D 92 15 00 0B 00 0B 00 
  1295)      5472.7  Rx     18EF1C8F  8  0D A0 00 F5 3A 3A 74 FC 
  1296)      5473.7  Rx     18EF1C8F  8  0D A1 15 00 21 00 83 03 
  1297)      5474.6  Rx     18EF1C8F  8  0D A2 13 00 0B 00 0E 00 
  1298)      5491.6  Rx     18EF1CCD  8  A2 00 00 00 00 00 00 00 
  1299)      5492.8  Rx     18EF1C8F  8  0D B0 00 15 89 3A 74 FC 
  1300)      5493.6  Rx     18EF1C8F  8  0D B1 14 00 22 00 84 03 
  1301)      5494.7  Rx     18EF1C8F  8  0D B2 15 00 0A 00 0F 00 
  1302)      5511.7  Rx     18EF1CCD  8  A3 00 00 00 00 FB FF FB 
  1303)      5512.8  Rx     18EF1C8F  8  0D C0 00 35 D7 3A 74 FC 
  1304)      5513.7  Rx     18EF1C8F  8  0D C1 15 00 22 00 83 03 
  1305)      5514.6  Rx     18EF1C8F  8  0D C2 15 00 07 00 0E 00 
  1306)      5515.2  Rx     18EFCD1C  8  A1 01 00 00 FB FF FF FF 
  1307)      5531.7  Rx     18EF1CCD  8  A1 40 FB FF FF FF 00 00 
  1308)      5532.7  Rx     18EF1C8F  8  0D D0 00 55 25 3B 74 FC 
  1309)      5533.6  Rx     18EF1C8F  8  0D D1 14 00 22 00 84 03 
  1310)      5534.7  Rx     18EF1C8F  8  0D D2 14 00 06 00 0D 00 
  1311)      5535.2  Rx     18EFCD1C  8  A0 00 14 00 00 00 00 00 
  1312)      5535.9  Rx     18EF1CCD  8  A0 00 14 00 74 07 00 00 
  1313)      5552.7  Rx     18EF1C8F  8  0D E0 00 75 73 3B 74 FC 
  1314)      5553.7  Rx     18EF1C8F  8  0D E1 17 00 21 00 83 03 
  1315)      5554.6  Rx     18EF1C8F  8  0D E2 15 00 0A 00 0F 00 
  1316)      5555.2  Rx     18EFCD1C  8  A0 00 2A 00 00 00 00 00 
  1317)      5555.8  Rx     18EF1CCD  8  A0 00 2A 00 85 05 00 00 
  1318)      5572.7  Rx     18EF1C8F  8  0D F0 00 97 C1 3B 74 FC 
  1319)      5573.6  Rx     18EF1C8F  8  0D F1 16 00 23 00 84 03 
  1320)      5574.7  Rx     18EF1C8F  8  0D F2 16 00 08 00 0F 00 
  1321)      5575.3  Rx     18EFCD1C  8  A0 00 1B 00 00 00 00 00 
  1322)      5575.9  Rx     18EF1CCD  8  A0 00 1B 00 00 00 00 00 
  1323)      5591.9  Rx     18EF1CCD  8  A2 00 00 00 00 00 00 00 
  1324)      5592.7  Rx     18EF1C8F  8  0D 00 00 B5 0F 3C 74 FC 
  1325)      5593.7  Rx     18EF1C8F  8  0D 01 16 00 22 00 83 03 
  1326)      5594.6  Rx     18EF1C8F  8  0D 02 16 00 09 00 0E 00 
  1327)      5595.2  Rx     18EFCD1C  8  A0 00 00 00 00 00 00 00 
  1328)      5595.9  Rx     18EF1CCD  8  A0 00 00 00 01 00 00 00 
  1329)      5611.9  Rx     18EF1CCD  8  A3 00 00 00 00 FB FF FB 
  1330)      5612.7  Rx     18EF1C8F  8  0D 10 00 D5 5D 3C 74 FC 
  1331)      5613.6  Rx     18EF1C8F  8  0D 11 17 00 22 00 82 03 
  1332)      5614.7  Rx     18EF1C8F  8  0D 12 14 00 0A 00 0E 00 
  1333)      5632.0  Rx     18EF1CCD  8  A1 40 FB FF FF FF 00 00 
  1334)      5632.8  Rx     18EF1C8F  8  0D 20 00 F5 AB 3C 74 FC 
  1335)      5633.7  Rx     18EF1C8F  8  0D 21 16 00 24 00 82 03 
  1336)      5634.6  Rx     18EF1C8F  8  0D 22 15 00 0B 00 0D 00 
  1337)      5652.7  Rx     18EF1C8F  8  0D 30 00 15 FA 3C 74 FC 
  1338)      5653.6  Rx     18EF1C8F  8  0D 31 17 00 23 00 83 03 
  1339)      5654.7  Rx     18EF1C8F  8  0D 32 15 00 0B 00 0C 00 
  1340)      5656.9  Rx     18FEF31C  8  F0 28 80 99 AF CE 2C 89 
  1341)      5657.4  Rx     18FEE81C  8  97 4F 06 00 00 00 2C 51 
  1342)      5658.0  Rx     18FEE61C  8  34 07 0E 09 57 29 00 00 
  1343)      5658.6  Rx     19F8021C  8  0D FC 86 6C 00 00 FF FF 
  1344)      5672.7  Rx     18EF1C8F  8  0D 40 00 37 48 3D 74 FC 
  1345)      5673.7  Rx     18EF1C8F  8  0D 41 17 00 22 00 84 03 
  1346)      5674.6  Rx     18EF1C8F  8  0D 42 15 00 0D 00 0E 00 
  1347)      5692.1  Rx     18EF1CCD  8  A2 00 00 00 00 00 00 00 
  1348)      5692.7  Rx     18EF1C8F  8  0D 50 00 55 96 3D 74 FC 
  1349)      5693.6  Rx     18EF1C8F  8  0D 51 16 00 23 00 84 03 
  1350)      5694.7  Rx     18EF1C8F  8  0D 52 15 00 0B 00 0D 00 
  1351)      5705.1  Rx     19F8051C  8  80 2F 0D EE 50 96 81 4C 
  1352)      5705.6  Rx     19F8051C  8  81 1E 80 69 5E 86 C7 A6 
  1353)      5706.2  Rx     19F8051C  8  82 98 06 00 C1 AD 5D F4 
  1354)      5706.7  Rx     19F8051C  8  83 91 CB 02 65 52 41 08 
  1355)      5707.4  Rx     19F8051C  8  84 00 00 00 00 40 00 0D 
  1356)      5708.0  Rx     19F8051C  8  85 4E 00 85 00 FC 0F 00 
  1357)      5708.5  Rx     19F8051C  8  86 00 01 AF 02 BC 02 FF 
  1358)      5712.2  Rx     18EF1CCD  8  A3 00 00 00 00 FB FF FB 
  1359)      5712.8  Rx     18EF1C8F  8  0D 60 00 77 E4 3D 74 FC 
  1360)      5713.7  Rx     18EF1C8F  8  0D 61 17 00 23 00 82 03 
  1361)      5714.6  Rx     18EF1C8F  8  0D 62 18 00 0A 00 10 00 
  1362)      5715.2  Rx     18EFCD1C  8  A1 01 00 00 FB FF FF FF 
  1363)      5732.2  Rx     18EF1CCD  8  A1 40 FB FF FF FF 00 00 
  1364)      5732.7  Rx     18EF1C8F  8  0D 70 00 95 32 3E 74 FC 
  1365)      5733.6  Rx     18EF1C8F  8  0D 71 18 00 23 00 84 03 
  1366)      5734.7  Rx     18EF1C8F  8  0D 72 14 00 0A 00 0D 00 
  1367)      5735.2  Rx     18EFCD1C  8  A0 00 14 00 00 00 00 00 
  1368)      5735.8  Rx     18EF1CCD  8  A0 00 14 00 75 07 00 00 
  1369)      5752.8  Rx     18EF1C8F  8  0D 80 00 B5 80 3E 74 FC 
  1370)      5753.7  Rx     18EF1C8F  8  0D 81 18 00 21 00 83 03 
  1371)      5754.6  Rx     18EF1C8F  8  0D 82 15 00 0A 00 0F 00 
  1372)      5755.2  Rx     18EFCD1C  8  A0 00 2A 00 00 00 00 00 
  1373)      5755.9  Rx     18EF1CCD  8  A0 00 2A 00 84 05 00 00 
  1374)      5772.7  Rx     18EF1C8F  8  0D 90 00 D5 CE 3E 74 FC 
  1375)      5773.6  Rx     18EF1C8F  8  0D 91 16 00 22 00 83 03 
  1376)      5774.7  Rx     18EF1C8F  8  0D 92 15 00 0A 00 0F 00 
  1377)      5775.2  Rx     18EFCD1C  8  A0 00 1B 00 00 00 00 00 
  1378)      5775.9  Rx     18EF1CCD  8  A0 00 1B 00 00 00 00 00 
  1379)      5792.3  Rx     18EF1CCD  8  A2 00 00 00 00 00 00 00 
  1380)      5792.9  Rx     18EF1C8F  8  0D A0 00 F5 1C 3F 74 FC 
  1381)      5793.6  Rx     18EF1C8F  8  0D A1 16 00 23 00 84 03 
  1382)      5794.6  Rx     18EF1C8F  8  0D A2 14 00 08 00 0D 00 
  1383)      5795.2  Rx     18EFCD1C  8  A0 00 00 00 00 00 00 00 
  1384)      5795.9  Rx     18EF1CCD  8  A0 00 00 00 01 00 00 00 
  1385)      5812.3  Rx     18EF1CCD  8  A3 00 00 00 00 FB FF FB 
  1386)      5812.9  Rx     18EF1C8F  8  0D B0 00 15 6B 3F 74 FC 
  1387)      5813.6  Rx     18EF1C8F  8  0D B1 17 00 22 00 85 03 
  1388)      5814.6  Rx     18EF1C8F  8  0D B2 16 00 08 00 0E 00 
  1389)      5832.4  Rx     18EF1CCD  8  A1 40 FB FF FF FF 00 00 
  1390)      5833.0  Rx     18EF1C8F  8  0D C0 00 35 B9 3F 74 FC 
  1391)      5833.6  Rx     18EF1C8F  8  0D C1 18 00 23 00 83 03 
  1392)      5834.6  Rx     18EF1C8F  8  0D C2 15 00 0A 00 0C 00 
  1393)      5852.7  Rx     18EF1C8F  8  0D D0 00 55 07 40 74 FC 
  1394)      5853.6  Rx     18EF1C8F  8  0D D1 13 00 21 00 84 03 
  1395)      5854.6  Rx     18EF1C8F  8  0D D2 14 00 0E 00 0E 00 
  1396)      5872.7  Rx     18EF1C8F  8  0D E0 00 72 55 40 74 FC 
  1397)      5873.6  Rx     18EF1C8F  8  0D E1 16 00 23 00 84 03 
  1398)      5874.6  Rx     18EF1C8F  8  0D E2 13 00 0D 00 0D 00 
  1399)      5892.5  Rx     18EF1CCD  8  A2 00 00 00 00 00 00 00 
  1400)      5893.0  Rx     18EF1C8F  8  0D F0 00 95 A3 40 74 FC 
  1401)      5893.6  Rx     18EF1C8F  8  0D F1 16 00 23 00 82 03 
  1402)      5894.6  Rx     18EF1C8F  8  0D F2 14 00 0C 00 0E 00 
  1403)      5912.5  Rx     18EF1CCD  8  A3 00 00 00 00 FB FF FB 
  1404)      5913.1  Rx     18EF1C8F  8  0D 00 00 B5 F1 40 74 FC 
  1405)      5913.6  Rx     18EF1C8F  8  0D 01 15 00 22 00 82 03 
  1406)      5914.6  Rx     18EF1C8F  8  0D 02 15 00 0E 00 0E 00 
  1407)      5915.2  Rx     18EFCD1C  8  A1 01 00 00 FB FF FF FF 
  1408)      5932.6  Rx     18EF1CCD  8  A1 40 FB FF FF FF 00 00 
  1409)      5933.2  Rx     18EF1C8F  8  0D 10 00 D5 3F 41 74 FC 
  1410)      5933.7  Rx     18EF1C8F  8  0D 11 16 00 23 00 82 03 
  1411)      5934.6  Rx     18EF1C8F  8  0D 12 15 00 08 00 0E 00 
  1412)      5935.2  Rx     18EFCD1C  8  A0 00 14 00 00 00 00 00 
  1413)      5935.8  Rx     18EF1CCD  8  A0 00 14 00 74 07 00 00 
  1414)      5952.7  Rx     18EF1C8F  8  0D 20 00 F7 8D 41 74 FC 
  1415)      5953.6  Rx     18EF1C8F  8  0D 21 14 00 23 00 82 03 
  1416)      5954.6  Rx     18EF1C8F  8  0D 22 14 00 08 00 0E 00 
  1417)      5955.2  Rx     18EFCD1C  8  A0 00 2A 00 00 00 00 00 
  1418)      5955.8  Rx     18EF1CCD  8  A0 00 2A 00 85 05 00 00 
  1419)      5972.7  Rx     18EF1C8F  8  0D 30 00 15 DC 41 74 FC 
  1420)      5973.6  Rx     18EF1C8F  8  0D 31 15 00 23 00 83 03 
  1421)      5974.6  Rx     18EF1C8F  8  0D 32 13 00 0A 00 0E 00 
  1422)      5975.2  Rx     18EFCD1C  8  A0 00 1B 00 00 00 00 00 
  1423)      5975.8  Rx     18EF1CCD  8  A0 00 1B 00 00 00 00 00 
  1424)      5992.7  Rx     18EF1C8F  8  0D 40 00 35 2A 42 74 FC 
  1425)      5993.3  Rx     18EF1CCD  8  A2 00 00 00 00 00 00 00 
  1426)      5993.9  Rx     18EF1C8F  8  0D 41 14 00 22 00 83 03 
  1427)      5994.6  Rx     18EF1C8F  8  0D 42 14 00 09 00 0D 00 
  1428)      5995.2  Rx     18EFCD1C  8  A0 00 00 00 00 00 00 00 
  1429)      5995.9  Rx     18EF1CCD  8  A0 00 00 00 01 00 00 00 
  1430)      6012.7  Rx     18EF1C8F  8  0D 50 00 55 78 42 74 FC 
  1431)      6013.3  Rx     18EF1CCD  8  A3 00 00 00 00 FB FF FB 
  1432)      6013.8  Rx     18EF1C8F  8  0D 51 16 00 22 00 84 03 
  1433)      6014.6  Rx     18EF1C8F  8  0D 52 15 00 09 00 0E 00 
  1434)      6032.7  Rx     18EF1C8F  8  0D 60 00 75 C6 42 74 FC 
  1435)      6033.3  Rx     18EF1CCD  8  A1 40 FB FF FF FF 00 00 
  1436)      6033.8  Rx     18EF1C8F  8  0D 61 16 00 23 00 82 03 
  1437)      6034.6  Rx     18EF1C8F  8  0D 62 14 00 08 00 0D 00 
  1438)      6052.7  Rx     18EF1C8F  8  0D 70 00 95 14 43 74 FC 
  1439)      6053.6  Rx     18EF1C8F  8  0D 71 16 00 21 00 82 03 
  1440)      6054.6  Rx     18EF1C8F  8  0D 72 14 00 0A 00 0E 00 
  1441)      6072.7  Rx     18EF1C8F  8  0D 80 00 B2 62 43 74 FC 
  1442)      6073.6  Rx     18EF1C8F  8  0D 81 13 00 22 00 83 03 
  1443)      6074.6  Rx     18EF1C8F  8  0D 82 15 00 0B 00 0B 00 
  1444)      6092.7  Rx     18EF1C8F  8  0D 90 00 D5 B0 43 74 FC 
  1445)      6093.3  Rx     18EF1CCD  8  A2 00 00 00 00 00 00 00 
  1446)      6093.8  Rx     18EF1C8F  8  0D 91 14 00 22 00 83 03 
  1447)      6094.6  Rx     18EF1C8F  8  0D 92 14 00 09 00 0D 00 
  1448)      6096.1  Rx     18EFCD1C  4  01 9C 4D 00 
  1449)      6096.6  Rx     18EF1CCD  4  01 4E 9C 00 
  1450)      6112.7  Rx     18EF1C8F  8  0D A0 00 F5 FE 43 74 FC 
  1451)      6113.3  Rx     18EF1CCD  8  A3 00 00 00 00 FB FF FB 
  1452)      6113.8  Rx     18EF1C8F  8  0D A1 16 00 22 00 85 03 
  1453)      6114.6  Rx     18EF1C8F  8  0D A2 15 00 09 00 0C 00 
  1454)      6117.3  Rx     18EFCD1C  8  A1 01 00 00 FB FF FF FF 
  1455)      6132.7  Rx     18EF1C8F  8  0D B0 00 15 4D 44 74 FC 
  1456)      6133.3  Rx     18EF1CCD  8  A1 40 FB FF FF FF 00 00 
  1457)      6133.8  Rx     18EF1C8F  8  0D B1 16 00 23 00 85 03 
  1458)      6134.6  Rx     18EF1C8F  8  0D B2 14 00 0A 00 0E 00 
  1459)      6135.2  Rx     18EFCD1C  8  A0 00 14 00 00 00 00 00 
  1460)      6135.8  Rx     18EF1CCD  8  A0 00 14 00 75 07 00 00 
  1461)      6152.7  Rx     18EF1C8F  8  0D C0 00 35 9B 44 74 FC 
  1462)      6153.6  Rx     18EF1C8F  8  0D C1 17 00 21 00 83 03 
  1463)      6154.6  Rx     18EF1C8F  8  0D C2 14 00 0A 00 0E 00 
  1464)      6155.2  Rx     18EFCD1C  8  A0 00 2A 00 00 00 00 00 
  1465)      6155.8  Rx     18EF1CCD  8  A0 00 2A 00 85 05 00 00 
  1466)      6172.7  Rx     18EF1C8F  8  0D D0 00 55 E9 44 75 FC 
  1467)      6173.6  Rx     18EF1C8F  8  0D D1 17 00 20 00 85 03 
  1468)      6174.6  Rx     18EF1C8F  8  0D D2 14 00 0A 00 0E 00 
  1469)      6175.2  Rx     18EFCD1C  8  A0 00 1B 00 00 00 00 00 
  1470)      6175.9  Rx     18EF1CCD  8  A0 00 1B 00 00 00 00 00 
  1471)      6192.7  Rx     18EF1C8F  8  0D E0 00 75 37 45 74 FC 
  1472)      6193.3  Rx     18EF1CCD  8  A2 00 00 00 00 00 00 00 
  1473)      6193.8  Rx     18EF1C8F  8  0D E1 16 00 24 00 83 03 
  1474)      6194.6  Rx     18EF1C8F  8  0D E2 15 00 09 00 0F 00 
  1475)      6195.2  Rx     18EFCD1C  8  A0 00 00 00 00 00 00 00 
  1476)      6195.8  Rx     18EF1CCD  8  A0 00 00 00 01 00 00 00 
  1477)      6212.7  Rx     18EF1C8F  8  0D F0 00 95 85 45 74 FC 
  1478)      6213.3  Rx     18EF1CCD  8  A3 00 00 00 00 FB FF FB 
  1479)      6213.9  Rx     18EF1C8F  8  0D F1 17 00 22 00 83 03 
  1480)      6214.6  Rx     18EF1C8F  8  0D F2 15 00 0A 00 0D 00 
  1481)      6232.7  Rx     18EF1C8F  8  0D 00 00 B5 D3 45 74 FC 
  1482)      6233.3  Rx     18EF1CCD  8  A1 40 FB FF FF FF 00 00 
  1483)      6233.8  Rx     18EF1C8F  8  0D 01 19 00 22 00 82 03 
  1484)      6234.6  Rx     18EF1C8F  8  0D 02 12 00 09 00 0D 00 
  1485)      6252.7  Rx     18EF1C8F  8  0D 10 00 D5 21 46 74 FC 
  1486)      6253.6  Rx     18EF1C8F  8  0D 11 16 00 22 00 82 03 
  1487)      6254.6  Rx     18EF1C8F  8  0D 12 14 00 0B 00 10 00 
  1488)      6272.7  Rx     18EF1C8F  8  0D 20 00 F2 6F 46 74 FC 
  1489)      6273.6  Rx     18EF1C8F  8  0D 21 18 00 22 00 80 03 
  1490)      6274.6  Rx     18EF1C8F  8  0D 22 14 00 0A 00 0F 00 
  1491)      6292.7  Rx     18EF1C8F  8  0D 30 00 15 BE 46 74 FC 
  1492)      6293.5  Rx     18EF1CCD  8  A2 00 00 00 00 00 00 00 
  1493)      6294.0  Rx     18EF1C8F  8  0D 31 16 00 21 00 82 03 
  1494)      6294.7  Rx     18EF1C8F  8  0D 32 15 00 0B 00 0E 00 
  1495)      6312.8  Rx     18EF1C8F  8  0D 40 00 35 0C 47 74 FC 
  1496)      6313.5  Rx     18EF1CCD  8  A3 00 00 00 00 FB FF FB 
  1497)      6314.1  Rx     18EF1C8F  8  0D 41 17 00 24 00 84 03 
  1498)      6314.7  Rx     18EF1C8F  8  0D 42 15 00 0A 00 10 00 
  1499)      6316.8  Rx     18EFCD1C  8  A1 01 00 00 FB FF FF FF 
  1500)      6332.7  Rx     18EF1C8F  8  0D 50 00 55 5A 47 74 FC 
  1501)      6333.5  Rx     18EF1CCD  8  A1 40 FB FF FF FF 00 00 
  1502)      6334.1  Rx     18EF1C8F  8  0D 51 17 00 21 00 85 03 
  1503)      6334.7  Rx     18EF1C8F  8  0D 52 14 00 0A 00 0F 00 
  1504)      6337.2  Rx     18EFCD1C  8  A0 00 14 00 00 00 00 00 
  1505)      6337.8  Rx     18EF1CCD  8  A0 00 14 00 74 07 00 00 
  1506)      6352.8  Rx     18EF1C8F  8  0D 60 00 77 A8 47 74 FC 
  1507)      6353.6  Rx     18EF1C8F  8  0D 61 16 00 22 00 84 03 
  1508)      6354.7  Rx     18EF1C8F  8  0D 62 14 00 09 00 0E 00 
  1509)      6355.2  Rx     18EFCD1C  8  A0 00 2A 00 00 00 00 00 
  1510)      6355.9  Rx     18EF1CCD  8  A0 00 2A 00 85 05 00 00 
