;$FILEVERSION=1.1
;$STARTTIME=46287.6710403588
;
;   Start time: 9/22/2026 16:06:17.887.0
;   Generated by PCAN-View v5.3.3.958
;
;   Message Number
;   |         Time Offset (ms)
;   |         |        Type
;   |         |        |        ID (hex)
;   |         |        |        |     Data Length
;   |         |        |        |     |   Data Bytes (hex) ...
;   |         |        |        |     |   |
;---+--   ----+----  --+--  ----+---  +  -+ -- -- -- -- -- -- --
     1)         9.5  Rx     18EF1CCD  8  A1 40 00 00 00 00 00 00 
     2)        10.3  Rx     18EF1C8F  8  0D B0 00 15 ED E8 66 FC 
     3)        11.2  Rx     18EF1C8F  8  0D B1 17 00 21 00 82 03 
     4)        12.2  Rx     18EF1C8F  8  0D B2 14 00 0B 00 0E 00 
     5)        30.3  Rx     18EF1C8F  8  0D C0 00 35 3B E9 66 FC 
     6)        31.2  Rx     18EF1C8F  8  0D C1 13 00 22 00 84 03 
     7)        32.2  Rx     18EF1C8F  8  0D C2 15 00 09 00 0D 00 
     8)        50.3  Rx     18EF1C8F  8  0D D0 00 55 89 E9 65 FC 
     9)        51.2  Rx     18EF1C8F  8  0D D1 16 00 22 00 84 03 
    10)        52.2  Rx     18EF1C8F  8  0D D2 14 00 0A 00 0E 00 
    11)        69.6  Rx     18EF1CCD  8  A2 00 00 00 00 00 00 00 
    12)        70.3  Rx     18EF1C8F  8  0D E0 00 75 D7 E9 65 FC 
    13)        71.2  Rx     18EF1C8F  8  0D E1 17 00 22 00 83 03 
    14)        72.2  Rx     18EF1C8F  8  0D E2 15 00 0B 00 0E 00 
    15)        89.6  Rx     18EF1CCD  8  A3 00 00 00 00 00 00 00 
    16)        90.3  Rx     18EF1C8F  8  0D F0 00 95 25 EA 65 FC 
    17)        91.2  Rx     18EF1C8F  8  0D F1 17 00 23 00 81 03 
    18)        92.2  Rx     18EF1C8F  8  0D F2 14 00 0A 00 0C 00 
    19)       109.7  Rx     18EF1CCD  8  A1 40 00 00 00 00 00 00 
    20)       110.2  Rx     18EF1C8F  8  0D 00 00 B5 73 EA 66 FC 
    21)       111.2  Rx     18EF1C8F  8  0D 01 16 00 22 00 83 03 
    22)       112.2  Rx     18EF1C8F  8  0D 02 15 00 0A 00 0D 00 
    23)       114.3  Rx     18EFCD1C  8  A1 01 00 00 00 00 00 00 
    24)       130.2  Rx     18EF1C8F  8  0D 10 00 D5 C1 EA 66 FC 
    25)       131.2  Rx     18EF1C8F  8  0D 11 17 00 22 00 82 03 
    26)       132.1  Rx     18EF1C8F  8  0D 12 15 00 0A 00 0F 00 
    27)       134.3  Rx     18EFCD1C  8  A0 00 14 00 00 00 00 00 
    28)       135.0  Rx     18EF1CCD  8  A0 00 14 00 73 07 00 00 
    29)       150.2  Rx     18EF1C8F  8  0D 20 00 F7 0F EB 66 FC 
    30)       151.1  Rx     18EF1C8F  8  0D 21 16 00 21 00 81 03 
    31)       152.2  Rx     18EF1C8F  8  0D 22 15 00 08 00 0F 00 
    32)       154.8  Rx     18EFCD1C  8  A0 00 2A 00 00 00 00 00 
    33)       155.4  Rx     18EF1CCD  8  A0 00 2A 00 8D 05 00 00 
    34)       169.8  Rx     18EF1CCD  8  A2 00 00 00 00 00 00 00 
    35)       170.3  Rx     18EF1C8F  8  0D 30 00 15 5E EB 66 FC 
    36)       171.2  Rx     18EF1C8F  8  0D 31 15 00 21 00 82 03 
    37)       172.1  Rx     18EF1C8F  8  0D 32 15 00 09 00 0D 00 
    38)       175.3  Rx     18EFCD1C  8  A0 00 1B 00 00 00 00 00 
    39)       176.0  Rx     18EF1CCD  8  A0 00 1B 00 00 00 00 00 
    40)       189.8  Rx     18EF1CCD  8  A3 00 00 00 00 00 00 00 
    41)       190.4  Rx     18EF1C8F  8  0D 40 00 35 AC EB 66 FC 
    42)       191.1  Rx     18EF1C8F  8  0D 41 18 00 21 00 82 03 
    43)       192.1  Rx     18EF1C8F  8  0D 42 13 00 0A 00 0E 00 
    44)       194.2  Rx     18EFCD1C  8  A0 00 00 00 00 00 00 00 
    45)       194.9  Rx     18EF1CCD  8  A0 00 00 00 01 00 00 00 
    46)       209.8  Rx     18EF1CCD  8  A1 40 00 00 00 00 00 00 
    47)       210.4  Rx     18EF1C8F  8  0D 50 00 55 FA EB 66 FC 
    48)       211.1  Rx     18EF1C8F  8  0D 51 18 00 21 00 84 03 
    49)       212.1  Rx     18EF1C8F  8  0D 52 16 00 09 00 10 00 
    50)       230.2  Rx     18EF1C8F  8  0D 60 00 75 48 EC 66 FC 
    51)       231.1  Rx     18EF1C8F  8  0D 61 18 00 21 00 80 03 
    52)       232.1  Rx     18EF1C8F  8  0D 62 16 00 09 00 0F 00 
    53)       250.2  Rx     18EF1C8F  8  0D 70 00 95 96 EC 66 FC 
    54)       251.1  Rx     18EF1C8F  8  0D 71 17 00 22 00 81 03 
    55)       252.1  Rx     18EF1C8F  8  0D 72 17 00 0B 00 0D 00 
    56)       269.9  Rx     18EF1CCD  8  A2 00 00 00 00 00 00 00 
    57)       270.5  Rx     18EF1C8F  8  0D 80 00 B2 E4 EC 66 FC 
    58)       271.1  Rx     18EF1C8F  8  0D 81 17 00 22 00 83 03 
    59)       272.1  Rx     18EF1C8F  8  0D 82 14 00 0D 00 0E 00 
    60)       290.0  Rx     18EF1CCD  8  A3 00 00 00 00 00 00 00 
    61)       290.5  Rx     18EF1C8F  8  0D 90 00 D5 32 ED 66 FC 
    62)       291.1  Rx     18EF1C8F  8  0D 91 17 00 21 00 84 03 
    63)       292.1  Rx     18EF1C8F  8  0D 92 12 00 0A 00 0F 00 
    64)       310.0  Rx     18EF1CCD  8  A1 40 00 00 00 00 00 00 
    65)       310.6  Rx     18EF1C8F  8  0D A0 00 F5 80 ED 66 FC 
    66)       311.1  Rx     18EF1C8F  8  0D A1 17 00 22 00 84 03 
    67)       312.1  Rx     18EF1C8F  8  0D A2 16 00 06 00 0F 00 
    68)       314.3  Rx     18EFCD1C  8  A1 01 00 00 00 00 00 00 
    69)       330.2  Rx     18EF1C8F  8  0D B0 00 17 CF ED 65 FC 
    70)       331.1  Rx     18EF1C8F  8  0D B1 15 00 21 00 83 03 
    71)       332.1  Rx     18EF1C8F  8  0D B2 17 00 09 00 0E 00 
    72)       334.2  Rx     18EFCD1C  8  A0 00 14 00 00 00 00 00 
    73)       334.8  Rx     18EF1CCD  8  A0 00 14 00 73 07 00 00 
    74)       350.2  Rx     18EF1C8F  8  0D C0 00 35 1D EE 66 FC 
    75)       351.1  Rx     18EF1C8F  8  0D C1 16 00 22 00 83 03 
    76)       352.1  Rx     18EF1C8F  8  0D C2 15 00 0C 00 0C 00 
    77)       354.5  Rx     18EFCD1C  8  A0 00 2A 00 00 00 00 00 
    78)       355.2  Rx     18EF1CCD  8  A0 00 2A 00 8A 05 00 00 
    79)       370.1  Rx     18EF1CCD  8  A2 00 00 00 00 00 00 00 
    80)       370.7  Rx     18EF1C8F  8  0D D0 00 55 6B EE 66 FC 
    81)       371.2  Rx     18EF1C8F  8  0D D1 16 00 23 00 84 03 
    82)       372.1  Rx     18EF1C8F  8  0D D2 15 00 0D 00 10 00 
    83)       374.6  Rx     18EFCD1C  8  A0 00 1B 00 00 00 00 00 
    84)       375.3  Rx     18EF1CCD  8  A0 00 1B 00 00 00 00 00 
    85)       390.2  Rx     18EF1C8F  8  0D E0 00 77 B9 EE 66 FC 
    86)       390.7  Rx     18EF1CCD  8  A3 00 00 00 00 00 00 00 
    87)       391.3  Rx     18EF1C8F  8  0D E1 17 00 22 00 84 03 
    88)       392.1  Rx     18EF1C8F  8  0D E2 14 00 0D 00 0C 00 
    89)       395.3  Rx     18EFCD1C  8  A0 00 00 00 00 00 00 00 
    90)       395.9  Rx     18EF1CCD  8  A0 00 00 00 01 00 00 00 
    91)       410.2  Rx     18EF1C8F  8  0D F0 00 95 07 EF 66 FC 
    92)       410.8  Rx     18EF1CCD  8  A1 40 00 00 00 00 00 00 
    93)       411.3  Rx     18EF1C8F  8  0D F1 18 00 23 00 85 03 
    94)       412.1  Rx     18EF1C8F  8  0D F2 12 00 0D 00 0E 00 
    95)       430.2  Rx     18EF1C8F  8  0D 00 00 B5 55 EF 66 FC 
    96)       431.1  Rx     18EF1C8F  8  0D 01 16 00 23 00 82 03 
    97)       432.1  Rx     18EF1C8F  8  0D 02 16 00 0C 00 12 00 
    98)       450.2  Rx     18EF1C8F  8  0D 10 00 D5 A3 EF 65 FC 
    99)       451.1  Rx     18EF1C8F  8  0D 11 16 00 23 00 84 03 
   100)       452.1  Rx     18EF1C8F  8  0D 12 17 00 0B 00 0E 00 
   101)       470.1  Rx     18EF1C8F  8  0D 20 00 F5 F1 EF 66 FC 
   102)       470.7  Rx     18EF1CCD  8  A2 00 00 00 00 00 00 00 
   103)       471.3  Rx     18EF1C8F  8  0D 21 17 00 23 00 82 03 
   104)       472.1  Rx     18EF1C8F  8  0D 22 16 00 0A 00 0D 00 
   105)       490.2  Rx     18EF1C8F  8  0D 30 00 15 40 F0 66 FC 
   106)       490.7  Rx     18EF1CCD  8  A3 00 00 00 00 00 00 00 
   107)       491.3  Rx     18EF1C8F  8  0D 31 18 00 21 00 82 03 
   108)       492.1  Rx     18EF1C8F  8  0D 32 15 00 0C 00 0F 00 
   109)       510.1  Rx     18EF1C8F  8  0D 40 00 32 8E F0 66 FC 
   110)       510.7  Rx     18EF1CCD  8  A1 40 00 00 00 00 00 00 
   111)       511.3  Rx     18EF1C8F  8  0D 41 15 00 22 00 83 03 
   112)       512.1  Rx     18EF1C8F  8  0D 42 14 00 0A 00 0F 00 
   113)       514.4  Rx     18EFCD1C  8  A1 01 00 00 00 00 00 00 
   114)       530.1  Rx     18EF1C8F  8  0D 50 00 55 DC F0 66 FC 
   115)       531.1  Rx     18EF1C8F  8  0D 51 14 00 25 00 84 03 
   116)       532.0  Rx     18EF1C8F  8  0D 52 14 00 0C 00 0F 00 
   117)       534.1  Rx     18EFCD1C  8  A0 00 14 00 00 00 00 00 
   118)       534.7  Rx     18EF1CCD  8  A0 00 14 00 74 07 00 00 
   119)       550.1  Rx     18EF1C8F  8  0D 60 00 77 2A F1 66 FC 
   120)       551.0  Rx     18EF1C8F  8  0D 61 16 00 22 00 82 03 
   121)       552.1  Rx     18EF1C8F  8  0D 62 13 00 0B 00 0D 00 
   122)       554.1  Rx     18EFCD1C  8  A0 00 2A 00 00 00 00 00 
   123)       554.8  Rx     18EF1CCD  8  A0 00 2A 00 8D 05 00 00 
   124)       570.1  Rx     18EF1C8F  8  0D 70 00 95 78 F1 66 FC 
   125)       570.7  Rx     18EF1CCD  8  A2 00 00 00 00 00 00 00 
   126)       571.3  Rx     18EF1C8F  8  0D 71 13 00 20 00 82 03 
   127)       572.1  Rx     18EF1C8F  8  0D 72 14 00 0B 00 0C 00 
   128)       574.4  Rx     18EFCD1C  8  A0 00 1B 00 00 00 00 00 
   129)       575.1  Rx     18EF1CCD  8  A0 00 1B 00 00 00 00 00 
   130)       590.1  Rx     18EF1C8F  8  0D 80 00 B5 C6 F1 66 FC 
   131)       590.7  Rx     18EF1CCD  8  A3 00 00 00 00 00 00 00 
   132)       591.3  Rx     18EF1C8F  8  0D 81 15 00 22 00 82 03 
   133)       592.1  Rx     18EF1C8F  8  0D 82 15 00 0B 00 0E 00 
   134)       594.8  Rx     18EFCD1C  8  A0 00 00 00 00 00 00 00 
   135)       595.4  Rx     18EF1CCD  8  A0 00 00 00 01 00 00 00 
   136)       610.1  Rx     18EF1C8F  8  0D 90 00 D5 14 F2 65 FC 
   137)       610.7  Rx     18EF1CCD  8  A1 40 00 00 00 00 00 00 
   138)       611.3  Rx     18EF1C8F  8  0D 91 17 00 22 00 82 03 
   139)       612.1  Rx     18EF1C8F  8  0D 92 14 00 0A 00 0F 00 
   140)       630.1  Rx     18EF1C8F  8  0D A0 00 F5 62 F2 66 FC 
   141)       631.1  Rx     18EF1C8F  8  0D A1 15 00 23 00 84 03 
   142)       632.0  Rx     18EF1C8F  8  0D A2 15 00 0B 00 0F 00 
   143)       650.1  Rx     18EF1C8F  8  0D B0 00 15 B1 F2 66 FC 
   144)       651.0  Rx     18EF1C8F  8  0D B1 16 00 23 00 84 03 
   145)       652.0  Rx     18EF1C8F  8  0D B2 15 00 09 00 0D 00 
   146)       670.1  Rx     18EF1C8F  8  0D C0 00 35 FF F2 66 FC 
   147)       670.8  Rx     18EF1CCD  8  A2 00 00 00 00 00 00 00 
   148)       671.3  Rx     18EF1C8F  8  0D C1 16 00 21 00 84 03 
   149)       672.0  Rx     18EF1C8F  8  0D C2 14 00 0B 00 0F 00 
   150)       690.1  Rx     18EF1C8F  8  0D D0 00 55 4D F3 66 FC 
   151)       690.8  Rx     18EF1CCD  8  A3 00 00 00 00 00 00 00 
   152)       691.3  Rx     18EF1C8F  8  0D D1 17 00 23 00 83 03 
   153)       692.0  Rx     18EF1C8F  8  0D D2 14 00 09 00 0F 00 
   154)       710.1  Rx     18EF1C8F  8  0D E0 00 72 9B F3 66 FC 
   155)       710.8  Rx     18EF1CCD  8  A1 40 00 00 00 00 00 00 
   156)       711.4  Rx     18EF1C8F  8  0D E1 16 00 21 00 84 03 
   157)       712.0  Rx     18EF1C8F  8  0D E2 14 00 09 00 0E 00 
   158)       714.2  Rx     18EFCD1C  8  A1 01 00 00 00 00 00 00 
   159)       730.1  Rx     18EF1C8F  8  0D F0 00 97 E9 F3 66 FC 
   160)       731.0  Rx     18EF1C8F  8  0D F1 14 00 21 00 83 03 
   161)       732.0  Rx     18EF1C8F  8  0D F2 14 00 0A 00 0E 00 
   162)       734.1  Rx     18EFCD1C  8  A0 00 14 00 00 00 00 00 
   163)       734.7  Rx     18EF1CCD  8  A0 00 14 00 73 07 00 00 
   164)       750.1  Rx     18EF1C8F  8  0D 00 00 B5 37 F4 66 FC 
   165)       751.0  Rx     18EF1C8F  8  0D 01 17 00 22 00 83 03 
   166)       752.0  Rx     18EF1C8F  8  0D 02 14 00 08 00 0E 00 
   167)       754.1  Rx     18EFCD1C  8  A0 00 2A 00 00 00 00 00 
   168)       754.7  Rx     18EF1CCD  8  A0 00 2A 00 8D 05 00 00 
   169)       770.1  Rx     18EF1C8F  8  0D 10 00 D5 85 F4 66 FC 
   170)       770.9  Rx     18EF1CCD  8  A2 00 00 00 00 00 00 00 
   171)       771.5  Rx     18EF1C8F  8  0D 11 17 00 22 00 83 03 
   172)       772.0  Rx     18EF1C8F  8  0D 12 14 00 08 00 0E 00 
   173)       774.1  Rx     18EFCD1C  8  A0 00 1B 00 00 00 00 00 
   174)       774.7  Rx     18EF1CCD  8  A0 00 1B 00 00 00 00 00 
   175)       790.1  Rx     18EF1C8F  8  0D 20 00 F5 D3 F4 66 FC 
   176)       791.0  Rx     18EF1CCD  8  A3 00 00 00 00 00 00 00 
   177)       791.5  Rx     18EF1C8F  8  0D 21 17 00 23 00 82 03 
   178)       792.1  Rx     18EF1C8F  8  0D 22 14 00 0C 00 10 00 
   179)       794.7  Rx     18EFCD1C  8  A0 00 00 00 00 00 00 00 
   180)       795.3  Rx     18EF1CCD  8  A0 00 00 00 01 00 00 00 
   181)       810.1  Rx     18EF1C8F  8  0D 30 00 15 22 F5 66 FC 
   182)       811.0  Rx     18EF1CCD  8  A1 40 00 00 00 00 00 00 
   183)       811.6  Rx     18EF1C8F  8  0D 31 17 00 22 00 83 03 
   184)       812.1  Rx     18EF1C8F  8  0D 32 16 00 0E 00 0D 00 
   185)       830.1  Rx     18EF1C8F  8  0D 40 00 35 70 F5 66 FC 
   186)       831.0  Rx     18EF1C8F  8  0D 41 17 00 23 00 85 03 
   187)       832.0  Rx     18EF1C8F  8  0D 42 14 00 09 00 0E 00 
   188)       850.1  Rx     18EF1C8F  8  0D 50 00 57 BE F5 66 FC 
   189)       851.0  Rx     18EF1C8F  8  0D 51 17 00 22 00 84 03 
   190)       852.0  Rx     18EF1C8F  8  0D 52 11 00 09 00 0E 00 
   191)       856.9  Rx     18FEF31C  8  F0 28 80 99 AE CE 2C 89 
   192)       857.5  Rx     18FEE81C  8  97 4F 11 00 00 00 2C 51 
   193)       858.0  Rx     18FEE61C  8  48 06 0E 09 57 29 00 00 
   194)       858.6  Rx     19F8021C  8  F0 FC 86 6C 00 00 FF FF 
   195)       870.1  Rx     18EF1C8F  8  0D 60 00 75 0C F6 66 FC 
   196)       871.0  Rx     18EF1C8F  8  0D 61 17 00 21 00 85 03 
   197)       871.6  Rx     18EF1CCD  8  A2 00 00 00 00 00 00 00 
   198)       872.1  Rx     18EF1C8F  8  0D 62 16 00 0A 00 0E 00 
   199)       878.2  Rx     18EF8F1C  4  01 D4 2E 00 
   200)       879.0  Rx     18EF1C8F  4  01 2F D4 00 
   201)       890.0  Rx     18EF1C8F  8  0D 70 00 95 5A F6 66 FC 
   202)       891.0  Rx     18EF1C8F  8  0D 71 18 00 23 00 84 03 
   203)       891.5  Rx     18EF1CCD  8  A3 00 00 00 00 00 00 00 
   204)       892.1  Rx     18EF1C8F  8  0D 72 16 00 0D 00 0E 00 
   205)       906.1  Rx     19F8051C  8  A0 2F F0 EE 50 26 1D 44 
   206)       906.6  Rx     19F8051C  8  A1 1E 80 0D 96 69 C7 A6 
   207)       907.2  Rx     19F8051C  8  A2 98 06 60 59 54 49 F4 
   208)       907.7  Rx     19F8051C  8  A3 91 CB 02 1A B2 41 08 
   209)       908.3  Rx     19F8051C  8  A4 00 00 00 00 40 00 0D 
   210)       908.9  Rx     19F8051C  8  A5 4E 00 85 00 FC 0F 00 
   211)       909.4  Rx     19F8051C  8  A6 00 01 AF 02 20 03 FF 
   212)       910.1  Rx     18EF1C8F  8  0D 80 00 B7 A8 F6 66 FC 
   213)       911.0  Rx     18EF1C8F  8  0D 81 18 00 21 00 83 03 
   214)       911.6  Rx     18EF1CCD  8  A1 40 00 00 00 00 00 00 
   215)       912.1  Rx     18EF1C8F  8  0D 82 16 00 0C 00 0C 00 
   216)       914.1  Rx     18EFCD1C  8  A1 01 00 00 00 00 00 00 
   217)       930.0  Rx     18EF1C8F  8  0D 90 00 D5 F6 F6 66 FC 
   218)       930.9  Rx     18EF1C8F  8  0D 91 17 00 22 00 83 03 
   219)       932.0  Rx     18EF1C8F  8  0D 92 13 00 09 00 0A 00 
   220)       934.1  Rx     18EFCD1C  8  A0 00 14 00 00 00 00 00 
   221)       934.7  Rx     18EF1CCD  8  A0 00 14 00 73 07 00 00 
   222)       950.0  Rx     18EF1C8F  8  0D A0 00 F5 44 F7 66 FC 
   223)       951.0  Rx     18EF1C8F  8  0D A1 16 00 23 00 83 03 
   224)       951.9  Rx     18EF1C8F  8  0D A2 13 00 09 00 0C 00 
   225)       954.0  Rx     18EFCD1C  8  A0 00 2A 00 00 00 00 00 
   226)       954.6  Rx     18EF1CCD  8  A0 00 2A 00 8C 05 00 00 
   227)       970.0  Rx     18EF1C8F  8  0D B0 00 17 93 F7 66 FC 
   228)       970.9  Rx     18EF1C8F  8  0D B1 17 00 22 00 81 03 
   229)       971.5  Rx     18EF1CCD  8  A2 00 00 00 00 00 00 00 
   230)       972.1  Rx     18EF1C8F  8  0D B2 13 00 0B 00 12 00 
   231)       974.1  Rx     18EFCD1C  8  A0 00 1B 00 00 00 00 00 
   232)       974.7  Rx     18EF1CCD  8  A0 00 1B 00 00 00 00 00 
   233)       990.0  Rx     18EF1C8F  8  0D C0 00 35 E1 F7 66 FC 
   234)       990.9  Rx     18EF1C8F  8  0D C1 15 00 22 00 84 03 
   235)       991.5  Rx     18EF1CCD  8  A3 00 00 00 00 00 00 00 
   236)       992.1  Rx     18EF1C8F  8  0D C2 15 00 0C 00 10 00 
   237)       994.1  Rx     18EFCD1C  8  A0 00 00 00 00 00 00 00 
   238)       994.7  Rx     18EF1CCD  8  A0 00 00 00 01 00 00 00 
   239)      1010.0  Rx     18EF1C8F  8  0D D0 00 55 2F F8 66 FC 
   240)      1010.9  Rx     18EF1C8F  8  0D D1 16 00 23 00 84 03 
   241)      1011.5  Rx     18EF1CCD  8  A1 40 00 00 00 00 00 00 
   242)      1012.0  Rx     18EF1C8F  8  0D D2 13 00 0C 00 0C 00 
   243)      1030.0  Rx     18EF1C8F  8  0D E0 00 75 7D F8 66 FC 
   244)      1030.9  Rx     18EF1C8F  8  0D E1 17 00 23 00 84 03 
   245)      1031.9  Rx     18EF1C8F  8  0D E2 13 00 09 00 10 00 
   246)      1050.0  Rx     18EF1C8F  8  0D F0 00 95 CB F8 66 FC 
   247)      1050.9  Rx     18EF1C8F  8  0D F1 16 00 23 00 83 03 
   248)      1051.9  Rx     18EF1C8F  8  0D F2 13 00 0A 00 0D 00 
   249)      1070.0  Rx     18EF1C8F  8  0D 00 00 B2 19 F9 66 FC 
   250)      1070.9  Rx     18EF1C8F  8  0D 01 16 00 22 00 82 03 
   251)      1071.5  Rx     18EF1CCD  8  A2 00 00 00 00 00 00 00 
   252)      1072.1  Rx     18EF1C8F  8  0D 02 15 00 0C 00 0D 00 
   253)      1090.0  Rx     18EF1C8F  8  0D 10 00 D5 67 F9 66 FC 
   254)      1090.9  Rx     18EF1C8F  8  0D 11 17 00 21 00 83 03 
   255)      1091.6  Rx     18EF1CCD  8  A3 00 00 00 00 00 00 00 
   256)      1092.1  Rx     18EF1C8F  8  0D 12 18 00 0A 00 0C 00 
   257)      1110.0  Rx     18EF1C8F  8  0D 20 00 F5 B5 F9 65 FC 
   258)      1110.9  Rx     18EF1C8F  8  0D 21 14 00 22 00 82 03 
   259)      1111.6  Rx     18EF1CCD  8  A1 40 00 00 00 00 00 00 
   260)      1112.2  Rx     18EF1C8F  8  0D 22 15 00 0D 00 0D 00 
   261)      1114.3  Rx     18EFCD1C  8  A1 01 00 00 00 00 00 00 
   262)      1130.0  Rx     18EF1C8F  8  0D 30 00 15 04 FA 66 FC 
   263)      1130.9  Rx     18EF1C8F  8  0D 31 15 00 23 00 83 03 
   264)      1131.9  Rx     18EF1C8F  8  0D 32 13 00 0C 00 0F 00 
   265)      1133.9  Rx     18EFCD1C  8  A0 00 14 00 00 00 00 00 
   266)      1134.7  Rx     18EF1CCD  8  A0 00 14 00 74 07 00 00 
   267)      1150.0  Rx     18EF1C8F  8  0D 40 00 35 52 FA 66 FC 
   268)      1150.9  Rx     18EF1C8F  8  0D 41 14 00 22 00 83 03 
   269)      1151.9  Rx     18EF1C8F  8  0D 42 16 00 09 00 0F 00 
   270)      1154.0  Rx     18EFCD1C  8  A0 00 2A 00 00 00 00 00 
   271)      1154.7  Rx     18EF1CCD  8  A0 00 2A 00 8C 05 00 00 
   272)      1170.0  Rx     18EF1C8F  8  0D 50 00 55 A0 FA 66 FC 
   273)      1170.9  Rx     18EF1C8F  8  0D 51 13 00 21 00 83 03 
   274)      1171.7  Rx     18EF1CCD  8  A2 00 00 00 00 00 00 00 
   275)      1172.3  Rx     18EF1C8F  8  0D 52 14 00 07 00 0F 00 
   276)      1174.0  Rx     18EFCD1C  8  A0 00 1B 00 00 00 00 00 
   277)      1174.8  Rx     18EF1CCD  8  A0 00 1B 00 00 00 00 00 
   278)      1190.0  Rx     18EF1C8F  8  0D 60 00 75 EE FA 66 FC 
   279)      1190.9  Rx     18EF1C8F  8  0D 61 16 00 23 00 83 03 
   280)      1191.8  Rx     18EF1CCD  8  A3 00 00 00 00 00 00 00 
   281)      1192.3  Rx     18EF1C8F  8  0D 62 13 00 0A 00 0E 00 
   282)      1194.1  Rx     18EFCD1C  8  A0 00 00 00 00 00 00 00 
   283)      1194.8  Rx     18EF1CCD  8  A0 00 00 00 01 00 00 00 
   284)      1210.0  Rx     18EF1C8F  8  0D 70 00 97 3C FB 66 FC 
   285)      1211.0  Rx     18EF1C8F  8  0D 71 16 00 22 00 83 03 
   286)      1211.8  Rx     18EF1CCD  8  A1 40 00 00 00 00 00 00 
   287)      1212.4  Rx     18EF1C8F  8  0D 72 14 00 09 00 10 00 
   288)      1230.0  Rx     18EF1C8F  8  0D 80 00 B5 8A FB 67 FC 
   289)      1230.9  Rx     18EF1C8F  8  0D 81 16 00 22 00 82 03 
   290)      1232.0  Rx     18EF1C8F  8  0D 82 15 00 09 00 0E 00 
   291)      1250.0  Rx     18EF1C8F  8  0D 90 00 D5 D8 FB 66 FC 
   292)      1251.0  Rx     18EF1C8F  8  0D 91 16 00 23 00 83 03 
   293)      1251.9  Rx     18EF1C8F  8  0D 92 16 00 0A 00 0D 00 
   294)      1270.0  Rx     18EF1C8F  8  0D A0 00 F5 26 FC 66 FC 
   295)      1270.9  Rx     18EF1C8F  8  0D A1 16 00 21 00 82 03 
   296)      1272.0  Rx     18EF1C8F  8  0D A2 16 00 09 00 0D 00 
   297)      1272.5  Rx     18EF1CCD  8  A2 00 00 00 00 00 00 00 
   298)      1290.1  Rx     18EF1C8F  8  0D B0 00 15 75 FC 66 FC 
   299)      1291.0  Rx     18EF1C8F  8  0D B1 17 00 23 00 84 03 
   300)      1292.0  Rx     18EF1C8F  8  0D B2 15 00 07 00 0C 00 
   301)      1292.5  Rx     18EF1CCD  8  A3 00 00 00 00 00 00 00 
   302)      1310.0  Rx     18EF1C8F  8  0D C0 00 35 C3 FC 66 FC 
   303)      1311.0  Rx     18EF1C8F  8  0D C1 16 00 24 00 83 03 
   304)      1312.0  Rx     18EF1C8F  8  0D C2 15 00 07 00 0E 00 
   305)      1312.6  Rx     18EF1CCD  8  A1 40 00 00 00 00 00 00 
   306)      1314.4  Rx     18EFCD1C  8  A1 01 00 00 00 00 00 00 
   307)      1330.1  Rx     18EF1C8F  8  0D D0 00 52 11 FD 66 FC 
   308)      1331.0  Rx     18EF1C8F  8  0D D1 17 00 22 00 83 03 
   309)      1331.9  Rx     18EF1C8F  8  0D D2 17 00 09 00 0F 00 
   310)      1334.0  Rx     18EFCD1C  8  A0 00 14 00 00 00 00 00 
   311)      1334.7  Rx     18EF1CCD  8  A0 00 14 00 73 07 00 00 
   312)      1350.0  Rx     18EF1C8F  8  0D E0 00 75 5F FD 66 FC 
   313)      1351.0  Rx     18EF1C8F  8  0D E1 16 00 23 00 83 03 
   314)      1352.0  Rx     18EF1C8F  8  0D E2 14 00 09 00 0E 00 
   315)      1354.0  Rx     18EFCD1C  8  A0 00 2A 00 00 00 00 00 
   316)      1354.6  Rx     18EF1CCD  8  A0 00 2A 00 8D 05 00 00 
   317)      1370.1  Rx     18EF1C8F  8  0D F0 00 95 AD FD 66 FC 
   318)      1370.9  Rx     18EF1C8F  8  0D F1 16 00 22 00 84 03 
   319)      1372.0  Rx     18EF1C8F  8  0D F2 15 00 09 00 0D 00 
   320)      1372.5  Rx     18EF1CCD  8  A2 00 00 00 00 00 00 00 
   321)      1374.4  Rx     18EFCD1C  8  A0 00 1B 00 00 00 00 00 
   322)      1375.0  Rx     18EF1CCD  8  A0 00 1B 00 00 00 00 00 
   323)      1390.0  Rx     18EF1C8F  8  0D 00 00 B7 FB FD 66 FC 
   324)      1391.0  Rx     18EF1C8F  8  0D 01 17 00 24 00 82 03 
   325)      1391.9  Rx     18EF1C8F  8  0D 02 14 00 0C 00 0B 00 
   326)      1392.5  Rx     18EF1CCD  8  A3 00 00 00 00 00 00 00 
   327)      1394.3  Rx     18EFCD1C  8  A0 00 00 00 00 00 00 00 
   328)      1394.9  Rx     18EF1CCD  8  A0 00 00 00 01 00 00 00 
   329)      1410.1  Rx     18EF1C8F  8  0D 10 00 D5 49 FE 66 FC 
   330)      1410.9  Rx     18EF1C8F  8  0D 11 19 00 22 00 84 03 
   331)      1412.0  Rx     18EF1C8F  8  0D 12 14 00 0B 00 0E 00 
   332)      1412.6  Rx     18EF1CCD  8  A1 40 00 00 00 00 00 00 
   333)      1430.1  Rx     18EF1C8F  8  0D 20 00 F5 97 FE 66 FC 
   334)      1431.0  Rx     18EF1C8F  8  0D 21 19 00 23 00 84 03 
   335)      1431.9  Rx     18EF1C8F  8  0D 22 15 00 0B 00 0D 00 
   336)      1450.1  Rx     18EF1C8F  8  0D 30 00 15 E6 FE 66 FC 
   337)      1450.9  Rx     18EF1C8F  8  0D 31 17 00 21 00 83 03 
   338)      1452.0  Rx     18EF1C8F  8  0D 32 14 00 0C 00 0D 00 
   339)      1470.1  Rx     18EF1C8F  8  0D 40 00 35 34 FF 66 FC 
   340)      1471.0  Rx     18EF1C8F  8  0D 41 16 00 23 00 84 03 
   341)      1472.0  Rx     18EF1C8F  8  0D 42 15 00 0A 00 0E 00 
   342)      1472.5  Rx     18EF1CCD  8  A2 00 00 00 00 00 00 00 
   343)      1490.0  Rx     18EF1C8F  8  0D 50 00 55 82 FF 66 FC 
   344)      1491.0  Rx     18EF1C8F  8  0D 51 19 00 23 00 83 03 
   345)      1492.0  Rx     18EF1C8F  8  0D 52 12 00 0B 00 0D 00 
   346)      1492.6  Rx     18EF1CCD  8  A3 00 00 00 00 00 00 00 
   347)      1510.1  Rx     18EF1C8F  8  0D 60 00 72 D0 FF 66 FC 
   348)      1511.0  Rx     18EF1C8F  8  0D 61 17 00 23 00 82 03 
   349)      1512.0  Rx     18EF1C8F  8  0D 62 15 00 0B 00 0D 00 
   350)      1512.5  Rx     18EF1CCD  8  A1 40 00 00 00 00 00 00 
   351)      1514.6  Rx     18EFCD1C  8  A1 01 00 00 00 00 00 00 
   352)      1530.0  Rx     18EF1C8F  8  0D 70 00 95 1E 00 66 FC 
   353)      1531.0  Rx     18EF1C8F  8  0D 71 19 00 22 00 81 03 
   354)      1532.0  Rx     18EF1C8F  8  0D 72 15 00 08 00 0F 00 
   355)      1534.0  Rx     18EFCD1C  8  A0 00 14 00 00 00 00 00 
   356)      1534.6  Rx     18EF1CCD  8  A0 00 14 00 72 07 00 00 
   357)      1550.1  Rx     18EF1C8F  8  0D 80 00 B7 6C 00 66 FC 
   358)      1551.0  Rx     18EF1C8F  8  0D 81 17 00 24 00 81 03 
   359)      1552.0  Rx     18EF1C8F  8  0D 82 14 00 0A 00 0F 00 
   360)      1554.1  Rx     18EFCD1C  8  A0 00 2A 00 00 00 00 00 
   361)      1554.7  Rx     18EF1CCD  8  A0 00 2A 00 8D 05 00 00 
   362)      1570.1  Rx     18EF1C8F  8  0D 90 00 D5 BA 00 66 FC 
   363)      1571.0  Rx     18EF1C8F  8  0D 91 16 00 22 00 81 03 
   364)      1572.0  Rx     18EF1C8F  8  0D 92 16 00 0B 00 0E 00 
   365)      1572.7  Rx     18EF1CCD  8  A2 00 00 00 00 00 00 00 
   366)      1574.2  Rx     18EFCD1C  8  A0 00 1B 00 00 00 00 00 
   367)      1574.8  Rx     18EF1CCD  8  A0 00 1B 00 00 00 00 00 
   368)      1590.1  Rx     18EF1C8F  8  0D A0 00 F5 08 01 66 FC 
   369)      1591.0  Rx     18EF1C8F  8  0D A1 16 00 22 00 81 03 
   370)      1592.0  Rx     18EF1C8F  8  0D A2 14 00 0A 00 0F 00 
   371)      1592.8  Rx     18EF1CCD  8  A3 00 00 00 00 00 00 00 
   372)      1594.2  Rx     18EFCD1C  8  A0 00 00 00 00 00 00 00 
   373)      1594.8  Rx     18EF1CCD  8  A0 00 00 00 01 00 00 00 
   374)      1610.1  Rx     18EF1C8F  8  0D B0 00 17 57 01 66 FC 
   375)      1611.0  Rx     18EF1C8F  8  0D B1 17 00 22 00 83 03 
   376)      1612.0  Rx     18EF1C8F  8  0D B2 15 00 0D 00 0F 00 
   377)      1612.8  Rx     18EF1CCD  8  A1 40 00 00 00 00 00 00 
   378)      1630.1  Rx     18EF1C8F  8  0D C0 00 32 A5 01 66 FC 
   379)      1631.0  Rx     18EF1C8F  8  0D C1 16 00 21 00 84 03 
   380)      1632.0  Rx     18EF1C8F  8  0D C2 15 00 0A 00 0E 00 
   381)      1650.1  Rx     18EF1C8F  8  0D D0 00 55 F3 01 66 FC 
   382)      1651.0  Rx     18EF1C8F  8  0D D1 15 00 23 00 83 03 
   383)      1652.0  Rx     18EF1C8F  8  0D D2 14 00 0B 00 10 00 
   384)      1670.1  Rx     18EF1C8F  8  0D E0 00 75 41 02 66 FC 
   385)      1671.0  Rx     18EF1C8F  8  0D E1 14 00 21 00 85 03 
   386)      1672.0  Rx     18EF1C8F  8  0D E2 15 00 0B 00 0E 00 
   387)      1672.9  Rx     18EF1CCD  8  A2 00 00 00 00 00 00 00 
   388)      1690.1  Rx     18EF1C8F  8  0D F0 00 95 8F 02 66 FC 
   389)      1691.0  Rx     18EF1C8F  8  0D F1 15 00 22 00 84 03 
   390)      1692.0  Rx     18EF1C8F  8  0D F2 15 00 0E 00 0D 00 
   391)      1693.0  Rx     18EF1CCD  8  A3 00 00 00 00 00 00 00 
   392)      1710.1  Rx     18EF1C8F  8  0D 00 00 B5 DD 02 66 FC 
   393)      1711.0  Rx     18EF1C8F  8  0D 01 15 00 23 00 85 03 
   394)      1712.0  Rx     18EF1C8F  8  0D 02 12 00 0B 00 0D 00 
   395)      1713.0  Rx     18EF1CCD  8  A1 40 00 00 00 00 00 00 
   396)      1714.5  Rx     18EFCD1C  8  A1 01 00 00 00 00 00 00 
   397)      1730.1  Rx     18EF1C8F  8  0D 10 00 D5 2B 03 66 FC 
   398)      1731.0  Rx     18EF1C8F  8  0D 11 13 00 22 00 82 03 
   399)      1732.0  Rx     18EF1C8F  8  0D 12 13 00 0B 00 0B 00 
   400)      1734.1  Rx     18EFCD1C  8  A0 00 14 00 00 00 00 00 
   401)      1734.7  Rx     18EF1CCD  8  A0 00 14 00 73 07 00 00 
   402)      1750.1  Rx     18EF1C8F  8  0D 20 00 F5 79 03 66 FC 
   403)      1751.0  Rx     18EF1C8F  8  0D 21 15 00 23 00 84 03 
   404)      1752.0  Rx     18EF1C8F  8  0D 22 16 00 0B 00 0F 00 
   405)      1754.1  Rx     18EFCD1C  8  A0 00 2A 00 00 00 00 00 
   406)      1754.7  Rx     18EF1CCD  8  A0 00 2A 00 89 05 00 00 
   407)      1770.1  Rx     18EF1C8F  8  0D 30 00 15 C8 03 66 FC 
   408)      1771.0  Rx     18EF1C8F  8  0D 31 15 00 23 00 82 03 
   409)      1772.0  Rx     18EF1C8F  8  0D 32 17 00 09 00 0E 00 
   410)      1773.1  Rx     18EF1CCD  8  A2 00 00 00 00 00 00 00 
   411)      1774.2  Rx     18EFCD1C  8  A0 00 1B 00 00 00 00 00 
   412)      1774.8  Rx     18EF1CCD  8  A0 00 1B 00 00 00 00 00 
   413)      1790.1  Rx     18EF1C8F  8  0D 40 00 37 16 04 66 FC 
   414)      1791.0  Rx     18EF1C8F  8  0D 41 14 00 22 00 85 03 
   415)      1792.0  Rx     18EF1C8F  8  0D 42 15 00 09 00 0D 00 
   416)      1793.1  Rx     18EF1CCD  8  A3 00 00 00 00 00 00 00 
   417)      1794.1  Rx     18EFCD1C  8  A0 00 00 00 00 00 00 00 
   418)      1794.8  Rx     18EF1CCD  8  A0 00 00 00 01 00 00 00 
   419)      1810.1  Rx     18EF1C8F  8  0D 50 00 57 64 04 66 FC 
   420)      1811.0  Rx     18EF1C8F  8  0D 51 16 00 23 00 83 03 
   421)      1812.0  Rx     18EF1C8F  8  0D 52 15 00 08 00 0D 00 
   422)      1813.2  Rx     18EF1CCD  8  A1 40 00 00 00 00 00 00 
   423)      1830.1  Rx     18EF1C8F  8  0D 60 00 75 B2 04 66 FC 
   424)      1831.0  Rx     18EF1C8F  8  0D 61 15 00 23 00 81 03 
   425)      1832.0  Rx     18EF1C8F  8  0D 62 14 00 0A 00 0D 00 
   426)      1850.1  Rx     18EF1C8F  8  0D 70 00 95 00 05 66 FC 
   427)      1851.0  Rx     18EF1C8F  8  0D 71 16 00 22 00 81 03 
   428)      1852.0  Rx     18EF1C8F  8  0D 72 14 00 0A 00 0E 00 
   429)      1855.5  Rx     18FEF31C  8  EF 28 80 99 AE CE 2C 89 
   430)      1856.0  Rx     18FEE81C  8  97 4F 06 00 00 00 2C 51 
   431)      1856.6  Rx     18FEE61C  8  4C 06 0E 09 57 29 00 00 
   432)      1857.2  Rx     19F8021C  8  F5 FC 86 6C 00 00 FF FF 
   433)      1870.1  Rx     18EF1C8F  8  0D 80 00 B5 4E 05 66 FC 
   434)      1871.0  Rx     18EF1C8F  8  0D 81 16 00 23 00 82 03 
   435)      1872.0  Rx     18EF1C8F  8  0D 82 15 00 0A 00 0E 00 
   436)      1873.4  Rx     18EF1CCD  8  A2 00 00 00 00 00 00 00 
   437)      1890.1  Rx     18EF1C8F  8  0D 90 00 D5 9C 05 66 FC 
   438)      1891.0  Rx     18EF1C8F  8  0D 91 15 00 22 00 82 03 
   439)      1892.0  Rx     18EF1C8F  8  0D 92 13 00 08 00 0D 00 
   440)      1893.4  Rx     18EF1CCD  8  A3 00 00 00 00 00 00 00 
   441)      1896.0  Rx     18EFCD1C  4  01 81 32 00 
   442)      1896.5  Rx     18EF1CCD  4  01 33 81 00 
   443)      1907.6  Rx     19F8051C  8  C0 2F F5 EE 50 36 44 44 
   444)      1908.2  Rx     19F8051C  8  C1 1E 00 2C 97 60 C7 A6 
   445)      1908.7  Rx     19F8051C  8  C2 98 06 E0 49 E8 46 F4 
   446)      1909.3  Rx     19F8051C  8  C3 91 CB 02 B2 75 41 08 
   447)      1909.8  Rx     19F8051C  8  C4 00 00 00 00 40 00 0D 
   448)      1910.4  Rx     18EF1C8F  8  0D A0 00 F7 EA 05 66 FC 
   449)      1911.0  Rx     19F8051C  8  C5 4E 00 85 00 FC 0F 00 
   450)      1911.5  Rx     18EF1C8F  8  0D A1 18 00 23 00 84 03 
   451)      1912.1  Rx     18EF1C8F  8  0D A2 13 00 08 00 0F 00 
   452)      1912.6  Rx     19F8051C  8  C6 00 01 AF 02 F4 01 FF 
   453)      1913.4  Rx     18EF1CCD  8  A1 40 00 00 00 00 00 00 
   454)      1915.7  Rx     18EFCD1C  8  A1 01 00 00 00 00 00 00 
   455)      1930.1  Rx     18EF1C8F  8  0D B0 00 17 39 06 66 FC 
   456)      1931.0  Rx     18EF1C8F  8  0D B1 16 00 21 00 83 03 
   457)      1932.0  Rx     18EF1C8F  8  0D B2 15 00 0B 00 0E 00 
   458)      1934.1  Rx     18EFCD1C  8  A0 00 14 00 00 00 00 00 
   459)      1934.7  Rx     18EF1CCD  8  A0 00 14 00 74 07 00 00 
   460)      1950.1  Rx     18EF1C8F  8  0D C0 00 35 87 06 66 FC 
   461)      1951.0  Rx     18EF1C8F  8  0D C1 16 00 21 00 84 03 
   462)      1952.0  Rx     18EF1C8F  8  0D C2 14 00 0C 00 0C 00 
   463)      1954.0  Rx     18EFCD1C  8  A0 00 2A 00 00 00 00 00 
   464)      1954.7  Rx     18EF1CCD  8  A0 00 2A 00 8C 05 00 00 
   465)      1970.1  Rx     18EF1C8F  8  0D D0 00 55 D5 06 66 FC 
   466)      1971.0  Rx     18EF1C8F  8  0D D1 18 00 21 00 86 03 
   467)      1972.0  Rx     18EF1C8F  8  0D D2 16 00 0A 00 0D 00 
   468)      1973.5  Rx     18EF1CCD  8  A2 00 00 00 00 00 00 00 
   469)      1974.1  Rx     18EFCD1C  8  A0 00 1B 00 00 00 00 00 
   470)      1974.7  Rx     18EF1CCD  8  A0 00 1B 00 00 00 00 00 
   471)      1990.1  Rx     18EF1C8F  8  0D E0 00 75 23 07 66 FC 
   472)      1991.0  Rx     18EF1C8F  8  0D E1 17 00 22 00 84 03 
   473)      1992.0  Rx     18EF1C8F  8  0D E2 14 00 0B 00 0F 00 
   474)      1993.6  Rx     18EF1CCD  8  A3 00 00 00 00 00 00 00 
   475)      1994.2  Rx     18EFCD1C  8  A0 00 00 00 00 00 00 00 
   476)      1994.8  Rx     18EF1CCD  8  A0 00 00 00 01 00 00 00 
   477)      2010.1  Rx     18EF1C8F  8  0D F0 00 95 71 07 66 FC 
   478)      2011.0  Rx     18EF1C8F  8  0D F1 15 00 23 00 85 03 
   479)      2012.0  Rx     18EF1C8F  8  0D F2 15 00 06 00 0E 00 
   480)      2013.7  Rx     18EF1CCD  8  A1 40 00 00 00 00 00 00 
   481)      2030.1  Rx     18EF1C8F  8  0D 00 00 B5 BF 07 66 FC 
   482)      2031.0  Rx     18EF1C8F  8  0D 01 17 00 21 00 83 03 
   483)      2032.0  Rx     18EF1C8F  8  0D 02 16 00 07 00 0D 00 
   484)      2050.1  Rx     18EF1C8F  8  0D 10 00 D5 0D 08 66 FC 
   485)      2051.0  Rx     18EF1C8F  8  0D 11 17 00 23 00 84 03 
   486)      2052.0  Rx     18EF1C8F  8  0D 12 16 00 0B 00 10 00 
   487)      2070.1  Rx     18EF1C8F  8  0D 20 00 F2 5B 08 66 FC 
   488)      2071.0  Rx     18EF1C8F  8  0D 21 15 00 22 00 84 03 
   489)      2072.0  Rx     18EF1C8F  8  0D 22 16 00 0D 00 0E 00 
   490)      2073.8  Rx     18EF1CCD  8  A2 00 00 00 00 00 00 00 
   491)      2090.1  Rx     18EF1C8F  8  0D 30 00 15 AA 08 66 FC 
   492)      2091.0  Rx     18EF1C8F  8  0D 31 16 00 21 00 81 03 
   493)      2092.0  Rx     18EF1C8F  8  0D 32 15 00 0C 00 0F 00 
   494)      2092.8  Rx     18EF1CCD  8  A3 00 00 00 00 00 00 00 
   495)      2110.1  Rx     18EF1C8F  8  0D 40 00 35 F8 08 67 FC 
   496)      2111.0  Rx     18EF1C8F  8  0D 41 16 00 22 00 82 03 
   497)      2112.0  Rx     18EF1C8F  8  0D 42 15 00 0D 00 0E 00 
   498)      2112.9  Rx     18EF1CCD  8  A1 40 00 00 00 00 00 00 
   499)      2115.9  Rx     18EFCD1C  8  A1 01 00 00 00 00 00 00 
   500)      2130.1  Rx     18EF1C8F  8  0D 50 00 57 46 09 66 FC 
   501)      2131.0  Rx     18EF1C8F  8  0D 51 17 00 24 00 81 03 
   502)      2132.0  Rx     18EF1C8F  8  0D 52 14 00 0B 00 0D 00 
   503)      2134.0  Rx     18EFCD1C  8  A0 00 14 00 00 00 00 00 
   504)      2134.6  Rx     18EF1CCD  8  A0 00 14 00 73 07 00 00 
   505)      2150.1  Rx     18EF1C8F  8  0D 60 00 75 94 09 66 FC 
   506)      2151.0  Rx     18EF1C8F  8  0D 61 15 00 23 00 81 03 
   507)      2152.0  Rx     18EF1C8F  8  0D 62 16 00 0B 00 0F 00 
   508)      2154.1  Rx     18EFCD1C  8  A0 00 2A 00 00 00 00 00 
   509)      2154.7  Rx     18EF1CCD  8  A0 00 2A 00 8B 05 00 00 
   510)      2170.1  Rx     18EF1C8F  8  0D 70 00 92 E2 09 66 FC 
   511)      2171.0  Rx     18EF1C8F  8  0D 71 16 00 22 00 81 03 
   512)      2172.0  Rx     18EF1C8F  8  0D 72 16 00 0B 00 0F 00 
   513)      2173.0  Rx     18EF1CCD  8  A2 00 00 00 00 00 00 00 
   514)      2174.3  Rx     18EFCD1C  8  A0 00 1B 00 00 00 00 00 
   515)      2175.0  Rx     18EF1CCD  8  A0 00 1B 00 00 00 00 00 
   516)      2190.1  Rx     18EF1C8F  8  0D 80 00 B7 30 0A 66 FC 
   517)      2191.0  Rx     18EF1C8F  8  0D 81 15 00 23 00 82 03 
   518)      2192.0  Rx     18EF1C8F  8  0D 82 13 00 0C 00 0E 00 
   519)      2193.0  Rx     18EF1CCD  8  A3 00 00 00 00 00 00 00 
   520)      2194.1  Rx     18EFCD1C  8  A0 00 00 00 00 00 00 00 
   521)      2194.7  Rx     18EF1CCD  8  A0 00 00 00 01 00 00 00 
   522)      2210.1  Rx     18EF1C8F  8  0D 90 00 D5 7E 0A 66 FC 
   523)      2211.0  Rx     18EF1C8F  8  0D 91 17 00 23 00 84 03 
   524)      2212.0  Rx     18EF1C8F  8  0D 92 12 00 0B 00 0E 00 
   525)      2213.1  Rx     18EF1CCD  8  A1 40 00 00 00 00 00 00 
   526)      2230.1  Rx     18EF1C8F  8  0D A0 00 F5 CC 0A 67 FC 
   527)      2231.0  Rx     18EF1C8F  8  0D A1 16 00 23 00 85 03 
   528)      2232.0  Rx     18EF1C8F  8  0D A2 15 00 0B 00 0E 00 
   529)      2250.0  Rx     18EF1C8F  8  0D B0 00 15 1B 0B 66 FC 
   530)      2251.0  Rx     18EF1C8F  8  0D B1 15 00 23 00 84 03 
   531)      2252.0  Rx     18EF1C8F  8  0D B2 14 00 0B 00 0E 00 
   532)      2270.1  Rx     18EF1C8F  8  0D C0 00 35 69 0B 66 FC 
   533)      2270.9  Rx     18EF1C8F  8  0D C1 18 00 24 00 84 03 
   534)      2272.0  Rx     18EF1C8F  8  0D C2 15 00 0B 00 0E 00 
   535)      2273.2  Rx     18EF1CCD  8  A2 00 00 00 00 00 00 00 
   536)      2290.0  Rx     18EF1C8F  8  0D D0 00 55 B7 0B 66 FC 
   537)      2290.9  Rx     18EF1C8F  8  0D D1 14 00 22 00 84 03 
   538)      2291.9  Rx     18EF1C8F  8  0D D2 14 00 0B 00 0E 00 
   539)      2293.2  Rx     18EF1CCD  8  A3 00 00 00 00 00 00 00 
   540)      2310.0  Rx     18EF1C8F  8  0D E0 00 75 05 0C 66 FC 
   541)      2310.9  Rx     18EF1C8F  8  0D E1 15 00 21 00 85 03 
   542)      2311.9  Rx     18EF1C8F  8  0D E2 15 00 0B 00 0D 00 
   543)      2313.2  Rx     18EF1CCD  8  A1 40 00 00 00 00 00 00 
   544)      2314.8  Rx     18EFCD1C  8  A1 01 00 00 00 00 00 00 
   545)      2330.0  Rx     18EF1C8F  8  0D F0 00 97 53 0C 67 FC 
   546)      2330.9  Rx     18EF1C8F  8  0D F1 14 00 24 00 83 03 
   547)      2331.9  Rx     18EF1C8F  8  0D F2 16 00 09 00 0D 00 
   548)      2335.9  Rx     18EFCD1C  8  A0 00 14 00 00 00 00 00 
   549)      2336.5  Rx     18EF1CCD  8  A0 00 14 00 73 07 00 00 
   550)      2350.0  Rx     18EF1C8F  8  0D 00 00 B5 A1 0C 67 FC 
   551)      2350.9  Rx     18EF1C8F  8  0D 01 16 00 22 00 86 03 
   552)      2351.9  Rx     18EF1C8F  8  0D 02 14 00 09 00 10 00 
   553)      2354.0  Rx     18EFCD1C  8  A0 00 2A 00 00 00 00 00 
   554)      2354.6  Rx     18EF1CCD  8  A0 00 2A 00 8B 05 00 00 
   555)      2370.0  Rx     18EF1C8F  8  0D 10 00 D5 EF 0C 66 FC 
   556)      2370.9  Rx     18EF1C8F  8  0D 11 15 00 22 00 84 03 
   557)      2371.9  Rx     18EF1C8F  8  0D 12 15 00 0B 00 0D 00 
   558)      2373.3  Rx     18EF1CCD  8  A2 00 00 00 00 00 00 00 
   559)      2374.2  Rx     18EFCD1C  8  A0 00 1B 00 00 00 00 00 
   560)      2374.8  Rx     18EF1CCD  8  A0 00 1B 00 00 00 00 00 
   561)      2390.0  Rx     18EF1C8F  8  0D 20 00 F7 3D 0D 66 FC 
   562)      2390.9  Rx     18EF1C8F  8  0D 21 14 00 21 00 82 03 
   563)      2391.9  Rx     18EF1C8F  8  0D 22 14 00 0A 00 0F 00 
   564)      2393.4  Rx     18EF1CCD  8  A3 00 00 00 00 00 00 00 
   565)      2394.0  Rx     18EFCD1C  8  A0 00 00 00 00 00 00 00 
   566)      2394.6  Rx     18EF1CCD  8  A0 00 00 00 01 00 00 00 
   567)      2410.0  Rx     18EF1C8F  8  0D 30 00 15 8C 0D 66 FC 
   568)      2410.9  Rx     18EF1C8F  8  0D 31 16 00 22 00 82 03 
   569)      2411.9  Rx     18EF1C8F  8  0D 32 14 00 08 00 0D 00 
   570)      2413.4  Rx     18EF1CCD  8  A1 40 00 00 00 00 00 00 
   571)      2430.0  Rx     18EF1C8F  8  0D 40 00 32 DA 0D 66 FC 
   572)      2430.9  Rx     18EF1C8F  8  0D 41 15 00 22 00 82 03 
   573)      2431.9  Rx     18EF1C8F  8  0D 42 16 00 08 00 0F 00 
   574)      2450.0  Rx     18EF1C8F  8  0D 50 00 55 28 0E 66 FC 
   575)      2450.9  Rx     18EF1C8F  8  0D 51 15 00 24 00 82 03 
   576)      2451.9  Rx     18EF1C8F  8  0D 52 13 00 0A 00 0F 00 
   577)      2470.0  Rx     18EF1C8F  8  0D 60 00 75 76 0E 66 FC 
   578)      2470.9  Rx     18EF1C8F  8  0D 61 15 00 20 00 81 03 
   579)      2471.9  Rx     18EF1C8F  8  0D 62 13 00 09 00 0E 00 
   580)      2473.5  Rx     18EF1CCD  8  A2 00 00 00 00 00 00 00 
   581)      2490.0  Rx     18EF1C8F  8  0D 70 00 95 C4 0E 66 FC 
   582)      2490.9  Rx     18EF1C8F  8  0D 71 17 00 23 00 85 03 
   583)      2491.9  Rx     18EF1C8F  8  0D 72 15 00 0A 00 0F 00 
   584)      2493.6  Rx     18EF1CCD  8  A3 00 00 00 00 00 00 00 
   585)      2510.0  Rx     18EF1C8F  8  0D 80 00 B2 12 0F 66 FC 
   586)      2510.8  Rx     18EF1C8F  8  0D 81 16 00 22 00 84 03 
   587)      2511.9  Rx     18EF1C8F  8  0D 82 14 00 09 00 0D 00 
   588)      2513.6  Rx     18EF1CCD  8  A1 40 00 00 00 00 00 00 
   589)      2514.2  Rx     18EFCD1C  8  A1 01 00 00 00 00 00 00 
   590)      2529.9  Rx     18EF1C8F  8  0D 90 00 D7 60 0F 66 FC 
   591)      2530.9  Rx     18EF1C8F  8  0D 91 17 00 22 00 82 03 
   592)      2531.8  Rx     18EF1C8F  8  0D 92 15 00 0A 00 0F 00 
   593)      2534.4  Rx     18EFCD1C  8  A0 00 14 00 00 00 00 00 
   594)      2535.0  Rx     18EF1CCD  8  A0 00 14 00 73 07 00 00 
   595)      2550.0  Rx     18EF1C8F  8  0D A0 00 F5 AE 0F 66 FC 
   596)      2550.8  Rx     18EF1C8F  8  0D A1 15 00 22 00 84 03 
   597)      2551.9  Rx     18EF1C8F  8  0D A2 16 00 0A 00 0D 00 
   598)      2555.5  Rx     18EFCD1C  8  A0 00 2A 00 00 00 00 00 
   599)      2556.1  Rx     18EF1CCD  8  A0 00 2A 00 8D 05 00 00 
   600)      2570.0  Rx     18EF1C8F  8  0D B0 00 15 FD 0F 66 FC 
   601)      2570.9  Rx     18EF1C8F  8  0D B1 16 00 21 00 84 03 
   602)      2571.9  Rx     18EF1C8F  8  0D B2 15 00 0A 00 0A 00 
   603)      2573.8  Rx     18EF1CCD  8  A2 00 00 00 00 00 00 00 
   604)      2574.3  Rx     18EFCD1C  8  A0 00 1B 00 00 00 00 00 
   605)      2574.9  Rx     18EF1CCD  8  A0 00 1B 00 00 00 00 00 
   606)      2590.0  Rx     18EF1C8F  8  0D C0 00 35 4B 10 66 FC 
   607)      2590.9  Rx     18EF1C8F  8  0D C1 17 00 21 00 84 03 
   608)      2591.9  Rx     18EF1C8F  8  0D C2 16 00 0B 00 0B 00 
   609)      2593.8  Rx     18EF1CCD  8  A3 00 00 00 00 00 00 00 
   610)      2594.4  Rx     18EFCD1C  8  A0 00 00 00 00 00 00 00 
   611)      2595.0  Rx     18EF1CCD  8  A0 00 00 00 01 00 00 00 
   612)      2610.0  Rx     18EF1C8F  8  0D D0 00 57 99 10 66 FC 
   613)      2610.9  Rx     18EF1C8F  8  0D D1 16 00 23 00 83 03 
   614)      2611.9  Rx     18EF1C8F  8  0D D2 16 00 0C 00 11 00 
   615)      2613.8  Rx     18EF1CCD  8  A1 40 00 00 00 00 00 00 
   616)      2630.0  Rx     18EF1C8F  8  0D E0 00 75 E7 10 66 FC 
   617)      2630.9  Rx     18EF1C8F  8  0D E1 17 00 22 00 85 03 
   618)      2631.9  Rx     18EF1C8F  8  0D E2 17 00 07 00 0D 00 
   619)      2650.0  Rx     18EF1C8F  8  0D F0 00 95 35 11 67 FC 
   620)      2650.9  Rx     18EF1C8F  8  0D F1 17 00 22 00 84 03 
   621)      2651.9  Rx     18EF1C8F  8  0D F2 16 00 08 00 0B 00 
   622)      2670.0  Rx     18EF1C8F  8  0D 00 00 B5 83 11 67 FC 
   623)      2670.9  Rx     18EF1C8F  8  0D 01 16 00 24 00 84 03 
   624)      2671.9  Rx     18EF1C8F  8  0D 02 15 00 0D 00 0E 00 
   625)      2674.0  Rx     18EF1CCD  8  A2 00 00 00 00 00 00 00 
   626)      2690.0  Rx     18EF1C8F  8  0D 10 00 D5 D1 11 67 FC 
   627)      2690.9  Rx     18EF1C8F  8  0D 11 16 00 24 00 81 03 
   628)      2691.9  Rx     18EF1C8F  8  0D 12 14 00 0D 00 11 00 
   629)      2694.0  Rx     18EF1CCD  8  A3 00 00 00 00 00 00 00 
   630)      2710.0  Rx     18EF1C8F  8  0D 20 00 F5 1F 12 66 FC 
   631)      2710.9  Rx     18EF1C8F  8  0D 21 16 00 22 00 83 03 
   632)      2711.9  Rx     18EF1C8F  8  0D 22 13 00 0B 00 0E 00 
   633)      2714.1  Rx     18EF1CCD  8  A1 40 00 00 00 00 00 00 
   634)      2714.7  Rx     18EFCD1C  8  A1 01 00 00 00 00 00 00 
   635)      2730.0  Rx     18EF1C8F  8  0D 30 00 15 6E 12 66 FC 
   636)      2730.9  Rx     18EF1C8F  8  0D 31 17 00 22 00 81 03 
   637)      2731.9  Rx     18EF1C8F  8  0D 32 15 00 0A 00 0D 00 
   638)      2733.9  Rx     18EFCD1C  8  A0 00 14 00 00 00 00 00 
   639)      2734.6  Rx     18EF1CCD  8  A0 00 14 00 73 07 00 00 
   640)      2750.0  Rx     18EF1C8F  8  0D 40 00 35 BC 12 67 FC 
   641)      2750.9  Rx     18EF1C8F  8  0D 41 16 00 22 00 82 03 
   642)      2751.9  Rx     18EF1C8F  8  0D 42 13 00 0B 00 0C 00 
   643)      2754.7  Rx     18EFCD1C  8  A0 00 2A 00 00 00 00 00 
   644)      2755.4  Rx     18EF1CCD  8  A0 00 2A 00 89 05 00 00 
   645)      2770.0  Rx     18EF1C8F  8  0D 50 00 55 0A 13 66 FC 
   646)      2770.9  Rx     18EF1C8F  8  0D 51 13 00 24 00 81 03 
   647)      2771.9  Rx     18EF1C8F  8  0D 52 15 00 0B 00 0D 00 
   648)      2774.2  Rx     18EF1CCD  8  A2 00 00 00 00 00 00 00 
   649)      2775.7  Rx     18EFCD1C  8  A0 00 1B 00 00 00 00 00 
   650)      2776.3  Rx     18EF1CCD  8  A0 00 1B 00 00 00 00 00 
   651)      2790.0  Rx     18EF1C8F  8  0D 60 00 75 58 13 66 FC 
   652)      2790.9  Rx     18EF1C8F  8  0D 61 15 00 22 00 83 03 
   653)      2791.9  Rx     18EF1C8F  8  0D 62 14 00 0A 00 0E 00 
   654)      2794.0  Rx     18EFCD1C  8  A0 00 00 00 00 00 00 00 
   655)      2794.6  Rx     18EF1CCD  8  A3 00 00 00 00 00 00 00 
   656)      2795.2  Rx     18EF1CCD  8  A0 00 00 00 01 00 00 00 
   657)      2810.0  Rx     18EF1C8F  8  0D 70 00 97 A6 13 66 FC 
   658)      2810.9  Rx     18EF1C8F  8  0D 71 14 00 22 00 83 03 
   659)      2811.9  Rx     18EF1C8F  8  0D 72 16 00 0A 00 0D 00 
   660)      2814.3  Rx     18EF1CCD  8  A1 40 00 00 00 00 00 00 
   661)      2830.0  Rx     18EF1C8F  8  0D 80 00 B5 F4 13 67 FC 
   662)      2830.9  Rx     18EF1C8F  8  0D 81 14 00 23 00 84 03 
   663)      2831.9  Rx     18EF1C8F  8  0D 82 13 00 0E 00 0E 00 
   664)      2850.0  Rx     18EF1C8F  8  0D 90 00 D5 42 14 67 FC 
   665)      2850.9  Rx     18EF1C8F  8  0D 91 15 00 21 00 84 03 
   666)      2851.9  Rx     18EF1C8F  8  0D 92 12 00 0B 00 0E 00 
   667)      2855.5  Rx     18FEF31C  8  F0 28 80 99 AE CE 2C 89 
   668)      2856.0  Rx     18FEE81C  8  97 4F 0C 00 00 00 2C 51 
   669)      2856.6  Rx     18FEE61C  8  50 06 0E 09 57 29 00 00 
   670)      2857.2  Rx     19F0101C  8  FA 00 EE 50 46 6B 44 1E 
   671)      2857.7  Rx     19F8021C  8  FA FC 86 6C 00 00 FF FF 
   672)      2870.0  Rx     18EF1C8F  8  0D A0 00 F5 90 14 66 FC 
   673)      2870.9  Rx     18EF1C8F  8  0D A1 15 00 23 00 82 03 
   674)      2871.9  Rx     18EF1C8F  8  0D A2 14 00 07 00 0F 00 
   675)      2874.4  Rx     18EF1CCD  8  A2 00 00 00 00 00 00 00 
   676)      2890.0  Rx     18EF1C8F  8  0D B0 00 15 DF 14 66 FC 
   677)      2890.9  Rx     18EF1C8F  8  0D B1 16 00 21 00 82 03 
   678)      2891.9  Rx     18EF1C8F  8  0D B2 16 00 0A 00 0D 00 
   679)      2894.5  Rx     18EF1CCD  8  A3 00 00 00 00 00 00 00 
   680)      2910.0  Rx     18EF1C8F  8  0D C0 00 35 2D 15 66 FC 
   681)      2910.9  Rx     18EF1C8F  8  0D C1 17 00 22 00 82 03 
   682)      2911.9  Rx     18EF1C8F  8  0D C2 13 00 0A 00 0E 00 
   683)      2914.0  Rx     18EFCD1C  8  A1 01 00 00 00 00 00 00 
   684)      2914.6  Rx     18EF1CCD  8  A1 40 00 00 00 00 00 00 
   685)      2918.9  Rx     19F8051C  8  E0 2F FA EE 50 46 6B 44 
   686)      2919.5  Rx     19F8051C  8  E1 1E 80 BC 93 7C C7 A6 
   687)      2920.1  Rx     19F8051C  8  E2 98 06 C0 13 25 29 F4 
   688)      2920.6  Rx     19F8051C  8  E3 91 CB 02 6E 6A 41 08 
   689)      2921.2  Rx     19F8051C  8  E4 00 00 00 00 40 00 0D 
   690)      2921.8  Rx     19F8051C  8  E5 4E 00 85 00 FC 0F 00 
   691)      2922.3  Rx     19F8051C  8  E6 00 01 AF 02 58 02 FF 
   692)      2930.0  Rx     18EF1C8F  8  0D D0 00 5A 7B 15 67 FC 
   693)      2930.9  Rx     18EF1C8F  8  0D D1 16 00 24 00 82 03 
   694)      2931.9  Rx     18EF1C8F  8  0D D2 16 00 0A 00 0E 00 
   695)      2933.9  Rx     18EFCD1C  8  A0 00 14 00 00 00 00 00 
   696)      2934.6  Rx     18EF1CCD  8  A0 00 14 00 73 07 00 00 
   697)      2950.0  Rx     18EF1C8F  8  0D E0 00 75 C9 15 67 FC 
   698)      2950.9  Rx     18EF1C8F  8  0D E1 14 00 23 00 81 03 
   699)      2951.9  Rx     18EF1C8F  8  0D E2 14 00 0A 00 0F 00 
   700)      2954.0  Rx     18EFCD1C  8  A0 00 2A 00 00 00 00 00 
   701)      2954.6  Rx     18EF1CCD  8  A0 00 2A 00 8C 05 00 00 
   702)      2970.0  Rx     18EF1C8F  8  0D F0 00 95 17 16 66 FC 
   703)      2970.9  Rx     18EF1C8F  8  0D F1 14 00 22 00 84 03 
   704)      2971.9  Rx     18EF1C8F  8  0D F2 14 00 09 00 0D 00 
   705)      2974.7  Rx     18EF1CCD  8  A2 00 00 00 00 00 00 00 
   706)      2975.3  Rx     18EFCD1C  8  A0 00 1B 00 00 00 00 00 
   707)      2975.9  Rx     18EF1CCD  8  A0 00 1B 00 00 00 00 00 
   708)      2990.0  Rx     18EF1C8F  8  0D 00 00 B5 65 16 67 FC 
   709)      2990.9  Rx     18EF1C8F  8  0D 01 15 00 22 00 83 03 
   710)      2991.9  Rx     18EF1C8F  8  0D 02 15 00 0C 00 0F 00 
   711)      2994.7  Rx     18EF1CCD  8  A3 00 00 00 00 00 00 00 
   712)      2995.7  Rx     18EFCD1C  8  A0 00 00 00 00 00 00 00 
   713)      2996.3  Rx     18EF1CCD  8  A0 00 00 00 01 00 00 00 
   714)      3010.0  Rx     18EF1C8F  8  0D 10 00 D7 B3 16 66 FC 
   715)      3010.9  Rx     18EF1C8F  8  0D 11 16 00 21 00 83 03 
   716)      3011.9  Rx     18EF1C8F  8  0D 12 16 00 0A 00 0E 00 
   717)      3014.7  Rx     18EF1CCD  8  A1 40 00 00 00 00 00 00 
   718)      3030.0  Rx     18EF1C8F  8  0D 20 00 F5 01 17 66 FC 
   719)      3030.9  Rx     18EF1C8F  8  0D 21 16 00 23 00 84 03 
   720)      3031.9  Rx     18EF1C8F  8  0D 22 14 00 0A 00 0F 00 
   721)      3050.0  Rx     18EF1C8F  8  0D 30 00 12 50 17 67 FC 
   722)      3050.9  Rx     18EF1C8F  8  0D 31 16 00 22 00 83 03 
   723)      3051.9  Rx     18EF1C8F  8  0D 32 14 00 09 00 0E 00 
   724)      3070.0  Rx     18EF1C8F  8  0D 40 00 35 9E 17 66 FC 
   725)      3070.9  Rx     18EF1C8F  8  0D 41 17 00 24 00 84 03 
   726)      3071.9  Rx     18EF1C8F  8  0D 42 13 00 0B 00 0B 00 
   727)      3074.9  Rx     18EF1CCD  8  A2 00 00 00 00 00 00 00 
   728)      3076.6  Rx     18EF8F1C  4  01 D5 2F 00 
   729)      3077.1  Rx     18EF1C8F  4  01 30 D5 00 
   730)      3090.0  Rx     18EF1C8F  8  0D 50 00 55 EC 17 67 FC 
   731)      3090.9  Rx     18EF1C8F  8  0D 51 16 00 21 00 83 03 
   732)      3091.9  Rx     18EF1C8F  8  0D 52 13 00 0A 00 0C 00 
   733)      3095.0  Rx     18EF1CCD  8  A3 00 00 00 00 00 00 00 
   734)      3110.0  Rx     18EF1C8F  8  0D 60 00 75 3A 18 66 FC 
   735)      3110.9  Rx     18EF1C8F  8  0D 61 16 00 22 00 84 03 
   736)      3112.0  Rx     18EF1C8F  8  0D 62 13 00 0C 00 0E 00 
   737)      3114.0  Rx     18EFCD1C  8  A1 01 00 00 00 00 00 00 
   738)      3115.0  Rx     18EF1CCD  8  A1 40 00 00 00 00 00 00 
   739)      3130.0  Rx     18EF1C8F  8  0D 70 00 97 88 18 67 FC 
   740)      3130.9  Rx     18EF1C8F  8  0D 71 17 00 22 00 83 03 
   741)      3131.9  Rx     18EF1C8F  8  0D 72 15 00 0B 00 0D 00 
   742)      3134.0  Rx     18EFCD1C  8  A0 00 14 00 00 00 00 00 
   743)      3134.6  Rx     18EF1CCD  8  A0 00 14 00 74 07 00 00 
   744)      3150.0  Rx     18EF1C8F  8  0D 80 00 B5 D6 18 67 FC 
   745)      3150.9  Rx     18EF1C8F  8  0D 81 18 00 23 00 83 03 
   746)      3151.9  Rx     18EF1C8F  8  0D 82 17 00 09 00 0E 00 
   747)      3154.0  Rx     18EFCD1C  8  A0 00 2A 00 00 00 00 00 
   748)      3154.5  Rx     18EF1CCD  8  A0 00 2A 00 8A 05 00 00 
   749)      3170.0  Rx     18EF1C8F  8  0D 90 00 D5 24 19 67 FC 
   750)      3170.9  Rx     18EF1C8F  8  0D 91 17 00 21 00 84 03 
   751)      3171.9  Rx     18EF1C8F  8  0D 92 14 00 04 00 0D 00 
   752)      3174.2  Rx     18EFCD1C  8  A0 00 1B 00 00 00 00 00 
   753)      3174.8  Rx     18EF1CCD  8  A0 00 1B 00 00 00 00 00 
   754)      3175.4  Rx     18EF1CCD  8  A2 00 00 00 00 00 00 00 
   755)      3190.0  Rx     18EF1C8F  8  0D A0 00 F5 72 19 67 FC 
   756)      3190.9  Rx     18EF1C8F  8  0D A1 17 00 22 00 84 03 
   757)      3191.9  Rx     18EF1C8F  8  0D A2 12 00 0D 00 0E 00 
   758)      3194.9  Rx     18EFCD1C  8  A0 00 00 00 00 00 00 00 
   759)      3195.4  Rx     18EF1CCD  8  A3 00 00 00 00 00 00 00 
   760)      3196.2  Rx     18EF1CCD  8  A0 00 00 00 01 00 00 00 
   761)      3210.0  Rx     18EF1C8F  8  0D B0 00 17 C1 19 67 FC 
   762)      3210.9  Rx     18EF1C8F  8  0D B1 18 00 23 00 83 03 
   763)      3211.9  Rx     18EF1C8F  8  0D B2 17 00 0B 00 0D 00 
   764)      3215.2  Rx     18EF1CCD  8  A1 40 00 00 00 00 00 00 
   765)      3230.0  Rx     18EF1C8F  8  0D C0 00 35 0F 1A 67 FC 
   766)      3230.9  Rx     18EF1C8F  8  0D C1 18 00 22 00 82 03 
   767)      3231.9  Rx     18EF1C8F  8  0D C2 16 00 0B 00 0E 00 
   768)      3250.0  Rx     18EF1C8F  8  0D D0 00 55 5D 1A 67 FC 
   769)      3250.9  Rx     18EF1C8F  8  0D D1 17 00 22 00 82 03 
   770)      3251.9  Rx     18EF1C8F  8  0D D2 14 00 0B 00 0F 00 
   771)      3270.0  Rx     18EF1C8F  8  0D E0 00 72 AB 1A 67 FC 
   772)      3270.9  Rx     18EF1C8F  8  0D E1 16 00 23 00 83 03 
   773)      3271.9  Rx     18EF1C8F  8  0D E2 15 00 0B 00 10 00 
   774)      3275.3  Rx     18EF1CCD  8  A2 00 00 00 00 00 00 00 
   775)      3290.0  Rx     18EF1C8F  8  0D F0 00 97 F9 1A 67 FC 
   776)      3290.9  Rx     18EF1C8F  8  0D F1 15 00 23 00 82 03 
   777)      3291.9  Rx     18EF1C8F  8  0D F2 13 00 09 00 0E 00 
   778)      3295.4  Rx     18EF1CCD  8  A3 00 00 00 00 00 00 00 
   779)      3310.0  Rx     18EF1C8F  8  0D 00 00 B5 47 1B 67 FC 
   780)      3310.9  Rx     18EF1C8F  8  0D 01 16 00 22 00 83 03 
   781)      3311.9  Rx     18EF1C8F  8  0D 02 13 00 0A 00 0D 00 
   782)      3314.0  Rx     18EFCD1C  8  A1 01 00 00 00 00 00 00 
   783)      3315.4  Rx     18EF1CCD  8  A1 40 00 00 00 00 00 00 
   784)      3330.0  Rx     18EF1C8F  8  0D 10 00 D2 95 1B 66 FC 
   785)      3330.9  Rx     18EF1C8F  8  0D 11 15 00 21 00 83 03 
   786)      3332.0  Rx     18EF1C8F  8  0D 12 14 00 0B 00 0C 00 
   787)      3333.9  Rx     18EFCD1C  8  A0 00 14 00 00 00 00 00 
   788)      3334.6  Rx     18EF1CCD  8  A0 00 14 00 73 07 00 00 
   789)      3350.0  Rx     18EF1C8F  8  0D 20 00 F7 E3 1B 67 FC 
   790)      3350.9  Rx     18EF1C8F  8  0D 21 15 00 22 00 84 03 
   791)      3351.9  Rx     18EF1C8F  8  0D 22 15 00 0A 00 0E 00 
   792)      3354.0  Rx     18EFCD1C  8  A0 00 2A 00 00 00 00 00 
   793)      3354.6  Rx     18EF1CCD  8  A0 00 2A 00 8B 05 00 00 
   794)      3370.0  Rx     18EF1C8F  8  0D 30 00 15 32 1C 66 FC 
   795)      3370.9  Rx     18EF1C8F  8  0D 31 16 00 20 00 82 03 
   796)      3372.0  Rx     18EF1C8F  8  0D 32 15 00 0B 00 0F 00 
   797)      3374.0  Rx     18EFCD1C  8  A0 00 1B 00 00 00 00 00 
   798)      3374.7  Rx     18EF1CCD  8  A0 00 1B 00 00 00 00 00 
   799)      3375.6  Rx     18EF1CCD  8  A2 00 00 00 00 00 00 00 
   800)      3390.1  Rx     18EF1C8F  8  0D 40 00 35 80 1C 66 FC 
   801)      3391.0  Rx     18EF1C8F  8  0D 41 14 00 22 00 83 03 
   802)      3391.9  Rx     18EF1C8F  8  0D 42 18 00 0A 00 0E 00 
   803)      3394.4  Rx     18EFCD1C  8  A0 00 00 00 00 00 00 00 
   804)      3395.1  Rx     18EF1CCD  8  A0 00 00 00 01 00 00 00 
   805)      3395.7  Rx     18EF1CCD  8  A3 00 00 00 00 00 00 00 
   806)      3410.0  Rx     18EF1C8F  8  0D 50 00 55 CE 1C 66 FC 
   807)      3411.0  Rx     18EF1C8F  8  0D 51 16 00 24 00 83 03 
   808)      3412.0  Rx     18EF1C8F  8  0D 52 17 00 09 00 0C 00 
   809)      3415.7  Rx     18EF1CCD  8  A1 40 00 00 00 00 00 00 
   810)      3430.0  Rx     18EF1C8F  8  0D 60 00 75 1C 1D 67 FC 
   811)      3431.0  Rx     18EF1C8F  8  0D 61 16 00 23 00 83 03 
   812)      3431.9  Rx     18EF1C8F  8  0D 62 15 00 0A 00 0E 00 
   813)      3450.0  Rx     18EF1C8F  8  0D 70 00 92 6A 1D 66 FC 
   814)      3450.9  Rx     18EF1C8F  8  0D 71 15 00 23 00 84 03 
   815)      3452.0  Rx     18EF1C8F  8  0D 72 17 00 0B 00 0E 00 
   816)      3470.1  Rx     18EF1C8F  8  0D 80 00 B5 B8 1D 67 FC 
   817)      3470.9  Rx     18EF1C8F  8  0D 81 15 00 24 00 84 03 
   818)      3471.9  Rx     18EF1C8F  8  0D 82 16 00 0B 00 0E 00 
   819)      3475.8  Rx     18EF1CCD  8  A2 00 00 00 00 00 00 00 
   820)      3490.0  Rx     18EF1C8F  8  0D 90 00 D5 06 1E 67 FC 
   821)      3490.9  Rx     18EF1C8F  8  0D 91 16 00 22 00 84 03 
   822)      3491.9  Rx     18EF1C8F  8  0D 92 13 00 0A 00 0E 00 
   823)      3495.8  Rx     18EF1CCD  8  A3 00 00 00 00 00 00 00 
   824)      3510.1  Rx     18EF1C8F  8  0D A0 00 F5 54 1E 67 FC 
   825)      3510.9  Rx     18EF1C8F  8  0D A1 16 00 22 00 83 03 
   826)      3511.9  Rx     18EF1C8F  8  0D A2 16 00 0A 00 0F 00 
   827)      3514.2  Rx     18EFCD1C  8  A1 01 00 00 00 00 00 00 
   828)      3515.9  Rx     18EF1CCD  8  A1 40 00 00 00 00 00 00 
   829)      3530.0  Rx     18EF1C8F  8  0D B0 00 15 A3 1E 67 FC 
   830)      3530.9  Rx     18EF1C8F  8  0D B1 17 00 23 00 82 03 
   831)      3531.9  Rx     18EF1C8F  8  0D B2 15 00 09 00 0E 00 
   832)      3534.0  Rx     18EFCD1C  8  A0 00 14 00 00 00 00 00 
   833)      3534.6  Rx     18EF1CCD  8  A0 00 14 00 74 07 00 00 
   834)      3550.0  Rx     18EF1C8F  8  0D C0 00 35 F1 1E 67 FC 
   835)      3550.9  Rx     18EF1C8F  8  0D C1 15 00 22 00 83 03 
   836)      3551.9  Rx     18EF1C8F  8  0D C2 14 00 0A 00 0C 00 
   837)      3554.0  Rx     18EFCD1C  8  A0 00 2A 00 00 00 00 00 
   838)      3554.7  Rx     18EF1CCD  8  A0 00 2A 00 8D 05 00 00 
   839)      3570.1  Rx     18EF1C8F  8  0D D0 00 55 3F 1F 67 FC 
   840)      3571.0  Rx     18EF1C8F  8  0D D1 16 00 23 00 83 03 
   841)      3571.9  Rx     18EF1C8F  8  0D D2 13 00 09 00 0F 00 
   842)      3574.0  Rx     18EFCD1C  8  A0 00 1B 00 00 00 00 00 
   843)      3574.7  Rx     18EF1CCD  8  A0 00 1B 00 00 00 00 00 
   844)      3576.0  Rx     18EF1CCD  8  A2 00 00 00 00 00 00 00 
   845)      3590.0  Rx     18EF1C8F  8  0D E0 00 77 8D 1F 67 FC 
   846)      3590.9  Rx     18EF1C8F  8  0D E1 17 00 24 00 83 03 
   847)      3592.0  Rx     18EF1C8F  8  0D E2 12 00 09 00 0E 00 
   848)      3594.3  Rx     18EFCD1C  8  A0 00 00 00 00 00 00 00 
   849)      3594.9  Rx     18EF1CCD  8  A0 00 00 00 01 00 00 00 
   850)      3596.0  Rx     18EF1CCD  8  A3 00 00 00 00 00 00 00 
   851)      3610.0  Rx     18EF1C8F  8  0D F0 00 95 DB 1F 67 FC 
   852)      3611.0  Rx     18EF1C8F  8  0D F1 16 00 21 00 82 03 
   853)      3611.9  Rx     18EF1C8F  8  0D F2 14 00 0A 00 0E 00 
   854)      3616.1  Rx     18EF1CCD  8  A1 40 00 00 00 00 00 00 
   855)      3630.0  Rx     18EF1C8F  8  0D 00 00 B5 29 20 67 FC 
   856)      3630.9  Rx     18EF1C8F  8  0D 01 18 00 20 00 84 03 
   857)      3632.0  Rx     18EF1C8F  8  0D 02 13 00 0A 00 0D 00 
   858)      3650.0  Rx     18EF1C8F  8  0D 10 00 D5 77 20 67 FC 
   859)      3650.9  Rx     18EF1C8F  8  0D 11 18 00 23 00 83 03 
   860)      3651.9  Rx     18EF1C8F  8  0D 12 15 00 0A 00 0E 00 
   861)      3670.0  Rx     18EF1C8F  8  0D 20 00 F5 C5 20 67 FC 
   862)      3670.9  Rx     18EF1C8F  8  0D 21 16 00 21 00 83 03 
   863)      3671.9  Rx     18EF1C8F  8  0D 22 15 00 0B 00 0D 00 
   864)      3676.2  Rx     18EF1CCD  8  A2 00 00 00 00 00 00 00 
   865)      3690.0  Rx     18EF1C8F  8  0D 30 00 15 14 21 67 FC 
   866)      3690.9  Rx     18EF1C8F  8  0D 31 16 00 23 00 82 03 
   867)      3691.9  Rx     18EF1C8F  8  0D 32 14 00 0A 00 10 00 
   868)      3696.2  Rx     18EF1CCD  8  A3 00 00 00 00 00 00 00 
   869)      3710.0  Rx     18EF1C8F  8  0D 40 00 35 62 21 67 FC 
   870)      3710.9  Rx     18EF1C8F  8  0D 41 16 00 23 00 84 03 
   871)      3711.9  Rx     18EF1C8F  8  0D 42 14 00 0A 00 0F 00 
   872)      3713.9  Rx     18EFCD1C  8  A1 01 00 00 00 00 00 00 
   873)      3716.2  Rx     18EF1CCD  8  A1 40 00 00 00 00 00 00 
   874)      3730.0  Rx     18EF1C8F  8  0D 50 00 57 B0 21 67 FC 
   875)      3730.9  Rx     18EF1C8F  8  0D 51 16 00 22 00 83 03 
   876)      3731.9  Rx     18EF1C8F  8  0D 52 13 00 09 00 0D 00 
   877)      3733.9  Rx     18EFCD1C  8  A0 00 14 00 00 00 00 00 
   878)      3734.5  Rx     18EF1CCD  8  A0 00 14 00 73 07 00 00 
   879)      3750.0  Rx     18EF1C8F  8  0D 60 00 75 FE 21 67 FC 
   880)      3750.9  Rx     18EF1C8F  8  0D 61 17 00 21 00 83 03 
   881)      3751.9  Rx     18EF1C8F  8  0D 62 15 00 07 00 0C 00 
   882)      3753.9  Rx     18EFCD1C  8  A0 00 2A 00 00 00 00 00 
   883)      3754.6  Rx     18EF1CCD  8  A0 00 2A 00 88 05 00 00 
   884)      3770.0  Rx     18EF1C8F  8  0D 70 00 95 4C 22 67 FC 
   885)      3770.9  Rx     18EF1C8F  8  0D 71 17 00 22 00 81 03 
   886)      3771.9  Rx     18EF1C8F  8  0D 72 17 00 0C 00 0D 00 
   887)      3773.9  Rx     18EFCD1C  8  A0 00 1B 00 00 00 00 00 
   888)      3774.6  Rx     18EF1CCD  8  A0 00 1B 00 00 00 00 00 
   889)      3776.4  Rx     18EF1CCD  8  A2 00 00 00 00 00 00 00 
   890)      3790.0  Rx     18EF1C8F  8  0D 80 00 B5 9A 22 67 FC 
   891)      3790.9  Rx     18EF1C8F  8  0D 81 16 00 22 00 83 03 
   892)      3791.9  Rx     18EF1C8F  8  0D 82 15 00 0B 00 0D 00 
   893)      3793.9  Rx     18EFCD1C  8  A0 00 00 00 00 00 00 00 
   894)      3794.5  Rx     18EF1CCD  8  A0 00 00 00 01 00 00 00 
   895)      3796.4  Rx     18EF1CCD  8  A3 00 00 00 00 00 00 00 
   896)      3810.0  Rx     18EF1C8F  8  0D 90 00 D7 E8 22 67 FC 
   897)      3810.9  Rx     18EF1C8F  8  0D 91 17 00 21 00 82 03 
   898)      3811.9  Rx     18EF1C8F  8  0D 92 15 00 0A 00 0F 00 
   899)      3816.5  Rx     18EF1CCD  8  A1 40 00 00 00 00 00 00 
   900)      3829.9  Rx     18EF1C8F  8  0D A0 00 F2 36 23 67 FC 
   901)      3830.9  Rx     18EF1C8F  8  0D A1 16 00 22 00 83 03 
   902)      3831.9  Rx     18EF1C8F  8  0D A2 14 00 09 00 0E 00 
   903)      3850.0  Rx     18EF1C8F  8  0D B0 00 15 85 23 67 FC 
   904)      3850.9  Rx     18EF1C8F  8  0D B1 18 00 22 00 84 03 
   905)      3851.9  Rx     18EF1C8F  8  0D B2 14 00 0A 00 0E 00 
   906)      3856.3  Rx     18FEF31C  8  F0 28 80 99 AE CE 2C 89 
   907)      3856.9  Rx     18FEE81C  8  97 4F 06 00 00 00 2C 51 
   908)      3857.4  Rx     18FEE61C  8  54 06 0E 09 57 29 00 00 
   909)      3858.0  Rx     19F8021C  8  04 FC 86 6C 00 00 FF FF 
   910)      3870.0  Rx     18EF1C8F  8  0D C0 00 37 D3 23 67 FC 
   911)      3870.9  Rx     18EF1C8F  8  0D C1 15 00 23 00 83 03 
   912)      3871.9  Rx     18EF1C8F  8  0D C2 14 00 0B 00 0F 00 
   913)      3876.6  Rx     18EF1CCD  8  A2 00 00 00 00 00 00 00 
   914)      3890.0  Rx     18EF1C8F  8  0D D0 00 52 21 24 67 FC 
   915)      3890.9  Rx     18EF1C8F  8  0D D1 16 00 23 00 83 03 
   916)      3891.9  Rx     18EF1C8F  8  0D D2 14 00 0C 00 0D 00 
   917)      3896.6  Rx     18EF1CCD  8  A3 00 00 00 00 00 00 00 
   918)      3904.9  Rx     19F8051C  8  00 2F 04 EE 50 56 92 44 
   919)      3905.4  Rx     19F8051C  8  01 1E 00 B5 37 7C C7 A6 
   920)      3906.0  Rx     19F8051C  8  02 98 06 20 24 D6 38 F4 
   921)      3906.5  Rx     19F8051C  8  03 91 CB 02 DC 82 41 08 
   922)      3907.1  Rx     19F8051C  8  04 00 00 00 00 40 00 0D 
   923)      3907.7  Rx     19F8051C  8  05 4E 00 85 00 FC 0F 00 
   924)      3908.3  Rx     19F8051C  8  06 00 01 AF 02 BC 02 FF 
   925)      3910.0  Rx     18EF1C8F  8  0D E0 00 7A 6F 24 67 FC 
   926)      3910.9  Rx     18EF1C8F  8  0D E1 1A 00 23 00 85 03 
   927)      3911.9  Rx     18EF1C8F  8  0D E2 14 00 0C 00 0E 00 
   928)      3913.8  Rx     18EFCD1C  4  01 82 33 00 
   929)      3914.4  Rx     18EFCD1C  8  A1 01 00 00 00 00 00 00 
   930)      3914.8  Rx     18EF1CCD  4  01 34 82 00 
   931)      3916.7  Rx     18EF1CCD  8  A1 40 00 00 00 00 00 00 
   932)      3930.0  Rx     18EF1C8F  8  0D F0 00 95 BD 24 67 FC 
   933)      3930.9  Rx     18EF1C8F  8  0D F1 15 00 21 00 83 03 
   934)      3931.9  Rx     18EF1C8F  8  0D F2 15 00 0C 00 0D 00 
   935)      3933.9  Rx     18EFCD1C  8  A0 00 14 00 00 00 00 00 
   936)      3934.5  Rx     18EF1CCD  8  A0 00 14 00 73 07 00 00 
   937)      3950.0  Rx     18EF1C8F  8  0D 00 00 B5 0B 25 67 FC 
   938)      3950.9  Rx     18EF1C8F  8  0D 01 17 00 24 00 84 03 
   939)      3951.9  Rx     18EF1C8F  8  0D 02 15 00 08 00 0F 00 
   940)      3953.9  Rx     18EFCD1C  8  A0 00 2A 00 00 00 00 00 
   941)      3954.5  Rx     18EF1CCD  8  A0 00 2A 00 8C 05 00 00 
   942)      3969.9  Rx     18EF1C8F  8  0D 10 00 D5 59 25 67 FC 
   943)      3970.9  Rx     18EF1C8F  8  0D 11 17 00 23 00 84 03 
   944)      3971.9  Rx     18EF1C8F  8  0D 12 14 00 09 00 0C 00 
   945)      3973.9  Rx     18EFCD1C  8  A0 00 1B 00 00 00 00 00 
   946)      3974.5  Rx     18EF1CCD  8  A0 00 1B 00 00 00 00 00 
   947)      3976.8  Rx     18EF1CCD  8  A2 00 00 00 00 00 00 00 
   948)      3990.0  Rx     18EF1C8F  8  0D 20 00 F7 A7 25 67 FC 
   949)      3990.9  Rx     18EF1C8F  8  0D 21 16 00 21 00 82 03 
   950)      3991.9  Rx     18EF1C8F  8  0D 22 14 00 0B 00 0C 00 
   951)      3993.9  Rx     18EFCD1C  8  A0 00 00 00 00 00 00 00 
   952)      3994.6  Rx     18EF1CCD  8  A0 00 00 00 01 00 00 00 
   953)      3996.9  Rx     18EF1CCD  8  A3 00 00 00 00 00 00 00 
   954)      4009.9  Rx     18EF1C8F  8  0D 30 00 15 F6 25 67 FC 
   955)      4010.9  Rx     18EF1C8F  8  0D 31 14 00 21 00 83 03 
   956)      4011.9  Rx     18EF1C8F  8  0D 32 15 00 0C 00 0E 00 
   957)      4016.9  Rx     18EF1CCD  8  A1 40 00 00 00 00 00 00 
   958)      4030.0  Rx     18EF1C8F  8  0D 40 00 37 44 26 67 FC 
   959)      4030.9  Rx     18EF1C8F  8  0D 41 14 00 20 00 84 03 
   960)      4031.8  Rx     18EF1C8F  8  0D 42 15 00 0B 00 0F 00 
   961)      4049.9  Rx     18EF1C8F  8  0D 50 00 55 92 26 67 FC 
   962)      4050.8  Rx     18EF1C8F  8  0D 51 15 00 23 00 82 03 
   963)      4051.9  Rx     18EF1C8F  8  0D 52 15 00 08 00 0D 00 
   964)      4069.9  Rx     18EF1C8F  8  0D 60 00 72 E0 26 67 FC 
   965)      4070.9  Rx     18EF1C8F  8  0D 61 16 00 22 00 84 03 
   966)      4071.8  Rx     18EF1C8F  8  0D 62 14 00 09 00 0E 00 
   967)      4077.0  Rx     18EF1CCD  8  A2 00 00 00 00 00 00 00 
   968)      4089.9  Rx     18EF1C8F  8  0D 70 00 95 2E 27 67 FC 
   969)      4090.8  Rx     18EF1C8F  8  0D 71 17 00 21 00 82 03 
   970)      4091.9  Rx     18EF1C8F  8  0D 72 14 00 0D 00 0D 00 
   971)      4097.1  Rx     18EF1CCD  8  A3 00 00 00 00 00 00 00 
   972)      4109.9  Rx     18EF1C8F  8  0D 80 00 B7 7C 27 67 FC 
   973)      4110.9  Rx     18EF1C8F  8  0D 81 16 00 21 00 82 03 
   974)      4111.8  Rx     18EF1C8F  8  0D 82 16 00 08 00 0F 00 
   975)      4113.9  Rx     18EFCD1C  8  A1 01 00 00 00 00 00 00 
   976)      4117.1  Rx     18EF1CCD  8  A1 40 00 00 00 00 00 00 
   977)      4129.9  Rx     18EF1C8F  8  0D 90 00 D5 CA 27 67 FC 
   978)      4130.8  Rx     18EF1C8F  8  0D 91 15 00 23 00 82 03 
   979)      4131.8  Rx     18EF1C8F  8  0D 92 16 00 08 00 0C 00 
   980)      4133.8  Rx     18EFCD1C  8  A0 00 14 00 00 00 00 00 
   981)      4134.5  Rx     18EF1CCD  8  A0 00 14 00 73 07 00 00 
   982)      4149.9  Rx     18EF1C8F  8  0D A0 00 F5 18 28 67 FC 
   983)      4150.8  Rx     18EF1C8F  8  0D A1 17 00 23 00 83 03 
   984)      4151.8  Rx     18EF1C8F  8  0D A2 14 00 0A 00 0C 00 
   985)      4153.8  Rx     18EFCD1C  8  A0 00 2A 00 00 00 00 00 
   986)      4154.5  Rx     18EF1CCD  8  A0 00 2A 00 8A 05 00 00 
   987)      4169.9  Rx     18EF1C8F  8  0D B0 00 15 67 28 67 FC 
   988)      4170.8  Rx     18EF1C8F  8  0D B1 15 00 24 00 83 03 
   989)      4171.8  Rx     18EF1C8F  8  0D B2 13 00 0B 00 0F 00 
   990)      4173.8  Rx     18EFCD1C  8  A0 00 1B 00 00 00 00 00 
   991)      4174.5  Rx     18EF1CCD  8  A0 00 1B 00 00 00 00 00 
   992)      4177.2  Rx     18EF1CCD  8  A2 00 00 00 00 00 00 00 
   993)      4189.9  Rx     18EF1C8F  8  0D C0 00 37 B5 28 67 FC 
   994)      4190.8  Rx     18EF1C8F  8  0D C1 16 00 22 00 82 03 
   995)      4191.8  Rx     18EF1C8F  8  0D C2 15 00 0C 00 0E 00 
   996)      4193.8  Rx     18EFCD1C  8  A0 00 00 00 00 00 00 00 
   997)      4194.5  Rx     18EF1CCD  8  A0 00 00 00 01 00 00 00 
   998)      4197.2  Rx     18EF1CCD  8  A3 00 00 00 00 00 00 00 
   999)      4209.9  Rx     18EF1C8F  8  0D D0 00 55 03 29 67 FC 
  1000)      4210.8  Rx     18EF1C8F  8  0D D1 16 00 23 00 82 03 
  1001)      4211.8  Rx     18EF1C8F  8  0D D2 14 00 09 00 0E 00 
  1002)      4217.3  Rx     18EF1CCD  8  A1 40 00 00 00 00 00 00 
  1003)      4229.9  Rx     18EF1C8F  8  0D E0 00 75 51 29 67 FC 
  1004)      4230.8  Rx     18EF1C8F  8  0D E1 16 00 24 00 82 03 
  1005)      4231.8  Rx     18EF1C8F  8  0D E2 16 00 08 00 0E 00 
  1006)      4249.9  Rx     18EF1C8F  8  0D F0 00 92 9F 29 67 FC 
  1007)      4250.8  Rx     18EF1C8F  8  0D F1 16 00 22 00 82 03 
  1008)      4251.8  Rx     18EF1C8F  8  0D F2 14 00 09 00 0D 00 
  1009)      4269.9  Rx     18EF1C8F  8  0D 00 00 B5 ED 29 67 FC 
  1010)      4270.8  Rx     18EF1C8F  8  0D 01 15 00 22 00 84 03 
  1011)      4271.8  Rx     18EF1C8F  8  0D 02 13 00 09 00 0E 00 
  1012)      4277.4  Rx     18EF1CCD  8  A2 00 00 00 00 00 00 00 
  1013)      4289.8  Rx     18EF1C8F  8  0D 10 00 D5 3B 2A 67 FC 
  1014)      4290.8  Rx     18EF1C8F  8  0D 11 18 00 23 00 82 03 
  1015)      4291.8  Rx     18EF1C8F  8  0D 12 14 00 0B 00 0E 00 
  1016)      4297.4  Rx     18EF1CCD  8  A3 00 00 00 00 00 00 00 
  1017)      4309.9  Rx     18EF1C8F  8  0D 20 00 F5 89 2A 67 FC 
  1018)      4310.8  Rx     18EF1C8F  8  0D 21 17 00 22 00 84 03 
  1019)      4311.8  Rx     18EF1C8F  8  0D 22 16 00 0C 00 0F 00 
  1020)      4313.8  Rx     18EFCD1C  8  A1 01 00 00 00 00 00 00 
  1021)      4317.4  Rx     18EF1CCD  8  A1 40 00 00 00 00 00 00 
  1022)      4329.8  Rx     18EF1C8F  8  0D 30 00 15 D8 2A 67 FC 
  1023)      4330.7  Rx     18EF1C8F  8  0D 31 16 00 23 00 84 03 
  1024)      4331.8  Rx     18EF1C8F  8  0D 32 16 00 09 00 0E 00 
  1025)      4333.8  Rx     18EFCD1C  8  A0 00 14 00 00 00 00 00 
  1026)      4334.5  Rx     18EF1CCD  8  A0 00 14 00 73 07 00 00 
  1027)      4349.9  Rx     18EF1C8F  8  0D 40 00 35 26 2B 67 FC 
  1028)      4350.8  Rx     18EF1C8F  8  0D 41 18 00 22 00 82 03 
  1029)      4351.7  Rx     18EF1C8F  8  0D 42 16 00 05 00 0E 00 
  1030)      4353.8  Rx     18EFCD1C  8  A0 00 2A 00 00 00 00 00 
  1031)      4354.5  Rx     18EF1CCD  8  A0 00 2A 00 8B 05 00 00 
  1032)      4369.8  Rx     18EF1C8F  8  0D 50 00 55 74 2B 67 FC 
  1033)      4370.8  Rx     18EF1C8F  8  0D 51 18 00 24 00 84 03 
  1034)      4371.8  Rx     18EF1C8F  8  0D 52 15 00 0A 00 0D 00 
  1035)      4373.8  Rx     18EFCD1C  8  A0 00 1B 00 00 00 00 00 
  1036)      4374.5  Rx     18EF1CCD  8  A0 00 1B 00 00 00 00 00 
  1037)      4377.6  Rx     18EF1CCD  8  A2 00 00 00 00 00 00 00 
  1038)      4389.8  Rx     18EF1C8F  8  0D 60 00 75 C2 2B 67 FC 
  1039)      4390.8  Rx     18EF1C8F  8  0D 61 15 00 24 00 83 03 
  1040)      4391.8  Rx     18EF1C8F  8  0D 62 14 00 0A 00 0E 00 
  1041)      4393.9  Rx     18EFCD1C  8  A0 00 00 00 00 00 00 00 
  1042)      4394.5  Rx     18EF1CCD  8  A0 00 00 00 01 00 00 00 
  1043)      4397.6  Rx     18EF1CCD  8  A3 00 00 00 00 00 00 00 
  1044)      4409.8  Rx     18EF1C8F  8  0D 70 00 97 10 2C 67 FC 
  1045)      4410.8  Rx     18EF1C8F  8  0D 71 16 00 21 00 83 03 
  1046)      4411.8  Rx     18EF1C8F  8  0D 72 16 00 0B 00 0E 00 
  1047)      4417.7  Rx     18EF1CCD  8  A1 40 00 00 00 00 00 00 
  1048)      4429.9  Rx     18EF1C8F  8  0D 80 00 B5 5E 2C 67 FC 
  1049)      4430.8  Rx     18EF1C8F  8  0D 81 14 00 22 00 83 03 
  1050)      4431.8  Rx     18EF1C8F  8  0D 82 15 00 0B 00 0D 00 
  1051)      4449.8  Rx     18EF1C8F  8  0D 90 00 D5 AC 2C 67 FC 
  1052)      4450.8  Rx     18EF1C8F  8  0D 91 15 00 22 00 83 03 
  1053)      4451.8  Rx     18EF1C8F  8  0D 92 13 00 0C 00 0E 00 
  1054)      4469.9  Rx     18EF1C8F  8  0D A0 00 F5 FA 2C 67 FC 
  1055)      4470.8  Rx     18EF1C8F  8  0D A1 16 00 21 00 83 03 
  1056)      4471.8  Rx     18EF1C8F  8  0D A2 15 00 09 00 0C 00 
  1057)      4477.8  Rx     18EF1CCD  8  A2 00 00 00 00 00 00 00 
  1058)      4489.9  Rx     18EF1C8F  8  0D B0 00 15 49 2D 68 FC 
  1059)      4490.8  Rx     18EF1C8F  8  0D B1 17 00 22 00 83 03 
  1060)      4491.8  Rx     18EF1C8F  8  0D B2 13 00 0A 00 0D 00 
  1061)      4497.9  Rx     18EF1CCD  8  A3 00 00 00 00 00 00 00 
  1062)      4509.9  Rx     18EF1C8F  8  0D C0 00 35 97 2D 67 FC 
  1063)      4510.8  Rx     18EF1C8F  8  0D C1 17 00 22 00 83 03 
  1064)      4511.8  Rx     18EF1C8F  8  0D C2 13 00 0B 00 0F 00 
  1065)      4514.0  Rx     18EFCD1C  8  A1 01 00 00 00 00 00 00 
  1066)      4517.9  Rx     18EF1CCD  8  A1 40 00 00 00 00 00 00 
  1067)      4529.9  Rx     18EF1C8F  8  0D D0 00 55 E5 2D 67 FC 
  1068)      4530.8  Rx     18EF1C8F  8  0D D1 17 00 22 00 83 03 
  1069)      4531.8  Rx     18EF1C8F  8  0D D2 12 00 09 00 0E 00 
  1070)      4533.8  Rx     18EFCD1C  8  A0 00 14 00 00 00 00 00 
  1071)      4534.4  Rx     18EF1CCD  8  A0 00 14 00 74 07 00 00 
  1072)      4549.9  Rx     18EF1C8F  8  0D E0 00 75 33 2E 67 FC 
  1073)      4550.8  Rx     18EF1C8F  8  0D E1 16 00 23 00 83 03 
  1074)      4551.8  Rx     18EF1C8F  8  0D E2 14 00 08 00 0B 00 
  1075)      4553.9  Rx     18EFCD1C  8  A0 00 2A 00 00 00 00 00 
  1076)      4554.5  Rx     18EF1CCD  8  A0 00 2A 00 8B 05 00 00 
  1077)      4569.9  Rx     18EF1C8F  8  0D F0 00 95 81 2E 67 FC 
  1078)      4570.8  Rx     18EF1C8F  8  0D F1 15 00 21 00 82 03 
  1079)      4571.8  Rx     18EF1C8F  8  0D F2 15 00 0A 00 0F 00 
  1080)      4573.8  Rx     18EFCD1C  8  A0 00 1B 00 00 00 00 00 
  1081)      4574.5  Rx     18EF1CCD  8  A0 00 1B 00 00 00 00 00 
  1082)      4578.0  Rx     18EF1CCD  8  A2 00 00 00 00 00 00 00 
  1083)      4589.9  Rx     18EF1C8F  8  0D 00 00 B7 CF 2E 67 FC 
  1084)      4590.8  Rx     18EF1C8F  8  0D 01 16 00 22 00 84 03 
  1085)      4591.8  Rx     18EF1C8F  8  0D 02 15 00 0C 00 0E 00 
  1086)      4593.8  Rx     18EFCD1C  8  A0 00 00 00 00 00 00 00 
  1087)      4594.5  Rx     18EF1CCD  8  A0 00 00 00 01 00 00 00 
  1088)      4598.1  Rx     18EF1CCD  8  A3 00 00 00 00 00 00 00 
  1089)      4609.9  Rx     18EF1C8F  8  0D 10 00 D5 1D 2F 67 FC 
  1090)      4610.8  Rx     18EF1C8F  8  0D 11 16 00 22 00 85 03 
  1091)      4611.8  Rx     18EF1C8F  8  0D 12 14 00 0C 00 0F 00 
  1092)      4618.2  Rx     18EF1CCD  8  A1 40 00 00 00 00 00 00 
  1093)      4629.9  Rx     18EF1C8F  8  0D 20 00 F5 6B 2F 68 FC 
  1094)      4630.8  Rx     18EF1C8F  8  0D 21 16 00 22 00 83 03 
  1095)      4631.8  Rx     18EF1C8F  8  0D 22 16 00 0B 00 0E 00 
  1096)      4649.9  Rx     18EF1C8F  8  0D 30 00 15 BA 2F 68 FC 
  1097)      4650.8  Rx     18EF1C8F  8  0D 31 15 00 22 00 83 03 
  1098)      4651.8  Rx     18EF1C8F  8  0D 32 14 00 09 00 0E 00 
  1099)      4669.9  Rx     18EF1C8F  8  0D 40 00 35 08 30 68 FC 
  1100)      4670.8  Rx     18EF1C8F  8  0D 41 16 00 21 00 82 03 
  1101)      4671.8  Rx     18EF1C8F  8  0D 42 16 00 09 00 0E 00 
  1102)      4678.3  Rx     18EF1CCD  8  A2 00 00 00 00 00 00 00 
  1103)      4689.9  Rx     18EF1C8F  8  0D 50 00 55 56 30 67 FC 
  1104)      4690.8  Rx     18EF1C8F  8  0D 51 16 00 24 00 83 03 
  1105)      4691.8  Rx     18EF1C8F  8  0D 52 17 00 0E 00 0F 00 
  1106)      4698.3  Rx     18EF1CCD  8  A3 00 00 00 00 00 00 00 
  1107)      4709.9  Rx     18EF1C8F  8  0D 60 00 75 A4 30 68 FC 
  1108)      4710.8  Rx     18EF1C8F  8  0D 61 14 00 23 00 84 03 
  1109)      4711.8  Rx     18EF1C8F  8  0D 62 15 00 0A 00 0E 00 
  1110)      4715.2  Rx     18EFCD1C  8  A1 01 00 00 00 00 00 00 
  1111)      4718.3  Rx     18EF1CCD  8  A1 40 00 00 00 00 00 00 
  1112)      4729.9  Rx     18EF1C8F  8  0D 70 00 95 F2 30 67 FC 
  1113)      4730.8  Rx     18EF1C8F  8  0D 71 17 00 23 00 83 03 
  1114)      4731.8  Rx     18EF1C8F  8  0D 72 13 00 08 00 0C 00 
  1115)      4733.8  Rx     18EFCD1C  8  A0 00 14 00 00 00 00 00 
  1116)      4734.4  Rx     18EF1CCD  8  A0 00 14 00 73 07 00 00 
  1117)      4749.9  Rx     18EF1C8F  8  0D 80 00 B5 40 31 67 FC 
  1118)      4750.8  Rx     18EF1C8F  8  0D 81 1A 00 22 00 84 03 
  1119)      4751.8  Rx     18EF1C8F  8  0D 82 14 00 0B 00 0C 00 
  1120)      4753.8  Rx     18EFCD1C  8  A0 00 2A 00 00 00 00 00 
  1121)      4754.5  Rx     18EF1CCD  8  A0 00 2A 00 88 05 00 00 
  1122)      4769.9  Rx     18EF1C8F  8  0D 90 00 D5 8E 31 68 FC 
  1123)      4770.8  Rx     18EF1C8F  8  0D 91 16 00 23 00 83 03 
  1124)      4771.8  Rx     18EF1C8F  8  0D 92 13 00 0C 00 0F 00 
  1125)      4773.8  Rx     18EFCD1C  8  A0 00 1B 00 00 00 00 00 
  1126)      4774.5  Rx     18EF1CCD  8  A0 00 1B 00 00 00 00 00 
  1127)      4778.5  Rx     18EF1CCD  8  A2 00 00 00 00 00 00 00 
  1128)      4789.9  Rx     18EF1C8F  8  0D A0 00 F5 DC 31 67 FC 
  1129)      4790.8  Rx     18EF1C8F  8  0D A1 17 00 21 00 83 03 
  1130)      4791.8  Rx     18EF1C8F  8  0D A2 15 00 09 00 0F 00 
  1131)      4793.8  Rx     18EFCD1C  8  A0 00 00 00 00 00 00 00 
  1132)      4794.5  Rx     18EF1CCD  8  A0 00 00 00 01 00 00 00 
  1133)      4798.5  Rx     18EF1CCD  8  A3 00 00 00 00 00 00 00 
  1134)      4809.9  Rx     18EF1C8F  8  0D B0 00 15 2B 32 68 FC 
  1135)      4810.8  Rx     18EF1C8F  8  0D B1 19 00 22 00 83 03 
  1136)      4811.8  Rx     18EF1C8F  8  0D B2 16 00 0A 00 0F 00 
  1137)      4818.6  Rx     18EF1CCD  8  A1 40 00 00 00 00 00 00 
  1138)      4829.9  Rx     18EF1C8F  8  0D C0 00 35 79 32 67 FC 
  1139)      4830.8  Rx     18EF1C8F  8  0D C1 14 00 22 00 83 03 
  1140)      4831.8  Rx     18EF1C8F  8  0D C2 16 00 09 00 0F 00 
  1141)      4849.9  Rx     18EF1C8F  8  0D D0 00 55 C7 32 67 FC 
  1142)      4850.8  Rx     18EF1C8F  8  0D D1 17 00 21 00 83 03 
  1143)      4851.8  Rx     18EF1C8F  8  0D D2 15 00 09 00 0F 00 
  1144)      4855.2  Rx     18FEF31C  8  EF 28 80 99 AE CE 2C 89 
  1145)      4855.7  Rx     18FEE81C  8  97 4F 0A 00 00 00 2C 51 
  1146)      4856.3  Rx     18FEE61C  8  58 06 0E 09 57 29 00 00 
  1147)      4856.8  Rx     19F8021C  8  09 FC 86 6C 00 00 FF FF 
  1148)      4869.9  Rx     18EF1C8F  8  0D E0 00 77 15 33 68 FC 
  1149)      4870.8  Rx     18EF1C8F  8  0D E1 16 00 23 00 84 03 
  1150)      4871.8  Rx     18EF1C8F  8  0D E2 16 00 0B 00 0C 00 
  1151)      4878.7  Rx     18EF1CCD  8  A2 00 00 00 00 00 00 00 
  1152)      4889.9  Rx     18EF1C8F  8  0D F0 00 95 63 33 67 FC 
  1153)      4890.8  Rx     18EF1C8F  8  0D F1 18 00 21 00 83 03 
  1154)      4891.8  Rx     18EF1C8F  8  0D F2 14 00 0B 00 0E 00 
  1155)      4898.7  Rx     18EF1CCD  8  A3 00 00 00 00 00 00 00 
  1156)      4904.7  Rx     19F8051C  8  20 2F 09 EE 50 66 B9 44 
  1157)      4905.3  Rx     19F8051C  8  21 1E 40 10 DF 54 C7 A6 
  1158)      4905.8  Rx     19F8051C  8  22 98 06 40 C6 AE 1E F4 
  1159)      4906.4  Rx     19F8051C  8  23 91 CB 02 FD 6E 41 08 
  1160)      4907.0  Rx     19F8051C  8  24 00 00 00 00 40 00 0D 
  1161)      4907.5  Rx     19F8051C  8  25 4E 00 85 00 FC 0F 00 
  1162)      4908.1  Rx     19F8051C  8  26 00 01 AF 02 20 03 FF 
  1163)      4909.9  Rx     18EF1C8F  8  0D 00 00 B7 B1 33 67 FC 
  1164)      4910.8  Rx     18EF1C8F  8  0D 01 15 00 23 00 81 03 
  1165)      4911.8  Rx     18EF1C8F  8  0D 02 15 00 0E 00 0E 00 
  1166)      4915.2  Rx     18EFCD1C  8  A1 01 00 00 00 00 00 00 
  1167)      4918.8  Rx     18EF1CCD  8  A1 40 00 00 00 00 00 00 
  1168)      4929.9  Rx     18EF1C8F  8  0D 10 00 D5 FF 33 67 FC 
  1169)      4930.8  Rx     18EF1C8F  8  0D 11 16 00 22 00 84 03 
  1170)      4931.8  Rx     18EF1C8F  8  0D 12 15 00 0B 00 0E 00 
  1171)      4935.1  Rx     18EFCD1C  8  A0 00 14 00 00 00 00 00 
  1172)      4935.8  Rx     18EF1CCD  8  A0 00 14 00 73 07 00 00 
  1173)      4949.9  Rx     18EF1C8F  8  0D 20 00 F7 4D 34 67 FC 
  1174)      4950.8  Rx     18EF1C8F  8  0D 21 15 00 22 00 82 03 
  1175)      4951.8  Rx     18EF1C8F  8  0D 22 15 00 0C 00 10 00 
  1176)      4953.8  Rx     18EFCD1C  8  A0 00 2A 00 00 00 00 00 
  1177)      4954.5  Rx     18EF1CCD  8  A0 00 2A 00 8C 05 00 00 
  1178)      4969.8  Rx     18EF1C8F  8  0D 30 00 15 9C 34 67 FC 
  1179)      4970.8  Rx     18EF1C8F  8  0D 31 16 00 22 00 82 03 
  1180)      4971.8  Rx     18EF1C8F  8  0D 32 15 00 0A 00 0F 00 
  1181)      4973.8  Rx     18EFCD1C  8  A0 00 1B 00 00 00 00 00 
  1182)      4974.4  Rx     18EF1CCD  8  A0 00 1B 00 00 00 00 00 
  1183)      4978.9  Rx     18EF1CCD  8  A2 00 00 00 00 00 00 00 
  1184)      4989.9  Rx     18EF1C8F  8  0D 40 00 37 EA 34 67 FC 
  1185)      4990.8  Rx     18EF1C8F  8  0D 41 15 00 24 00 82 03 
  1186)      4991.8  Rx     18EF1C8F  8  0D 42 15 00 0A 00 0E 00 
  1187)      4993.8  Rx     18EFCD1C  8  A0 00 00 00 00 00 00 00 
  1188)      4994.4  Rx     18EF1CCD  8  A0 00 00 00 01 00 00 00 
  1189)      4998.9  Rx     18EF1CCD  8  A3 00 00 00 00 00 00 00 
  1190)      5009.8  Rx     18EF1C8F  8  0D 50 00 55 38 35 67 FC 
  1191)      5010.8  Rx     18EF1C8F  8  0D 51 15 00 22 00 82 03 
  1192)      5011.7  Rx     18EF1C8F  8  0D 52 14 00 0A 00 0F 00 
  1193)      5018.9  Rx     18EF1CCD  8  A1 40 00 00 00 00 00 00 
  1194)      5029.9  Rx     18EF1C8F  8  0D 60 00 75 86 35 67 FC 
  1195)      5030.7  Rx     18EF1C8F  8  0D 61 15 00 23 00 83 03 
  1196)      5031.7  Rx     18EF1C8F  8  0D 62 14 00 0A 00 0D 00 
  1197)      5049.8  Rx     18EF1C8F  8  0D 70 00 95 D4 35 67 FC 
  1198)      5050.7  Rx     18EF1C8F  8  0D 71 15 00 21 00 84 03 
  1199)      5051.7  Rx     18EF1C8F  8  0D 72 13 00 0A 00 0F 00 
  1200)      5069.8  Rx     18EF1C8F  8  0D 80 00 B5 22 36 68 FC 
  1201)      5070.7  Rx     18EF1C8F  8  0D 81 15 00 21 00 85 03 
  1202)      5071.8  Rx     18EF1C8F  8  0D 82 15 00 0D 00 0C 00 
  1203)      5078.0  Rx     18EF8F1C  4  01 D6 30 00 
  1204)      5078.7  Rx     18EF1C8F  4  01 31 D6 00 
  1205)      5079.3  Rx     18EF1CCD  8  A2 00 00 00 00 00 00 00 
  1206)      5089.8  Rx     18EF1C8F  8  0D 90 00 D5 70 36 68 FC 
  1207)      5090.7  Rx     18EF1C8F  8  0D 91 16 00 23 00 84 03 
  1208)      5091.7  Rx     18EF1C8F  8  0D 92 16 00 0B 00 0E 00 
  1209)      5099.1  Rx     18EF1CCD  8  A3 00 00 00 00 00 00 00 
  1210)      5109.8  Rx     18EF1C8F  8  0D A0 00 F5 BE 36 67 FC 
  1211)      5110.7  Rx     18EF1C8F  8  0D A1 15 00 22 00 84 03 
  1212)      5111.7  Rx     18EF1C8F  8  0D A2 14 00 09 00 0E 00 
  1213)      5113.9  Rx     18EFCD1C  8  A1 01 00 00 00 00 00 00 
  1214)      5119.1  Rx     18EF1CCD  8  A1 40 00 00 00 00 00 00 
  1215)      5129.8  Rx     18EF1C8F  8  0D B0 00 15 0D 37 68 FC 
  1216)      5130.7  Rx     18EF1C8F  8  0D B1 16 00 21 00 85 03 
  1217)      5131.7  Rx     18EF1C8F  8  0D B2 13 00 0A 00 0D 00 
  1218)      5135.1  Rx     18EFCD1C  8  A0 00 14 00 00 00 00 00 
  1219)      5135.7  Rx     18EF1CCD  8  A0 00 14 00 73 07 00 00 
  1220)      5149.8  Rx     18EF1C8F  8  0D C0 00 37 5B 37 68 FC 
  1221)      5150.7  Rx     18EF1C8F  8  0D C1 17 00 22 00 84 03 
  1222)      5151.7  Rx     18EF1C8F  8  0D C2 14 00 09 00 0E 00 
  1223)      5154.7  Rx     18EFCD1C  8  A0 00 2A 00 00 00 00 00 
  1224)      5155.3  Rx     18EF1CCD  8  A0 00 2A 00 89 05 00 00 
  1225)      5169.8  Rx     18EF1C8F  8  0D D0 00 55 A9 37 67 FC 
  1226)      5170.7  Rx     18EF1C8F  8  0D D1 17 00 23 00 83 03 
  1227)      5171.7  Rx     18EF1C8F  8  0D D2 15 00 0D 00 0D 00 
  1228)      5173.7  Rx     18EFCD1C  8  A0 00 1B 00 00 00 00 00 
  1229)      5174.3  Rx     18EF1CCD  8  A0 00 1B 00 00 00 00 00 
  1230)      5179.2  Rx     18EF1CCD  8  A2 00 00 00 00 00 00 00 
  1231)      5189.8  Rx     18EF1C8F  8  0D E0 00 75 F7 37 67 FC 
  1232)      5190.7  Rx     18EF1C8F  8  0D E1 15 00 24 00 83 03 
  1233)      5191.7  Rx     18EF1C8F  8  0D E2 16 00 0B 00 0E 00 
  1234)      5193.8  Rx     18EFCD1C  8  A0 00 00 00 00 00 00 00 
  1235)      5194.4  Rx     18EF1CCD  8  A0 00 00 00 01 00 00 00 
  1236)      5199.3  Rx     18EF1CCD  8  A3 00 00 00 00 00 00 00 
  1237)      5209.8  Rx     18EF1C8F  8  0D F0 00 95 45 38 67 FC 
  1238)      5210.7  Rx     18EF1C8F  8  0D F1 17 00 22 00 82 03 
  1239)      5211.7  Rx     18EF1C8F  8  0D F2 14 00 0A 00 0D 00 
  1240)      5219.4  Rx     18EF1CCD  8  A1 40 00 00 00 00 00 00 
  1241)      5229.8  Rx     18EF1C8F  8  0D 00 00 B2 93 38 67 FC 
  1242)      5230.7  Rx     18EF1C8F  8  0D 01 16 00 22 00 83 03 
  1243)      5231.7  Rx     18EF1C8F  8  0D 02 16 00 07 00 0E 00 
  1244)      5249.8  Rx     18EF1C8F  8  0D 10 00 D5 E1 38 68 FC 
  1245)      5250.7  Rx     18EF1C8F  8  0D 11 16 00 20 00 82 03 
  1246)      5251.7  Rx     18EF1C8F  8  0D 12 15 00 06 00 0E 00 
  1247)      5269.8  Rx     18EF1C8F  8  0D 20 00 F5 2F 39 67 FC 
  1248)      5270.7  Rx     18EF1C8F  8  0D 21 18 00 22 00 82 03 
  1249)      5271.7  Rx     18EF1C8F  8  0D 22 16 00 0B 00 0F 00 
  1250)      5279.5  Rx     18EF1CCD  8  A2 00 00 00 00 00 00 00 
  1251)      5289.8  Rx     18EF1C8F  8  0D 30 00 15 7E 39 68 FC 
  1252)      5290.7  Rx     18EF1C8F  8  0D 31 16 00 21 00 83 03 
  1253)      5291.7  Rx     18EF1C8F  8  0D 32 15 00 09 00 0D 00 
  1254)      5299.5  Rx     18EF1CCD  8  A3 00 00 00 00 00 00 00 
  1255)      5309.8  Rx     18EF1C8F  8  0D 40 00 35 CC 39 67 FC 
  1256)      5310.7  Rx     18EF1C8F  8  0D 41 15 00 24 00 83 03 
  1257)      5311.7  Rx     18EF1C8F  8  0D 42 14 00 09 00 0E 00 
  1258)      5313.7  Rx     18EFCD1C  8  A1 01 00 00 00 00 00 00 
  1259)      5319.5  Rx     18EF1CCD  8  A1 40 00 00 00 00 00 00 
  1260)      5329.8  Rx     18EF1C8F  8  0D 50 00 55 1A 3A 68 FC 
  1261)      5330.7  Rx     18EF1C8F  8  0D 51 16 00 22 00 82 03 
  1262)      5331.7  Rx     18EF1C8F  8  0D 52 16 00 0A 00 0E 00 
  1263)      5333.9  Rx     18EFCD1C  8  A0 00 14 00 00 00 00 00 
  1264)      5334.6  Rx     18EF1CCD  8  A0 00 14 00 73 07 00 00 
  1265)      5349.8  Rx     18EF1C8F  8  0D 60 00 77 68 3A 68 FC 
  1266)      5350.7  Rx     18EF1C8F  8  0D 61 15 00 23 00 83 03 
  1267)      5351.7  Rx     18EF1C8F  8  0D 62 14 00 0B 00 0F 00 
  1268)      5355.3  Rx     18EFCD1C  8  A0 00 2A 00 00 00 00 00 
  1269)      5355.9  Rx     18EF1CCD  8  A0 00 2A 00 8B 05 00 00 
  1270)      5369.8  Rx     18EF1C8F  8  0D 70 00 95 B6 3A 68 FC 
  1271)      5370.7  Rx     18EF1C8F  8  0D 71 17 00 23 00 84 03 
  1272)      5371.7  Rx     18EF1C8F  8  0D 72 13 00 0B 00 0C 00 
  1273)      5373.7  Rx     18EFCD1C  8  A0 00 1B 00 00 00 00 00 
  1274)      5374.3  Rx     18EF1CCD  8  A0 00 1B 00 00 00 00 00 
  1275)      5379.7  Rx     18EF1CCD  8  A2 00 00 00 00 00 00 00 
  1276)      5389.8  Rx     18EF1C8F  8  0D 80 00 B5 04 3B 68 FC 
  1277)      5390.7  Rx     18EF1C8F  8  0D 81 18 00 21 00 83 03 
  1278)      5391.7  Rx     18EF1C8F  8  0D 82 14 00 09 00 0D 00 
  1279)      5393.7  Rx     18EFCD1C  8  A0 00 00 00 00 00 00 00 
  1280)      5394.3  Rx     18EF1CCD  8  A0 00 00 00 01 00 00 00 
  1281)      5399.8  Rx     18EF1CCD  8  A3 00 00 00 00 00 00 00 
  1282)      5409.8  Rx     18EF1C8F  8  0D 90 00 D5 52 3B 68 FC 
  1283)      5410.7  Rx     18EF1C8F  8  0D 91 16 00 23 00 82 03 
  1284)      5411.7  Rx     18EF1C8F  8  0D 92 16 00 0A 00 0D 00 
  1285)      5419.8  Rx     18EF1CCD  8  A1 40 00 00 00 00 00 00 
  1286)      5429.8  Rx     18EF1C8F  8  0D A0 00 F5 A0 3B 68 FC 
  1287)      5430.7  Rx     18EF1C8F  8  0D A1 16 00 22 00 82 03 
  1288)      5431.7  Rx     18EF1C8F  8  0D A2 14 00 09 00 0E 00 
  1289)      5449.8  Rx     18EF1C8F  8  0D B0 00 15 EF 3B 68 FC 
  1290)      5450.7  Rx     18EF1C8F  8  0D B1 16 00 24 00 83 03 
  1291)      5451.7  Rx     18EF1C8F  8  0D B2 13 00 0B 00 0F 00 
  1292)      5469.7  Rx     18EF1C8F  8  0D C0 00 35 3D 3C 68 FC 
  1293)      5470.7  Rx     18EF1C8F  8  0D C1 18 00 22 00 85 03 
  1294)      5471.7  Rx     18EF1C8F  8  0D C2 14 00 0B 00 0E 00 
  1295)      5479.9  Rx     18EF1CCD  8  A2 00 00 00 00 00 00 00 
  1296)      5489.8  Rx     18EF1C8F  8  0D D0 00 55 8B 3C 68 FC 
  1297)      5490.7  Rx     18EF1C8F  8  0D D1 15 00 22 00 83 03 
  1298)      5491.7  Rx     18EF1C8F  8  0D D2 16 00 0C 00 0D 00 
  1299)      5499.9  Rx     18EF1CCD  8  A3 00 00 00 00 00 00 00 
  1300)      5509.7  Rx     18EF1C8F  8  0D E0 00 75 D9 3C 68 FC 
  1301)      5510.6  Rx     18EF1C8F  8  0D E1 17 00 22 00 84 03 
  1302)      5511.7  Rx     18EF1C8F  8  0D E2 16 00 09 00 0D 00 
  1303)      5513.7  Rx     18EFCD1C  8  A1 01 00 00 00 00 00 00 
  1304)      5520.0  Rx     18EF1CCD  8  A1 40 00 00 00 00 00 00 
  1305)      5529.7  Rx     18EF1C8F  8  0D F0 00 95 27 3D 68 FC 
  1306)      5530.7  Rx     18EF1C8F  8  0D F1 17 00 23 00 83 03 
  1307)      5531.6  Rx     18EF1C8F  8  0D F2 14 00 0B 00 0C 00 
  1308)      5533.6  Rx     18EFCD1C  8  A0 00 14 00 00 00 00 00 
  1309)      5534.1  Rx     18EF1CCD  8  A0 00 14 00 74 07 00 00 
  1310)      5549.7  Rx     18EF1C8F  8  0D 00 00 B5 75 3D 68 FC 
  1311)      5550.6  Rx     18EF1C8F  8  0D 01 17 00 21 00 83 03 
  1312)      5551.7  Rx     18EF1C8F  8  0D 02 16 00 08 00 0F 00 
  1313)      5554.2  Rx     18EFCD1C  8  A0 00 2A 00 00 00 00 00 
  1314)      5554.8  Rx     18EF1CCD  8  A0 00 2A 00 8A 05 00 00 
  1315)      5569.7  Rx     18EF1C8F  8  0D 10 00 D5 C3 3D 68 FC 
  1316)      5570.6  Rx     18EF1C8F  8  0D 11 15 00 22 00 84 03 
  1317)      5571.7  Rx     18EF1C8F  8  0D 12 14 00 0A 00 0E 00 
  1318)      5580.1  Rx     18EF1CCD  8  A2 00 00 00 00 00 00 00 
  1319)      5582.6  Rx     18EFCD1C  8  A0 00 1B 00 00 00 00 00 
  1320)      5583.2  Rx     18EF1CCD  8  A0 00 1B 00 00 00 00 00 
  1321)      5589.7  Rx     18EF1C8F  8  0D 20 00 F5 11 3E 68 FC 
  1322)      5590.7  Rx     18EF1C8F  8  0D 21 17 00 21 00 83 03 
  1323)      5591.6  Rx     18EF1C8F  8  0D 22 14 00 0A 00 0F 00 
  1324)      5593.6  Rx     18EFCD1C  8  A0 00 00 00 00 00 00 00 
  1325)      5594.2  Rx     18EF1CCD  8  A0 00 00 00 01 00 00 00 
  1326)      5600.2  Rx     18EF1CCD  8  A3 00 00 00 00 00 00 00 
  1327)      5609.7  Rx     18EF1C8F  8  0D 30 00 15 60 3E 68 FC 
  1328)      5610.6  Rx     18EF1C8F  8  0D 31 16 00 21 00 82 03 
  1329)      5611.7  Rx     18EF1C8F  8  0D 32 14 00 0A 00 0E 00 
  1330)      5620.2  Rx     18EF1CCD  8  A1 40 00 00 00 00 00 00 
  1331)      5629.7  Rx     18EF1C8F  8  0D 40 00 35 AE 3E 68 FC 
  1332)      5630.7  Rx     18EF1C8F  8  0D 41 17 00 20 00 82 03 
  1333)      5631.6  Rx     18EF1C8F  8  0D 42 15 00 0B 00 0E 00 
  1334)      5649.7  Rx     18EF1C8F  8  0D 50 00 55 FC 3E 68 FC 
  1335)      5650.6  Rx     18EF1C8F  8  0D 51 15 00 23 00 82 03 
  1336)      5651.7  Rx     18EF1C8F  8  0D 52 14 00 0A 00 0C 00 
  1337)      5669.7  Rx     18EF1C8F  8  0D 60 00 75 4A 3F 68 FC 
  1338)      5670.7  Rx     18EF1C8F  8  0D 61 16 00 22 00 82 03 
  1339)      5671.6  Rx     18EF1C8F  8  0D 62 15 00 0B 00 0E 00 
  1340)      5680.3  Rx     18EF1CCD  8  A2 00 00 00 00 00 00 00 
  1341)      5689.7  Rx     18EF1C8F  8  0D 70 00 95 98 3F 68 FC 
  1342)      5690.6  Rx     18EF1C8F  8  0D 71 15 00 25 00 82 03 
  1343)      5691.7  Rx     18EF1C8F  8  0D 72 13 00 0B 00 0C 00 
  1344)      5700.3  Rx     18EF1CCD  8  A3 00 00 00 00 00 00 00 
  1345)      5709.8  Rx     18EF1C8F  8  0D 80 00 B5 E6 3F 68 FC 
  1346)      5710.7  Rx     18EF1C8F  8  0D 81 16 00 22 00 82 03 
  1347)      5711.6  Rx     18EF1C8F  8  0D 82 16 00 0B 00 0D 00 
  1348)      5713.7  Rx     18EFCD1C  8  A1 01 00 00 00 00 00 00 
  1349)      5720.4  Rx     18EF1CCD  8  A1 40 00 00 00 00 00 00 
  1350)      5729.7  Rx     18EF1C8F  8  0D 90 00 D5 34 40 68 FC 
  1351)      5730.6  Rx     18EF1C8F  8  0D 91 16 00 23 00 84 03 
  1352)      5731.7  Rx     18EF1C8F  8  0D 92 14 00 08 00 0D 00 
  1353)      5733.5  Rx     18EFCD1C  8  A0 00 14 00 00 00 00 00 
  1354)      5734.2  Rx     18EF1CCD  8  A0 00 14 00 73 07 00 00 
  1355)      5749.8  Rx     18EF1C8F  8  0D A0 00 F5 82 40 68 FC 
  1356)      5750.7  Rx     18EF1C8F  8  0D A1 16 00 23 00 83 03 
  1357)      5751.7  Rx     18EF1C8F  8  0D A2 14 00 09 00 0E 00 
  1358)      5753.8  Rx     18EFCD1C  8  A0 00 2A 00 00 00 00 00 
  1359)      5754.5  Rx     18EF1CCD  8  A0 00 2A 00 87 05 00 00 
  1360)      5769.7  Rx     18EF1C8F  8  0D B0 00 15 D1 40 68 FC 
  1361)      5770.7  Rx     18EF1C8F  8  0D B1 17 00 24 00 82 03 
  1362)      5771.6  Rx     18EF1C8F  8  0D B2 15 00 0B 00 0F 00 
  1363)      5774.5  Rx     18EFCD1C  8  A0 00 1B 00 00 00 00 00 
  1364)      5775.1  Rx     18EF1CCD  8  A0 00 1B 00 00 00 00 00 
  1365)      5780.6  Rx     18EF1CCD  8  A2 00 00 00 00 00 00 00 
  1366)      5789.8  Rx     18EF1C8F  8  0D C0 00 37 1F 41 68 FC 
  1367)      5790.6  Rx     18EF1C8F  8  0D C1 14 00 23 00 83 03 
  1368)      5791.7  Rx     18EF1C8F  8  0D C2 15 00 09 00 0E 00 
  1369)      5795.1  Rx     18EFCD1C  8  A0 00 00 00 00 00 00 00 
  1370)      5795.8  Rx     18EF1CCD  8  A0 00 00 00 01 00 00 00 
  1371)      5800.6  Rx     18EF1CCD  8  A3 00 00 00 00 00 00 00 
  1372)      5809.7  Rx     18EF1C8F  8  0D D0 00 55 6D 41 68 FC 
  1373)      5810.7  Rx     18EF1C8F  8  0D D1 15 00 22 00 84 03 
  1374)      5811.6  Rx     18EF1C8F  8  0D D2 15 00 09 00 0C 00 
  1375)      5820.6  Rx     18EF1CCD  8  A1 40 00 00 00 00 00 00 
  1376)      5829.8  Rx     18EF1C8F  8  0D E0 00 75 BB 41 68 FC 
  1377)      5830.6  Rx     18EF1C8F  8  0D E1 17 00 22 00 82 03 
  1378)      5831.7  Rx     18EF1C8F  8  0D E2 15 00 0B 00 0F 00 
  1379)      5849.8  Rx     18EF1C8F  8  0D F0 00 95 09 42 67 FC 
  1380)      5850.7  Rx     18EF1C8F  8  0D F1 16 00 22 00 83 03 
  1381)      5851.7  Rx     18EF1C8F  8  0D F2 14 00 0A 00 0D 00 
  1382)      5855.0  Rx     18FEF31C  8  EF 28 80 99 AD CE 2C 89 
  1383)      5855.5  Rx     18FEE81C  8  97 4F 01 00 00 00 2C 51 
  1384)      5856.1  Rx     18FEE61C  8  5C 06 0E 09 57 29 00 00 
  1385)      5856.6  Rx     19F8021C  8  0E FC 86 6C 00 00 FF FF 
  1386)      5869.7  Rx     18EF1C8F  8  0D 00 00 B7 57 42 68 FC 
  1387)      5870.7  Rx     18EF1C8F  8  0D 01 18 00 21 00 84 03 
  1388)      5871.7  Rx     18EF1C8F  8  0D 02 14 00 09 00 0E 00 
  1389)      5880.8  Rx     18EF1CCD  8  A2 00 00 00 00 00 00 00 
  1390)      5889.7  Rx     18EF1C8F  8  0D 10 00 D7 A5 42 68 FC 
  1391)      5890.7  Rx     18EF1C8F  8  0D 11 16 00 23 00 83 03 
  1392)      5891.7  Rx     18EF1C8F  8  0D 12 15 00 0A 00 0D 00 
  1393)      5900.8  Rx     18EF1CCD  8  A3 00 00 00 00 00 00 00 
  1394)      5906.3  Rx     19F8051C  8  40 2F 0E EE 50 76 E0 44 
  1395)      5906.8  Rx     19F8051C  8  41 1E 40 07 BA 50 C7 A6 
  1396)      5907.4  Rx     19F8051C  8  42 98 06 C0 B7 EA 0A F4 
  1397)      5908.0  Rx     19F8051C  8  43 91 CB 02 E9 68 41 08 
  1398)      5908.6  Rx     19F8051C  8  44 00 00 00 00 40 00 0D 
  1399)      5909.1  Rx     19F8051C  8  45 4E 00 85 00 FC 0F 00 
  1400)      5909.7  Rx     19F8051C  8  46 00 01 AF 02 84 03 FF 
  1401)      5910.2  Rx     18EF1C8F  8  0D 20 00 F7 F3 42 68 FC 
  1402)      5910.8  Rx     18EF1C8F  8  0D 21 16 00 20 00 82 03 
  1403)      5911.7  Rx     18EF1C8F  8  0D 22 15 00 0A 00 0F 00 
  1404)      5913.7  Rx     18EFCD1C  8  A1 01 00 00 00 00 00 00 
  1405)      5920.9  Rx     18EF1CCD  8  A1 40 00 00 00 00 00 00 
  1406)      5929.8  Rx     18EF1C8F  8  0D 30 00 17 42 43 68 FC 
  1407)      5930.7  Rx     18EF1C8F  8  0D 31 15 00 22 00 81 03 
  1408)      5931.7  Rx     18EF1C8F  8  0D 32 14 00 0A 00 10 00 
  1409)      5933.6  Rx     18EFCD1C  8  A0 00 14 00 00 00 00 00 
  1410)      5934.0  Rx     18EFCD1C  4  01 83 34 00 
  1411)      5934.5  Rx     18EF1CCD  8  A0 00 14 00 73 07 00 00 
  1412)      5935.0  Rx     18EF1CCD  4  01 35 83 00 
  1413)      5949.7  Rx     18EF1C8F  8  0D 40 00 37 90 43 68 FC 
  1414)      5950.7  Rx     18EF1C8F  8  0D 41 15 00 22 00 84 03 
  1415)      5951.7  Rx     18EF1C8F  8  0D 42 14 00 0C 00 0E 00 
  1416)      5953.6  Rx     18EFCD1C  8  A0 00 2A 00 00 00 00 00 
  1417)      5954.2  Rx     18EF1CCD  8  A0 00 2A 00 8C 05 00 00 
  1418)      5969.8  Rx     18EF1C8F  8  0D 50 00 55 DE 43 68 FC 
  1419)      5970.7  Rx     18EF1C8F  8  0D 51 16 00 22 00 84 03 
  1420)      5971.7  Rx     18EF1C8F  8  0D 52 15 00 0A 00 0D 00 
  1421)      5973.8  Rx     18EFCD1C  8  A0 00 1B 00 00 00 00 00 
  1422)      5974.5  Rx     18EF1CCD  8  A0 00 1B 00 00 00 00 00 
  1423)      5981.0  Rx     18EF1CCD  8  A2 00 00 00 00 00 00 00 
  1424)      5989.7  Rx     18EF1C8F  8  0D 60 00 75 2C 44 68 FC 
  1425)      5990.7  Rx     18EF1C8F  8  0D 61 17 00 21 00 83 03 
  1426)      5991.7  Rx     18EF1C8F  8  0D 62 16 00 0A 00 0E 00 
  1427)      5994.7  Rx     18EFCD1C  8  A0 00 00 00 00 00 00 00 
  1428)      5995.3  Rx     18EF1CCD  8  A0 00 00 00 01 00 00 00 
  1429)      6001.0  Rx     18EF1CCD  8  A3 00 00 00 00 00 00 00 
  1430)      6009.8  Rx     18EF1C8F  8  0D 70 00 97 7A 44 68 FC 
  1431)      6010.7  Rx     18EF1C8F  8  0D 71 17 00 21 00 81 03 
  1432)      6011.7  Rx     18EF1C8F  8  0D 72 14 00 0A 00 0D 00 
  1433)      6021.0  Rx     18EF1CCD  8  A1 40 00 00 00 00 00 00 
  1434)      6029.7  Rx     18EF1C8F  8  0D 80 00 B5 C8 44 68 FC 
  1435)      6030.7  Rx     18EF1C8F  8  0D 81 17 00 23 00 84 03 
  1436)      6031.7  Rx     18EF1C8F  8  0D 82 14 00 09 00 0E 00 
  1437)      6049.8  Rx     18EF1C8F  8  0D 90 00 D5 16 45 68 FC 
  1438)      6050.7  Rx     18EF1C8F  8  0D 91 16 00 23 00 83 03 
  1439)      6051.7  Rx     18EF1C8F  8  0D 92 14 00 09 00 0D 00 
  1440)      6069.8  Rx     18EF1C8F  8  0D A0 00 F5 64 45 68 FC 
  1441)      6070.7  Rx     18EF1C8F  8  0D A1 15 00 21 00 84 03 
  1442)      6071.7  Rx     18EF1C8F  8  0D A2 15 00 0A 00 0A 00 
  1443)      6081.2  Rx     18EF1CCD  8  A2 00 00 00 00 00 00 00 
  1444)      6089.8  Rx     18EF1C8F  8  0D B0 00 15 B3 45 68 FC 
  1445)      6090.7  Rx     18EF1C8F  8  0D B1 16 00 22 00 83 03 
  1446)      6091.7  Rx     18EF1C8F  8  0D B2 16 00 0B 00 0D 00 
  1447)      6101.3  Rx     18EF1CCD  8  A3 00 00 00 00 00 00 00 
  1448)      6109.8  Rx     18EF1C8F  8  0D C0 00 35 01 46 68 FC 
  1449)      6110.7  Rx     18EF1C8F  8  0D C1 16 00 21 00 81 03 
  1450)      6111.7  Rx     18EF1C8F  8  0D C2 16 00 0B 00 10 00 
  1451)      6113.8  Rx     18EFCD1C  8  A1 01 00 00 00 00 00 00 
  1452)      6121.3  Rx     18EF1CCD  8  A1 40 00 00 00 00 00 00 
  1453)      6129.8  Rx     18EF1C8F  8  0D D0 00 55 4F 46 68 FC 
  1454)      6130.7  Rx     18EF1C8F  8  0D D1 17 00 23 00 82 03 
  1455)      6131.7  Rx     18EF1C8F  8  0D D2 14 00 0C 00 10 00 
  1456)      6133.6  Rx     18EFCD1C  8  A0 00 14 00 00 00 00 00 
  1457)      6134.4  Rx     18EF1CCD  8  A0 00 14 00 73 07 00 00 
  1458)      6149.8  Rx     18EF1C8F  8  0D E0 00 75 9D 46 68 FC 
  1459)      6150.7  Rx     18EF1C8F  8  0D E1 18 00 22 00 82 03 
  1460)      6151.7  Rx     18EF1C8F  8  0D E2 15 00 0B 00 0F 00 
  1461)      6153.7  Rx     18EFCD1C  8  A0 00 2A 00 00 00 00 00 
  1462)      6154.4  Rx     18EF1CCD  8  A0 00 2A 00 89 05 00 00 
  1463)      6169.8  Rx     18EF1C8F  8  0D F0 00 95 EB 46 68 FC 
  1464)      6170.7  Rx     18EF1C8F  8  0D F1 18 00 25 00 84 03 
  1465)      6171.7  Rx     18EF1C8F  8  0D F2 15 00 0B 00 0E 00 
  1466)      6173.6  Rx     18EFCD1C  8  A0 00 1B 00 00 00 00 00 
  1467)      6174.2  Rx     18EF1CCD  8  A0 00 1B 00 00 00 00 00 
  1468)      6181.4  Rx     18EF1CCD  8  A2 00 00 00 00 00 00 00 
  1469)      6189.8  Rx     18EF1C8F  8  0D 00 00 B5 39 47 68 FC 
  1470)      6190.7  Rx     18EF1C8F  8  0D 01 14 00 23 00 82 03 
  1471)      6191.7  Rx     18EF1C8F  8  0D 02 14 00 0B 00 0E 00 
  1472)      6193.9  Rx     18EFCD1C  8  A0 00 00 00 00 00 00 00 
  1473)      6194.6  Rx     18EF1CCD  8  A0 00 00 00 01 00 00 00 
  1474)      6201.5  Rx     18EF1CCD  8  A3 00 00 00 00 00 00 00 
  1475)      6209.7  Rx     18EF1C8F  8  0D 10 00 D7 87 47 68 FC 
  1476)      6210.7  Rx     18EF1C8F  8  0D 11 17 00 23 00 83 03 
  1477)      6211.7  Rx     18EF1C8F  8  0D 12 14 00 0B 00 0E 00 
  1478)      6221.5  Rx     18EF1CCD  8  A1 40 00 00 00 00 00 00 
  1479)      6229.8  Rx     18EF1C8F  8  0D 20 00 F5 D5 47 68 FC 
  1480)      6230.7  Rx     18EF1C8F  8  0D 21 16 00 22 00 81 03 
  1481)      6231.7  Rx     18EF1C8F  8  0D 22 14 00 0A 00 0D 00 
  1482)      6249.7  Rx     18EF1C8F  8  0D 30 00 12 24 48 68 FC 
  1483)      6250.7  Rx     18EF1C8F  8  0D 31 15 00 22 00 84 03 
  1484)      6251.7  Rx     18EF1C8F  8  0D 32 13 00 09 00 0C 00 
  1485)      6269.8  Rx     18EF1C8F  8  0D 40 00 35 72 48 68 FC 
  1486)      6270.7  Rx     18EF1C8F  8  0D 41 16 00 23 00 84 03 
  1487)      6271.7  Rx     18EF1C8F  8  0D 42 16 00 0A 00 10 00 
  1488)      6281.7  Rx     18EF1CCD  8  A2 00 00 00 00 00 00 00 
  1489)      6289.7  Rx     18EF1C8F  8  0D 50 00 55 C0 48 68 FC 
  1490)      6290.7  Rx     18EF1C8F  8  0D 51 15 00 23 00 84 03 
  1491)      6291.7  Rx     18EF1C8F  8  0D 52 14 00 0C 00 11 00 
  1492)      6301.7  Rx     18EF1CCD  8  A3 00 00 00 00 00 00 00 
  1493)      6309.8  Rx     18EF1C8F  8  0D 60 00 75 0E 49 68 FC 
  1494)      6310.7  Rx     18EF1C8F  8  0D 61 18 00 21 00 83 03 
  1495)      6311.7  Rx     18EF1C8F  8  0D 62 14 00 0B 00 0E 00 
  1496)      6313.6  Rx     18EFCD1C  8  A1 01 00 00 00 00 00 00 
  1497)      6321.7  Rx     18EF1CCD  8  A1 40 00 00 00 00 00 00 
  1498)      6329.7  Rx     18EF1C8F  8  0D 70 00 97 5C 49 68 FC 
  1499)      6330.7  Rx     18EF1C8F  8  0D 71 16 00 23 00 82 03 
  1500)      6331.7  Rx     18EF1C8F  8  0D 72 16 00 09 00 0D 00 
  1501)      6333.6  Rx     18EFCD1C  8  A0 00 14 00 00 00 00 00 
  1502)      6334.3  Rx     18EF1CCD  8  A0 00 14 00 73 07 00 00 
  1503)      6349.8  Rx     18EF1C8F  8  0D 80 00 B5 AA 49 68 FC 
  1504)      6350.7  Rx     18EF1C8F  8  0D 81 15 00 23 00 82 03 
  1505)      6351.7  Rx     18EF1C8F  8  0D 82 15 00 0B 00 0E 00 
  1506)      6353.6  Rx     18EFCD1C  8  A0 00 2A 00 00 00 00 00 
  1507)      6354.2  Rx     18EF1CCD  8  A0 00 2A 00 8B 05 00 00 
  1508)      6369.7  Rx     18EF1C8F  8  0D 90 00 D5 F8 49 68 FC 
  1509)      6370.6  Rx     18EF1C8F  8  0D 91 17 00 22 00 84 03 
  1510)      6371.7  Rx     18EF1C8F  8  0D 92 15 00 0B 00 0D 00 
