;$FILEVERSION=1.1
;$STARTTIME=46287.6719433681
;
;   Start time: 9/22/2026 16:07:35.907.0
;   Generated by PCAN-View v5.3.3.958
;
;   Message Number
;   |         Time Offset (ms)
;   |         |        Type
;   |         |        |        ID (hex)
;   |         |        |        |     Data Length
;   |         |        |        |     |   Data Bytes (hex) ...
;   |         |        |        |     |   |
;---+--   ----+----  --+--  ----+---  +  -+ -- -- -- -- -- -- --
     1)         7.0  Rx     18EF1C8F  8  0D 80 00 B5 6A 8F 78 FC 
     2)         8.0  Rx     18EF1C8F  8  0D 81 16 00 24 00 84 03 
     3)         9.0  Rx     18EF1C8F  8  0D 82 15 00 0A 00 0E 00 
     4)        14.8  Rx     18EF1CCD  8  A2 00 00 00 00 00 00 00 
     5)        27.1  Rx     18EF1C8F  8  0D 90 00 D5 B8 8F 78 FC 
     6)        28.0  Rx     18EF1C8F  8  0D 91 16 00 23 00 83 03 
     7)        29.0  Rx     18EF1C8F  8  0D 92 14 00 0A 00 0F 00 
     8)        34.8  Rx     18EF1CCD  8  A3 00 00 00 00 FB FF FB 
     9)        47.1  Rx     18EF1C8F  8  0D A0 00 F5 06 90 78 FC 
    10)        48.0  Rx     18EF1C8F  8  0D A1 18 00 23 00 84 03 
    11)        49.0  Rx     18EF1C8F  8  0D A2 13 00 0A 00 0E 00 
    12)        54.9  Rx     18EF1CCD  8  A1 40 FB FF FF FF 00 00 
    13)        67.1  Rx     18EF1C8F  8  0D B0 00 15 55 90 78 FC 
    14)        68.0  Rx     18EF1C8F  8  0D B1 18 00 23 00 83 03 
    15)        69.0  Rx     18EF1C8F  8  0D B2 14 00 0B 00 0E 00 
    16)        87.1  Rx     18EF1C8F  8  0D C0 00 35 A3 90 77 FC 
    17)        88.0  Rx     18EF1C8F  8  0D C1 17 00 22 00 83 03 
    18)        89.0  Rx     18EF1C8F  8  0D C2 14 00 0B 00 0F 00 
    19)        90.5  Rx     18EFCD1C  8  A1 01 00 00 FB FF FF FF 
    20)       107.1  Rx     18EF1C8F  8  0D D0 00 55 F1 90 77 FC 
    21)       108.0  Rx     18EF1C8F  8  0D D1 18 00 24 00 84 03 
    22)       108.9  Rx     18EFCD1C  8  A0 00 14 00 00 00 00 00 
    23)       109.4  Rx     18EF1C8F  8  0D D2 13 00 0D 00 0F 00 
    24)       110.0  Rx     18EF1CCD  8  A0 00 14 00 74 07 00 00 
    25)       115.0  Rx     18EF1CCD  8  A2 00 00 00 00 00 00 00 
    26)       127.1  Rx     18EF1C8F  8  0D E0 00 77 3F 91 78 FC 
    27)       128.0  Rx     18EF1C8F  8  0D E1 16 00 23 00 82 03 
    28)       129.0  Rx     18EFCD1C  8  A0 00 2A 00 00 00 00 00 
    29)       129.5  Rx     18EF1C8F  8  0D E2 14 00 0E 00 0F 00 
    30)       130.1  Rx     18EF1CCD  8  A0 00 2A 00 83 05 00 00 
    31)       135.1  Rx     18EF1CCD  8  A3 00 00 00 00 FB FF FB 
    32)       147.1  Rx     18EF1C8F  8  0D F0 00 97 8D 91 78 FC 
    33)       148.0  Rx     18EF1C8F  8  0D F1 16 00 22 00 81 03 
    34)       148.9  Rx     18EFCD1C  8  A0 00 1B 00 00 00 00 00 
    35)       149.4  Rx     18EF1C8F  8  0D F2 15 00 0B 00 0E 00 
    36)       150.0  Rx     18EF1CCD  8  A0 00 1B 00 00 00 00 00 
    37)       155.1  Rx     18EF1CCD  8  A1 40 FB FF FF FF 00 00 
    38)       167.1  Rx     18EF1C8F  8  0D 00 00 B5 DB 91 78 FC 
    39)       168.0  Rx     18EF1C8F  8  0D 01 16 00 21 00 82 03 
    40)       168.9  Rx     18EFCD1C  8  A0 00 00 00 00 00 00 00 
    41)       169.4  Rx     18EF1C8F  8  0D 02 15 00 0B 00 0E 00 
    42)       170.0  Rx     18EF1CCD  8  A0 00 00 00 01 00 00 00 
    43)       187.1  Rx     18EF1C8F  8  0D 10 00 D7 29 92 77 FC 
    44)       188.0  Rx     18EF1C8F  8  0D 11 15 00 24 00 81 03 
    45)       189.0  Rx     18EF1C8F  8  0D 12 13 00 0A 00 0E 00 
    46)       207.1  Rx     18EF1C8F  8  0D 20 00 F5 77 92 78 FC 
    47)       208.0  Rx     18EF1C8F  8  0D 21 15 00 22 00 83 03 
    48)       209.0  Rx     18EF1C8F  8  0D 22 14 00 0B 00 0F 00 
    49)       215.3  Rx     18EF1CCD  8  A2 00 00 00 00 00 00 00 
    50)       227.1  Rx     18EF1C8F  8  0D 30 00 12 C6 92 77 FC 
    51)       228.0  Rx     18EF1C8F  8  0D 31 17 00 23 00 84 03 
    52)       229.0  Rx     18EF1C8F  8  0D 32 14 00 0C 00 0E 00 
    53)       235.3  Rx     18EF1CCD  8  A3 00 00 00 00 FB FF FB 
    54)       247.1  Rx     18EF1C8F  8  0D 40 00 37 14 93 78 FC 
    55)       248.0  Rx     18EF1C8F  8  0D 41 16 00 22 00 84 03 
    56)       249.0  Rx     18EF1C8F  8  0D 42 15 00 0A 00 0F 00 
    57)       255.4  Rx     18EF1CCD  8  A1 40 FB FF FF FF 00 00 
    58)       267.1  Rx     18EF1C8F  8  0D 50 00 55 62 93 78 FC 
    59)       268.0  Rx     18EF1C8F  8  0D 51 14 00 22 00 82 03 
    60)       269.0  Rx     18EF1C8F  8  0D 52 12 00 0A 00 0D 00 
    61)       287.1  Rx     18EF1C8F  8  0D 60 00 72 B0 93 77 FC 
    62)       288.0  Rx     18EF1C8F  8  0D 61 16 00 23 00 84 03 
    63)       289.0  Rx     18EF1C8F  8  0D 62 16 00 0B 00 0D 00 
    64)       290.3  Rx     18EFCD1C  8  A1 01 00 00 FB FF FF FF 
    65)       307.1  Rx     18EF1C8F  8  0D 70 00 95 FE 93 78 FC 
    66)       308.0  Rx     18EF1C8F  8  0D 71 15 00 20 00 83 03 
    67)       309.0  Rx     18EF1C8F  8  0D 72 16 00 0B 00 0F 00 
    68)       310.6  Rx     18EFCD1C  8  A0 00 14 00 00 00 00 00 
    69)       311.3  Rx     18EF1CCD  8  A0 00 14 00 75 07 00 00 
    70)       315.5  Rx     18EF1CCD  8  A2 00 00 00 00 00 00 00 
    71)       327.1  Rx     18EF1C8F  8  0D 80 00 B7 4C 94 78 FC 
    72)       328.0  Rx     18EF1C8F  8  0D 81 15 00 22 00 84 03 
    73)       329.0  Rx     18EFCD1C  8  A0 00 2A 00 00 00 00 00 
    74)       329.6  Rx     18EF1C8F  8  0D 82 14 00 0A 00 0E 00 
    75)       330.1  Rx     18EF1CCD  8  A0 00 2A 00 84 05 00 00 
    76)       335.6  Rx     18EF1CCD  8  A3 00 00 00 00 FB FF FB 
    77)       347.1  Rx     18EF1C8F  8  0D 90 00 D5 9A 94 77 FC 
    78)       348.0  Rx     18EF1C8F  8  0D 91 14 00 22 00 83 03 
    79)       348.9  Rx     18EFCD1C  8  A0 00 1B 00 00 00 00 00 
    80)       349.5  Rx     18EF1C8F  8  0D 92 16 00 09 00 0D 00 
    81)       350.0  Rx     18EF1CCD  8  A0 00 1B 00 00 00 00 00 
    82)       355.6  Rx     18EF1CCD  8  A1 40 FB FF FF FF 00 00 
    83)       367.1  Rx     18EF1C8F  8  0D A0 00 F5 E8 94 78 FC 
    84)       368.1  Rx     18EF1C8F  8  0D A1 14 00 22 00 82 03 
    85)       368.9  Rx     18EFCD1C  8  A0 00 00 00 00 00 00 00 
    86)       369.5  Rx     18EF1C8F  8  0D A2 13 00 0B 00 0D 00 
    87)       370.0  Rx     18EF1CCD  8  A0 00 00 00 01 00 00 00 
    88)       387.2  Rx     18EF1C8F  8  0D B0 00 17 37 95 78 FC 
    89)       388.0  Rx     18EF1C8F  8  0D B1 16 00 22 00 82 03 
    90)       389.1  Rx     18EF1C8F  8  0D B2 15 00 0A 00 0E 00 
    91)       407.1  Rx     18EF1C8F  8  0D C0 00 35 85 95 78 FC 
    92)       408.1  Rx     18EF1C8F  8  0D C1 16 00 23 00 82 03 
    93)       409.1  Rx     18EF1C8F  8  0D C2 15 00 08 00 0F 00 
    94)       415.8  Rx     18EF1CCD  8  A2 00 00 00 00 00 00 00 
    95)       427.2  Rx     18EF1C8F  8  0D D0 00 55 D3 95 77 FC 
    96)       428.1  Rx     18EF1C8F  8  0D D1 15 00 22 00 83 03 
    97)       429.1  Rx     18EF1C8F  8  0D D2 15 00 09 00 0D 00 
    98)       435.8  Rx     18EF1CCD  8  A3 00 00 00 00 FB FF FB 
    99)       447.2  Rx     18EF1C8F  8  0D E0 00 72 21 96 78 FC 
   100)       448.1  Rx     18EF1C8F  8  0D E1 15 00 22 00 83 03 
   101)       449.1  Rx     18EF1C8F  8  0D E2 14 00 02 00 0E 00 
   102)       453.2  Rx     18EFCD1C  4  01 A7 58 00 
   103)       453.7  Rx     18EF1CCD  4  01 59 A7 00 
   104)       455.8  Rx     18EF1CCD  8  A1 40 FB FF FF FF 00 00 
   105)       467.2  Rx     18EF1C8F  8  0D F0 00 95 6F 96 78 FC 
   106)       468.1  Rx     18EF1C8F  8  0D F1 15 00 23 00 83 03 
   107)       469.1  Rx     18EF1C8F  8  0D F2 16 00 04 00 0E 00 
   108)       487.2  Rx     18EF1C8F  8  0D 00 00 B5 BD 96 78 FC 
   109)       488.1  Rx     18EF1C8F  8  0D 01 14 00 24 00 84 03 
   110)       489.1  Rx     18EF1C8F  8  0D 02 13 00 0D 00 0D 00 
   111)       489.7  Rx     18EFCD1C  8  A1 01 00 00 FB FF FF FF 
   112)       507.2  Rx     18EF1C8F  8  0D 10 00 D5 0B 97 78 FC 
   113)       508.1  Rx     18EF1C8F  8  0D 11 17 00 22 00 82 03 
   114)       509.1  Rx     18EF1C8F  8  0D 12 12 00 10 00 0E 00 
   115)       510.1  Rx     18EFCD1C  8  A0 00 14 00 00 00 00 00 
   116)       510.8  Rx     18EF1CCD  8  A0 00 14 00 74 07 00 00 
   117)       516.0  Rx     18EF1CCD  8  A2 00 00 00 00 00 00 00 
   118)       527.2  Rx     18EF1C8F  8  0D 20 00 F7 59 97 78 FC 
   119)       528.1  Rx     18EF1C8F  8  0D 21 15 00 24 00 83 03 
   120)       529.1  Rx     18EF1C8F  8  0D 22 15 00 0D 00 10 00 
   121)       530.8  Rx     18EFCD1C  8  A0 00 2A 00 00 00 00 00 
   122)       531.4  Rx     18EF1CCD  8  A0 00 2A 00 82 05 00 00 
   123)       536.1  Rx     18EF1CCD  8  A3 00 00 00 00 FB FF FB 
   124)       547.2  Rx     18EF1C8F  8  0D 30 00 15 A8 97 78 FC 
   125)       548.1  Rx     18EF1C8F  8  0D 31 17 00 22 00 84 03 
   126)       549.0  Rx     18EFCD1C  8  A0 00 1B 00 00 00 00 00 
   127)       549.5  Rx     18EF1C8F  8  0D 32 16 00 0B 00 0F 00 
   128)       550.1  Rx     18EF1CCD  8  A0 00 1B 00 00 00 00 00 
   129)       556.1  Rx     18EF1CCD  8  A1 40 FB FF FF FF 00 00 
   130)       567.2  Rx     18EF1C8F  8  0D 40 00 35 F6 97 78 FC 
   131)       568.1  Rx     18EF1C8F  8  0D 41 16 00 21 00 83 03 
   132)       569.0  Rx     18EFCD1C  8  A0 00 00 00 00 00 00 00 
   133)       569.5  Rx     18EF1C8F  8  0D 42 14 00 06 00 0F 00 
   134)       570.1  Rx     18EF1CCD  8  A0 00 00 00 01 00 00 00 
   135)       587.2  Rx     18EF1C8F  8  0D 50 00 57 44 98 78 FC 
   136)       588.1  Rx     18EF1C8F  8  0D 51 18 00 23 00 83 03 
   137)       589.1  Rx     18EF1C8F  8  0D 52 15 00 03 00 0F 00 
   138)       607.2  Rx     18EF1C8F  8  0D 60 00 75 92 98 78 FC 
   139)       608.1  Rx     18EF1C8F  8  0D 61 18 00 23 00 83 03 
   140)       609.1  Rx     18EF1C8F  8  0D 62 15 00 09 00 0E 00 
   141)       616.3  Rx     18EF1CCD  8  A2 00 00 00 00 00 00 00 
   142)       627.2  Rx     18EF1C8F  8  0D 70 00 95 E0 98 78 FC 
   143)       628.1  Rx     18EF1C8F  8  0D 71 17 00 23 00 85 03 
   144)       629.1  Rx     18EF1C8F  8  0D 72 15 00 0C 00 0D 00 
   145)       636.3  Rx     18EF1CCD  8  A3 00 00 00 00 FB FF FB 
   146)       647.2  Rx     18EF1C8F  8  0D 80 00 B5 2E 99 78 FC 
   147)       648.1  Rx     18EF1C8F  8  0D 81 15 00 22 00 84 03 
   148)       649.2  Rx     18EF1C8F  8  0D 82 16 00 0B 00 0D 00 
   149)       656.4  Rx     18EF1CCD  8  A1 40 FB FF FF FF 00 00 
   150)       667.2  Rx     18EF1C8F  8  0D 90 00 D5 7C 99 78 FC 
   151)       668.2  Rx     18EF1C8F  8  0D 91 19 00 21 00 83 03 
   152)       669.1  Rx     18EF1C8F  8  0D 92 15 00 09 00 0F 00 
   153)       687.2  Rx     18EF1C8F  8  0D A0 00 F5 CA 99 78 FC 
   154)       688.1  Rx     18EF1C8F  8  0D A1 17 00 23 00 83 03 
   155)       689.2  Rx     18EF1C8F  8  0D A2 15 00 0C 00 10 00 
   156)       689.7  Rx     18EFCD1C  8  A1 01 00 00 FB FF FF FF 
   157)       707.2  Rx     18EF1C8F  8  0D B0 00 15 19 9A 78 FC 
   158)       708.2  Rx     18EF1C8F  8  0D B1 16 00 24 00 83 03 
   159)       709.1  Rx     18EF1C8F  8  0D B2 16 00 0A 00 0C 00 
   160)       709.7  Rx     18EFCD1C  8  A0 00 14 00 00 00 00 00 
   161)       710.4  Rx     18EF1CCD  8  A0 00 14 00 75 07 00 00 
   162)       716.5  Rx     18EF1CCD  8  A2 00 00 00 00 00 00 00 
   163)       727.2  Rx     18EF1C8F  8  0D C0 00 37 67 9A 78 FC 
   164)       728.1  Rx     18EF1C8F  8  0D C1 18 00 23 00 83 03 
   165)       729.2  Rx     18EF1C8F  8  0D C2 12 00 0A 00 0E 00 
   166)       730.5  Rx     18EFCD1C  8  A0 00 2A 00 00 00 00 00 
   167)       731.1  Rx     18EF1CCD  8  A0 00 2A 00 83 05 00 00 
   168)       736.5  Rx     18EF1CCD  8  A3 00 00 00 00 FB FF FB 
   169)       747.2  Rx     18EF1C8F  8  0D D0 00 55 B5 9A 78 FC 
   170)       748.2  Rx     18EF1C8F  8  0D D1 16 00 22 00 83 03 
   171)       749.1  Rx     18EF1C8F  8  0D D2 15 00 0B 00 0A 00 
   172)       750.5  Rx     18EFCD1C  8  A0 00 1B 00 00 00 00 00 
   173)       751.1  Rx     18EF1CCD  8  A0 00 1B 00 00 00 00 00 
   174)       756.5  Rx     18EF1CCD  8  A1 40 FB FF FF FF 00 00 
   175)       767.2  Rx     18EF1C8F  8  0D E0 00 77 03 9B 77 FC 
   176)       768.1  Rx     18EF1C8F  8  0D E1 17 00 23 00 83 03 
   177)       769.0  Rx     18EFCD1C  8  A0 00 00 00 00 00 00 00 
   178)       769.5  Rx     18EF1C8F  8  0D E2 15 00 08 00 0C 00 
   179)       770.1  Rx     18EF1CCD  8  A0 00 00 00 01 00 00 00 
   180)       787.2  Rx     18EF1C8F  8  0D F0 00 95 51 9B 78 FC 
   181)       788.2  Rx     18EF1C8F  8  0D F1 17 00 21 00 85 03 
   182)       789.1  Rx     18EF1C8F  8  0D F2 14 00 08 00 0D 00 
   183)       807.2  Rx     18EF1C8F  8  0D 00 00 B5 9F 9B 78 FC 
   184)       808.1  Rx     18EF1C8F  8  0D 01 14 00 21 00 85 03 
   185)       809.2  Rx     18EF1C8F  8  0D 02 13 00 07 00 0F 00 
   186)       816.7  Rx     18EF1CCD  8  A2 00 00 00 00 00 00 00 
   187)       827.2  Rx     18EF1C8F  8  0D 10 00 D5 ED 9B 78 FC 
   188)       828.2  Rx     18EF1C8F  8  0D 11 17 00 23 00 83 03 
   189)       829.1  Rx     18EF1C8F  8  0D 12 14 00 0C 00 10 00 
   190)       830.2  Rx     18FEF31C  8  EF 28 80 99 AE CE 2C 89 
   191)       830.7  Rx     18FEE81C  8  97 4F 0B 00 00 00 2C 51 
   192)       831.3  Rx     18FEE61C  8  90 07 0E 09 57 29 00 00 
   193)       831.8  Rx     19F8021C  8  80 FC 86 6C 01 00 FF FF 
   194)       836.8  Rx     18EF1CCD  8  A3 00 00 00 00 FB FF FB 
   195)       847.2  Rx     18EF1C8F  8  0D 20 00 F5 3B 9C 78 FC 
   196)       848.1  Rx     18EF1C8F  8  0D 21 15 00 23 00 82 03 
   197)       849.2  Rx     18EF1C8F  8  0D 22 15 00 0C 00 0F 00 
   198)       852.3  Rx     18EF8F1C  4  01 F8 52 00 
   199)       853.1  Rx     18EF1C8F  4  01 53 F8 00 
   200)       856.8  Rx     18EF1CCD  8  A1 40 FB FF FF FF 00 00 
   201)       867.2  Rx     18EF1C8F  8  0D 30 00 15 8A 9C 78 FC 
   202)       868.2  Rx     18EF1C8F  8  0D 31 15 00 22 00 83 03 
   203)       869.2  Rx     18EF1C8F  8  0D 32 13 00 0C 00 0E 00 
   204)       887.2  Rx     18EF1C8F  8  0D 40 00 35 D8 9C 78 FC 
   205)       888.2  Rx     18EF1C8F  8  0D 41 16 00 24 00 83 03 
   206)       889.2  Rx     18EFCD1C  8  A1 01 00 00 FB FF FF FF 
   207)       889.7  Rx     18EF1C8F  8  0D 42 15 00 0A 00 0D 00 
   208)       898.8  Rx     19F8051C  8  60 2F 80 EE 50 06 04 50 
   209)       899.3  Rx     19F8051C  8  61 1E C0 2C 5F 48 C7 A6 
   210)       899.8  Rx     19F8051C  8  62 98 06 00 F6 4F 3B F4 
   211)       900.4  Rx     19F8051C  8  63 91 CB 02 39 73 41 08 
   212)       901.0  Rx     19F8051C  8  64 00 00 00 00 40 00 0D 
   213)       901.6  Rx     19F8051C  8  65 4E 00 85 00 FC 0F 00 
   214)       902.1  Rx     19F8051C  8  66 00 01 AF 02 58 02 FF 
   215)       907.3  Rx     18EF1C8F  8  0D 50 00 57 26 9D 78 FC 
   216)       908.2  Rx     18EF1C8F  8  0D 51 16 00 24 00 83 03 
   217)       909.1  Rx     18EFCD1C  8  A0 00 14 00 00 00 00 00 
   218)       909.6  Rx     18EF1C8F  8  0D 52 16 00 09 00 0F 00 
   219)       910.2  Rx     18EF1CCD  8  A0 00 14 00 74 07 00 00 
   220)       916.9  Rx     18EF1CCD  8  A2 00 00 00 00 00 00 00 
   221)       927.2  Rx     18EF1C8F  8  0D 60 00 77 74 9D 78 FC 
   222)       928.2  Rx     18EF1C8F  8  0D 61 15 00 21 00 85 03 
   223)       929.2  Rx     18EF1C8F  8  0D 62 15 00 0A 00 11 00 
   224)       929.8  Rx     18EFCD1C  8  A0 00 2A 00 00 00 00 00 
   225)       930.3  Rx     18EF1CCD  8  A0 00 2A 00 82 05 00 00 
   226)       937.0  Rx     18EF1CCD  8  A3 00 00 00 00 FB FF FB 
   227)       947.3  Rx     18EF1C8F  8  0D 70 00 95 C2 9D 78 FC 
   228)       948.2  Rx     18EF1C8F  8  0D 71 15 00 21 00 82 03 
   229)       949.2  Rx     18EF1C8F  8  0D 72 14 00 09 00 0F 00 
   230)       950.5  Rx     18EFCD1C  8  A0 00 1B 00 00 00 00 00 
   231)       951.2  Rx     18EF1CCD  8  A0 00 1B 00 00 00 00 00 
   232)       957.1  Rx     18EF1CCD  8  A1 40 FB FF FF FF 00 00 
   233)       967.3  Rx     18EF1C8F  8  0D 80 00 B7 10 9E 78 FC 
   234)       968.2  Rx     18EF1C8F  8  0D 81 16 00 24 00 82 03 
   235)       969.0  Rx     18EFCD1C  8  A0 00 00 00 00 00 00 00 
   236)       969.6  Rx     18EF1C8F  8  0D 82 13 00 0B 00 0D 00 
   237)       970.1  Rx     18EF1CCD  8  A0 00 00 00 01 00 00 00 
   238)       987.3  Rx     18EF1C8F  8  0D 90 00 D5 5E 9E 78 FC 
   239)       988.2  Rx     18EF1C8F  8  0D 91 16 00 22 00 82 03 
   240)       989.2  Rx     18EF1C8F  8  0D 92 15 00 0A 00 0D 00 
   241)      1007.3  Rx     18EF1C8F  8  0D A0 00 F7 AC 9E 78 FC 
   242)      1008.2  Rx     18EF1C8F  8  0D A1 16 00 22 00 84 03 
   243)      1009.2  Rx     18EF1C8F  8  0D A2 14 00 09 00 0F 00 
   244)      1017.2  Rx     18EF1CCD  8  A2 00 00 00 00 00 00 00 
   245)      1027.3  Rx     18EF1C8F  8  0D B0 00 15 FB 9E 78 FC 
   246)      1028.2  Rx     18EF1C8F  8  0D B1 15 00 22 00 83 03 
   247)      1029.2  Rx     18EF1C8F  8  0D B2 13 00 0A 00 0F 00 
   248)      1037.2  Rx     18EF1CCD  8  A3 00 00 00 00 FB FF FB 
   249)      1047.3  Rx     18EF1C8F  8  0D C0 00 35 49 9F 78 FC 
   250)      1048.2  Rx     18EF1C8F  8  0D C1 15 00 23 00 82 03 
   251)      1049.2  Rx     18EF1C8F  8  0D C2 15 00 09 00 0B 00 
   252)      1057.3  Rx     18EF1CCD  8  A1 40 FB FF FF FF 00 00 
   253)      1067.3  Rx     18EF1C8F  8  0D D0 00 55 97 9F 78 FC 
   254)      1068.2  Rx     18EF1C8F  8  0D D1 16 00 22 00 84 03 
   255)      1069.2  Rx     18EF1C8F  8  0D D2 14 00 06 00 0E 00 
   256)      1087.3  Rx     18EF1C8F  8  0D E0 00 72 E5 9F 78 FC 
   257)      1088.2  Rx     18EF1C8F  8  0D E1 16 00 23 00 83 03 
   258)      1089.2  Rx     18EFCD1C  8  A1 01 00 00 FB FF FF FF 
   259)      1089.8  Rx     18EF1C8F  8  0D E2 14 00 0A 00 10 00 
   260)      1107.3  Rx     18EF1C8F  8  0D F0 00 95 33 A0 78 FC 
   261)      1108.2  Rx     18EF1C8F  8  0D F1 16 00 24 00 82 03 
   262)      1109.0  Rx     18EFCD1C  8  A0 00 14 00 00 00 00 00 
   263)      1109.6  Rx     18EF1C8F  8  0D F2 14 00 0A 00 0D 00 
   264)      1110.2  Rx     18EF1CCD  8  A0 00 14 00 74 07 00 00 
   265)      1117.4  Rx     18EF1CCD  8  A2 00 00 00 00 00 00 00 
   266)      1127.3  Rx     18EF1C8F  8  0D 00 00 B7 81 A0 78 FC 
   267)      1128.2  Rx     18EF1C8F  8  0D 01 17 00 23 00 83 03 
   268)      1129.2  Rx     18EF1C8F  8  0D 02 14 00 0C 00 0E 00 
   269)      1129.8  Rx     18EFCD1C  8  A0 00 2A 00 00 00 00 00 
   270)      1130.5  Rx     18EF1CCD  8  A0 00 2A 00 82 05 00 00 
   271)      1137.5  Rx     18EF1CCD  8  A3 00 00 00 00 FB FF FB 
   272)      1147.3  Rx     18EF1C8F  8  0D 10 00 D5 CF A0 78 FC 
   273)      1148.2  Rx     18EF1C8F  8  0D 11 15 00 22 00 84 03 
   274)      1149.2  Rx     18EF1C8F  8  0D 12 13 00 0C 00 0F 00 
   275)      1150.0  Rx     18EFCD1C  8  A0 00 1B 00 00 00 00 00 
   276)      1150.7  Rx     18EF1CCD  8  A0 00 1B 00 00 00 00 00 
   277)      1157.5  Rx     18EF1CCD  8  A1 40 FB FF FF FF 00 00 
   278)      1167.3  Rx     18EF1C8F  8  0D 20 00 F7 1D A1 78 FC 
   279)      1168.2  Rx     18EF1C8F  8  0D 21 16 00 23 00 82 03 
   280)      1169.2  Rx     18EF1C8F  8  0D 22 14 00 09 00 0D 00 
   281)      1170.6  Rx     18EFCD1C  8  A0 00 00 00 00 00 00 00 
   282)      1171.2  Rx     18EF1CCD  8  A0 00 00 00 01 00 00 00 
   283)      1187.3  Rx     18EF1C8F  8  0D 30 00 15 6C A1 78 FC 
   284)      1188.2  Rx     18EF1C8F  8  0D 31 18 00 23 00 83 03 
   285)      1189.3  Rx     18EF1C8F  8  0D 32 14 00 0A 00 0F 00 
   286)      1207.3  Rx     18EF1C8F  8  0D 40 00 35 BA A1 78 FC 
   287)      1208.3  Rx     18EF1C8F  8  0D 41 18 00 23 00 83 03 
   288)      1209.2  Rx     18EF1C8F  8  0D 42 14 00 0A 00 0C 00 
   289)      1217.7  Rx     18EF1CCD  8  A2 00 00 00 00 00 00 00 
   290)      1227.3  Rx     18EF1C8F  8  0D 50 00 55 08 A2 78 FC 
   291)      1228.2  Rx     18EF1C8F  8  0D 51 16 00 23 00 83 03 
   292)      1229.3  Rx     18EF1C8F  8  0D 52 14 00 08 00 0E 00 
   293)      1237.7  Rx     18EF1CCD  8  A3 00 00 00 00 FB FF FB 
   294)      1247.3  Rx     18EF1C8F  8  0D 60 00 72 56 A2 78 FC 
   295)      1248.3  Rx     18EF1C8F  8  0D 61 16 00 23 00 84 03 
   296)      1249.3  Rx     18EF1C8F  8  0D 62 14 00 08 00 0E 00 
   297)      1257.8  Rx     18EF1CCD  8  A1 40 FB FF FF FF 00 00 
   298)      1267.3  Rx     18EF1C8F  8  0D 70 00 95 A4 A2 78 FC 
   299)      1268.3  Rx     18EF1C8F  8  0D 71 19 00 21 00 85 03 
   300)      1269.3  Rx     18EF1C8F  8  0D 72 15 00 0C 00 0F 00 
   301)      1287.4  Rx     18EF1C8F  8  0D 80 00 B5 F2 A2 78 FC 
   302)      1288.3  Rx     18EF1C8F  8  0D 81 17 00 23 00 83 03 
   303)      1289.3  Rx     18EF1C8F  8  0D 82 15 00 0D 00 0C 00 
   304)      1289.9  Rx     18EFCD1C  8  A1 01 00 00 FB FF FF FF 
   305)      1307.3  Rx     18EF1C8F  8  0D 90 00 D2 40 A3 78 FC 
   306)      1308.3  Rx     18EF1C8F  8  0D 91 15 00 22 00 84 03 
   307)      1309.2  Rx     18EFCD1C  8  A0 00 14 00 00 00 00 00 
   308)      1309.7  Rx     18EF1C8F  8  0D 92 16 00 0C 00 0C 00 
   309)      1310.3  Rx     18EF1CCD  8  A0 00 14 00 75 07 00 00 
   310)      1317.9  Rx     18EF1CCD  8  A2 00 00 00 00 00 00 00 
   311)      1327.4  Rx     18EF1C8F  8  0D A0 00 F7 8E A3 78 FC 
   312)      1328.3  Rx     18EF1C8F  8  0D A1 15 00 23 00 83 03 
   313)      1329.2  Rx     18EFCD1C  8  A0 00 2A 00 00 00 00 00 
   314)      1329.8  Rx     18EF1C8F  8  0D A2 14 00 0B 00 0E 00 
   315)      1330.3  Rx     18EF1CCD  8  A0 00 2A 00 83 05 00 00 
   316)      1338.0  Rx     18EF1CCD  8  A3 00 00 00 00 FB FF FB 
   317)      1347.4  Rx     18EF1C8F  8  0D B0 00 15 DD A3 78 FC 
   318)      1348.3  Rx     18EF1C8F  8  0D B1 15 00 22 00 83 03 
   319)      1349.3  Rx     18EF1C8F  8  0D B2 15 00 09 00 10 00 
   320)      1349.9  Rx     18EFCD1C  8  A0 00 1B 00 00 00 00 00 
   321)      1350.5  Rx     18EF1CCD  8  A0 00 1B 00 00 00 00 00 
   322)      1358.0  Rx     18EF1CCD  8  A1 40 FB FF FF FF 00 00 
   323)      1367.4  Rx     18EF1C8F  8  0D C0 00 35 2B A4 78 FC 
   324)      1368.3  Rx     18EF1C8F  8  0D C1 17 00 23 00 84 03 
   325)      1369.3  Rx     18EF1C8F  8  0D C2 15 00 0A 00 0E 00 
   326)      1370.7  Rx     18EFCD1C  8  A0 00 00 00 00 00 00 00 
   327)      1371.3  Rx     18EF1CCD  8  A0 00 00 00 01 00 00 00 
   328)      1387.4  Rx     18EF1C8F  8  0D D0 00 57 79 A4 78 FC 
   329)      1388.3  Rx     18EF1C8F  8  0D D1 17 00 23 00 83 03 
   330)      1389.3  Rx     18EF1C8F  8  0D D2 15 00 0C 00 0D 00 
   331)      1407.4  Rx     18EF1C8F  8  0D E0 00 72 C7 A4 78 FC 
   332)      1408.3  Rx     18EF1C8F  8  0D E1 15 00 22 00 83 03 
   333)      1409.3  Rx     18EF1C8F  8  0D E2 16 00 0A 00 0D 00 
   334)      1418.2  Rx     18EF1CCD  8  A2 00 00 00 00 00 00 00 
   335)      1427.4  Rx     18EF1C8F  8  0D F0 00 97 15 A5 78 FC 
   336)      1428.3  Rx     18EF1C8F  8  0D F1 16 00 23 00 84 03 
   337)      1429.4  Rx     18EF1C8F  8  0D F2 15 00 0A 00 0E 00 
   338)      1438.3  Rx     18EF1CCD  8  A3 00 00 00 00 FB FF FB 
   339)      1447.4  Rx     18EF1C8F  8  0D 00 00 B5 63 A5 78 FC 
   340)      1448.4  Rx     18EF1C8F  8  0D 01 16 00 23 00 84 03 
   341)      1449.4  Rx     18EF1C8F  8  0D 02 15 00 0B 00 0D 00 
   342)      1458.3  Rx     18EF1CCD  8  A1 40 FB FF FF FF 00 00 
   343)      1467.5  Rx     18EF1C8F  8  0D 10 00 D5 B1 A5 78 FC 
   344)      1468.3  Rx     18EF1C8F  8  0D 11 15 00 21 00 81 03 
   345)      1469.4  Rx     18EF1C8F  8  0D 12 15 00 0A 00 0F 00 
   346)      1487.5  Rx     18EF1C8F  8  0D 20 00 F5 FF A5 78 FC 
   347)      1488.4  Rx     18EF1C8F  8  0D 21 16 00 22 00 82 03 
   348)      1489.4  Rx     18EF1C8F  8  0D 22 15 00 0C 00 0C 00 
   349)      1489.9  Rx     18EFCD1C  8  A1 01 00 00 FB FF FF FF 
   350)      1507.5  Rx     18EF1C8F  8  0D 30 00 15 4E A6 78 FC 
   351)      1508.4  Rx     18EF1C8F  8  0D 31 16 00 23 00 84 03 
   352)      1509.3  Rx     18EFCD1C  8  A0 00 14 00 00 00 00 00 
   353)      1509.9  Rx     18EF1C8F  8  0D 32 16 00 0B 00 0E 00 
   354)      1510.4  Rx     18EF1CCD  8  A0 00 14 00 74 07 00 00 
   355)      1518.4  Rx     18EF1CCD  8  A2 00 00 00 00 00 00 00 
   356)      1527.5  Rx     18EF1C8F  8  0D 40 00 35 9C A6 78 FC 
   357)      1528.4  Rx     18EF1C8F  8  0D 41 17 00 25 00 83 03 
   358)      1529.3  Rx     18EFCD1C  8  A0 00 2A 00 00 00 00 00 
   359)      1529.8  Rx     18EF1C8F  8  0D 42 15 00 08 00 10 00 
   360)      1530.4  Rx     18EF1CCD  8  A0 00 2A 00 83 05 00 00 
   361)      1538.5  Rx     18EF1CCD  8  A3 00 00 00 00 FB FF FB 
   362)      1547.5  Rx     18EF1C8F  8  0D 50 00 57 EA A6 78 FC 
   363)      1548.4  Rx     18EF1C8F  8  0D 51 15 00 23 00 83 03 
   364)      1549.2  Rx     18EFCD1C  8  A0 00 1B 00 00 00 00 00 
   365)      1549.8  Rx     18EF1C8F  8  0D 52 15 00 0A 00 0F 00 
   366)      1550.4  Rx     18EF1CCD  8  A0 00 1B 00 00 00 00 00 
   367)      1558.6  Rx     18EF1CCD  8  A1 40 FB FF FF FF 00 00 
   368)      1567.5  Rx     18EF1C8F  8  0D 60 00 75 38 A7 78 FC 
   369)      1568.4  Rx     18EF1C8F  8  0D 61 14 00 20 00 83 03 
   370)      1569.4  Rx     18EF1C8F  8  0D 62 16 00 0A 00 0D 00 
   371)      1570.0  Rx     18EFCD1C  8  A0 00 00 00 00 00 00 00 
   372)      1571.6  Rx     18EF1CCD  8  A0 00 00 00 01 00 00 00 
   373)      1587.5  Rx     18EF1C8F  8  0D 70 00 95 86 A7 78 FC 
   374)      1588.4  Rx     18EF1C8F  8  0D 71 16 00 24 00 84 03 
   375)      1589.4  Rx     18EF1C8F  8  0D 72 13 00 09 00 0E 00 
   376)      1607.5  Rx     18EF1C8F  8  0D 80 00 B5 D4 A7 78 FC 
   377)      1608.4  Rx     18EF1C8F  8  0D 81 15 00 21 00 83 03 
   378)      1609.4  Rx     18EF1C8F  8  0D 82 16 00 09 00 0D 00 
   379)      1618.7  Rx     18EF1CCD  8  A2 00 00 00 00 00 00 00 
   380)      1627.5  Rx     18EF1C8F  8  0D 90 00 D5 22 A8 78 FC 
   381)      1628.4  Rx     18EF1C8F  8  0D 91 16 00 24 00 84 03 
   382)      1629.4  Rx     18EF1C8F  8  0D 92 13 00 0B 00 0E 00 
   383)      1638.8  Rx     18EF1CCD  8  A3 00 00 00 00 FB FF FB 
   384)      1647.5  Rx     18EF1C8F  8  0D A0 00 F5 70 A8 78 FC 
   385)      1648.4  Rx     18EF1C8F  8  0D A1 15 00 23 00 83 03 
   386)      1649.4  Rx     18EF1C8F  8  0D A2 15 00 0B 00 0E 00 
   387)      1658.8  Rx     18EF1CCD  8  A1 40 FB FF FF FF 00 00 
   388)      1667.5  Rx     18EF1C8F  8  0D B0 00 17 BF A8 78 FC 
   389)      1668.4  Rx     18EF1C8F  8  0D B1 17 00 22 00 84 03 
   390)      1669.4  Rx     18EF1C8F  8  0D B2 13 00 09 00 0E 00 
   391)      1687.5  Rx     18EF1C8F  8  0D C0 00 32 0D A9 78 FC 
   392)      1688.4  Rx     18EF1C8F  8  0D C1 16 00 22 00 85 03 
   393)      1689.4  Rx     18EF1C8F  8  0D C2 14 00 08 00 0E 00 
   394)      1690.0  Rx     18EFCD1C  8  A1 01 00 00 FB FF FF FF 
   395)      1707.5  Rx     18EF1C8F  8  0D D0 00 55 5B A9 78 FC 
   396)      1708.4  Rx     18EF1C8F  8  0D D1 16 00 20 00 82 03 
   397)      1709.2  Rx     18EFCD1C  8  A0 00 14 00 00 00 00 00 
   398)      1709.8  Rx     18EF1C8F  8  0D D2 14 00 05 00 11 00 
   399)      1710.4  Rx     18EF1CCD  8  A0 00 14 00 74 07 00 00 
   400)      1719.0  Rx     18EF1CCD  8  A2 00 00 00 00 00 00 00 
   401)      1727.5  Rx     18EF1C8F  8  0D E0 00 75 A9 A9 78 FC 
   402)      1728.5  Rx     18EF1C8F  8  0D E1 17 00 21 00 83 03 
   403)      1729.3  Rx     18EFCD1C  8  A0 00 2A 00 00 00 00 00 
   404)      1729.9  Rx     18EF1C8F  8  0D E2 13 00 05 00 0F 00 
   405)      1730.5  Rx     18EF1CCD  8  A0 00 2A 00 83 05 00 00 
   406)      1739.0  Rx     18EF1CCD  8  A3 00 00 00 00 FB FF FB 
   407)      1747.5  Rx     18EF1C8F  8  0D F0 00 97 F7 A9 78 FC 
   408)      1748.4  Rx     18EF1C8F  8  0D F1 17 00 22 00 83 03 
   409)      1749.2  Rx     18EFCD1C  8  A0 00 1B 00 00 00 00 00 
   410)      1749.8  Rx     18EF1C8F  8  0D F2 14 00 0A 00 0D 00 
   411)      1750.4  Rx     18EF1CCD  8  A0 00 1B 00 00 00 00 00 
   412)      1759.0  Rx     18EF1CCD  8  A1 40 FB FF FF FF 00 00 
   413)      1767.5  Rx     18EF1C8F  8  0D 00 00 B5 45 AA 78 FC 
   414)      1768.5  Rx     18EF1C8F  8  0D 01 15 00 21 00 84 03 
   415)      1769.3  Rx     18EFCD1C  8  A0 00 00 00 00 00 00 00 
   416)      1769.9  Rx     18EF1C8F  8  0D 02 15 00 0B 00 0D 00 
   417)      1770.4  Rx     18EF1CCD  8  A0 00 00 00 01 00 00 00 
   418)      1787.5  Rx     18EF1C8F  8  0D 10 00 D7 93 AA 78 FC 
   419)      1788.5  Rx     18EF1C8F  8  0D 11 16 00 25 00 83 03 
   420)      1789.5  Rx     18EF1C8F  8  0D 12 16 00 0B 00 0E 00 
   421)      1807.5  Rx     18EF1C8F  8  0D 20 00 F2 E1 AA 78 FC 
   422)      1808.5  Rx     18EF1C8F  8  0D 21 18 00 23 00 84 03 
   423)      1809.5  Rx     18EF1C8F  8  0D 22 16 00 0C 00 0E 00 
   424)      1819.2  Rx     18EF1CCD  8  A2 00 00 00 00 00 00 00 
   425)      1827.5  Rx     18EF1C8F  8  0D 30 00 15 30 AB 78 FC 
   426)      1828.5  Rx     18EF1C8F  8  0D 31 17 00 23 00 82 03 
   427)      1829.5  Rx     18EF1C8F  8  0D 32 13 00 09 00 0D 00 
   428)      1831.5  Rx     18FEF31C  8  EF 28 80 99 AE CE 2C 89 
   429)      1832.1  Rx     18FEE81C  8  97 4F 08 00 00 00 2C 51 
   430)      1832.6  Rx     18FEE61C  8  94 07 0E 09 57 29 00 00 
   431)      1833.2  Rx     19F8021C  8  85 FC 86 6C 00 00 FF FF 
   432)      1839.2  Rx     18EF1CCD  8  A3 00 00 00 00 FB FF FB 
   433)      1847.6  Rx     18EF1C8F  8  0D 40 00 37 7E AB 78 FC 
   434)      1848.5  Rx     18EF1C8F  8  0D 41 15 00 24 00 82 03 
   435)      1849.5  Rx     18EF1C8F  8  0D 42 14 00 0B 00 0D 00 
   436)      1859.3  Rx     18EF1CCD  8  A1 40 FB FF FF FF 00 00 
   437)      1867.5  Rx     18EF1C8F  8  0D 50 00 55 CC AB 78 FC 
   438)      1868.5  Rx     18EF1C8F  8  0D 51 18 00 23 00 84 03 
   439)      1869.5  Rx     18EF1C8F  8  0D 52 14 00 0A 00 10 00 
   440)      1879.8  Rx     19F8051C  8  80 2F 85 EE 50 16 2B 50 
   441)      1880.3  Rx     19F8051C  8  81 1E C0 2D DB 3D C7 A6 
   442)      1880.8  Rx     19F8051C  8  82 98 06 80 98 BF 28 F4 
   443)      1881.4  Rx     19F8051C  8  83 91 CB 02 22 A1 41 08 
   444)      1882.0  Rx     19F8051C  8  84 00 00 00 00 40 00 0D 
   445)      1882.5  Rx     19F8051C  8  85 4E 00 85 00 FC 0F 00 
   446)      1883.1  Rx     19F8051C  8  86 00 01 AF 02 BC 02 FF 
   447)      1887.6  Rx     18EF1C8F  8  0D 60 00 77 1A AC 78 FC 
   448)      1888.5  Rx     18EF1C8F  8  0D 61 16 00 23 00 83 03 
   449)      1889.5  Rx     18EF1C8F  8  0D 62 14 00 0A 00 0D 00 
   450)      1890.0  Rx     18EFCD1C  8  A1 01 00 00 FB FF FF FF 
   451)      1907.5  Rx     18EF1C8F  8  0D 70 00 95 68 AC 78 FC 
   452)      1908.5  Rx     18EF1C8F  8  0D 71 18 00 22 00 84 03 
   453)      1909.3  Rx     18EFCD1C  8  A0 00 14 00 00 00 00 00 
   454)      1909.8  Rx     18EF1C8F  8  0D 72 15 00 0A 00 0D 00 
   455)      1910.4  Rx     18EF1CCD  8  A0 00 14 00 74 07 00 00 
   456)      1919.4  Rx     18EF1CCD  8  A2 00 00 00 00 00 00 00 
   457)      1927.6  Rx     18EF1C8F  8  0D 80 00 B7 B6 AC 78 FC 
   458)      1928.5  Rx     18EF1C8F  8  0D 81 16 00 23 00 83 03 
   459)      1929.4  Rx     18EFCD1C  8  A0 00 2A 00 00 00 00 00 
   460)      1930.0  Rx     18EF1C8F  8  0D 82 15 00 0B 00 0D 00 
   461)      1930.5  Rx     18EF1CCD  8  A0 00 2A 00 82 05 00 00 
   462)      1939.5  Rx     18EF1CCD  8  A3 00 00 00 00 FB FF FB 
   463)      1947.6  Rx     18EF1C8F  8  0D 90 00 D5 04 AD 78 FC 
   464)      1948.5  Rx     18EF1C8F  8  0D 91 17 00 22 00 82 03 
   465)      1949.3  Rx     18EFCD1C  8  A0 00 1B 00 00 00 00 00 
   466)      1949.9  Rx     18EF1C8F  8  0D 92 15 00 0C 00 0A 00 
   467)      1950.4  Rx     18EF1CCD  8  A0 00 1B 00 00 00 00 00 
   468)      1959.5  Rx     18EF1CCD  8  A1 40 FB FF FF FF 00 00 
   469)      1967.6  Rx     18EF1C8F  8  0D A0 00 F7 52 AD 78 FC 
   470)      1968.5  Rx     18EF1C8F  8  0D A1 16 00 23 00 82 03 
   471)      1969.5  Rx     18EF1C8F  8  0D A2 15 00 0B 00 0C 00 
   472)      1970.1  Rx     18EFCD1C  8  A0 00 00 00 00 00 00 00 
   473)      1970.7  Rx     18EF1CCD  8  A0 00 00 00 01 00 00 00 
   474)      1987.6  Rx     18EF1C8F  8  0D B0 00 15 A1 AD 78 FC 
   475)      1988.5  Rx     18EF1C8F  8  0D B1 16 00 22 00 83 03 
   476)      1989.5  Rx     18EF1C8F  8  0D B2 15 00 0B 00 0F 00 
   477)      2007.6  Rx     18EF1C8F  8  0D C0 00 35 EF AD 78 FC 
   478)      2008.5  Rx     18EF1C8F  8  0D C1 17 00 22 00 83 03 
   479)      2009.5  Rx     18EF1C8F  8  0D C2 14 00 0B 00 0D 00 
   480)      2019.7  Rx     18EF1CCD  8  A2 00 00 00 00 00 00 00 
   481)      2027.6  Rx     18EF1C8F  8  0D D0 00 55 3D AE 78 FC 
   482)      2028.5  Rx     18EF1C8F  8  0D D1 16 00 23 00 83 03 
   483)      2029.5  Rx     18EF1C8F  8  0D D2 15 00 0A 00 10 00 
   484)      2039.8  Rx     18EF1CCD  8  A3 00 00 00 00 FB FF FB 
   485)      2047.6  Rx     18EF1C8F  8  0D E0 00 75 8B AE 78 FC 
   486)      2048.5  Rx     18EF1C8F  8  0D E1 15 00 21 00 83 03 
   487)      2049.5  Rx     18EF1C8F  8  0D E2 15 00 0B 00 0F 00 
   488)      2059.8  Rx     18EF1CCD  8  A1 40 FB FF FF FF 00 00 
   489)      2067.6  Rx     18EF1C8F  8  0D F0 00 95 D9 AE 78 FC 
   490)      2068.5  Rx     18EF1C8F  8  0D F1 16 00 21 00 83 03 
   491)      2069.5  Rx     18EF1C8F  8  0D F2 14 00 0A 00 0D 00 
   492)      2087.6  Rx     18EF1C8F  8  0D 00 00 B5 27 AF 77 FC 
   493)      2088.5  Rx     18EF1C8F  8  0D 01 16 00 23 00 81 03 
   494)      2089.5  Rx     18EFCD1C  8  A1 01 00 00 FB FF FF FF 
   495)      2090.1  Rx     18EF1C8F  8  0D 02 14 00 0B 00 0D 00 
   496)      2107.6  Rx     18EF1C8F  8  0D 10 00 D5 75 AF 77 FC 
   497)      2108.5  Rx     18EF1C8F  8  0D 11 14 00 22 00 82 03 
   498)      2109.3  Rx     18EFCD1C  8  A0 00 14 00 00 00 00 00 
   499)      2109.9  Rx     18EF1C8F  8  0D 12 15 00 0C 00 0F 00 
   500)      2110.5  Rx     18EF1CCD  8  A0 00 14 00 75 07 00 00 
   501)      2120.0  Rx     18EF1CCD  8  A2 00 00 00 00 00 00 00 
   502)      2127.6  Rx     18EF1C8F  8  0D 20 00 F7 C3 AF 77 FC 
   503)      2128.5  Rx     18EF1C8F  8  0D 21 16 00 23 00 83 03 
   504)      2129.6  Rx     18EF1C8F  8  0D 22 15 00 09 00 0B 00 
   505)      2130.1  Rx     18EFCD1C  8  A0 00 2A 00 00 00 00 00 
   506)      2130.7  Rx     18EF1CCD  8  A0 00 2A 00 82 05 00 00 
   507)      2140.0  Rx     18EF1CCD  8  A3 00 00 00 00 FB FF FB 
   508)      2147.6  Rx     18EF1C8F  8  0D 30 00 15 12 B0 78 FC 
   509)      2148.6  Rx     18EF1C8F  8  0D 31 16 00 20 00 82 03 
   510)      2149.4  Rx     18EFCD1C  8  A0 00 1B 00 00 00 00 00 
   511)      2150.0  Rx     18EF1C8F  8  0D 32 16 00 0B 00 0E 00 
   512)      2150.6  Rx     18EF1CCD  8  A0 00 1B 00 00 00 00 00 
   513)      2160.1  Rx     18EF1CCD  8  A1 40 FB FF FF FF 00 00 
   514)      2167.6  Rx     18EF1C8F  8  0D 40 00 35 60 B0 78 FC 
   515)      2168.5  Rx     18EF1C8F  8  0D 41 15 00 23 00 84 03 
   516)      2169.3  Rx     18EFCD1C  8  A0 00 00 00 00 00 00 00 
   517)      2169.9  Rx     18EF1C8F  8  0D 42 14 00 0A 00 0E 00 
   518)      2170.5  Rx     18EF1CCD  8  A0 00 00 00 01 00 00 00 
   519)      2187.7  Rx     18EF1C8F  8  0D 50 00 57 AE B0 78 FC 
   520)      2188.6  Rx     18EF1C8F  8  0D 51 16 00 23 00 83 03 
   521)      2189.6  Rx     18EF1C8F  8  0D 52 12 00 0A 00 0E 00 
   522)      2207.7  Rx     18EF1C8F  8  0D 60 00 72 FC B0 78 FC 
   523)      2208.6  Rx     18EF1C8F  8  0D 61 16 00 22 00 83 03 
   524)      2209.6  Rx     18EF1C8F  8  0D 62 14 00 0A 00 0E 00 
   525)      2220.2  Rx     18EF1CCD  8  A2 00 00 00 00 00 00 00 
   526)      2227.7  Rx     18EF1C8F  8  0D 70 00 95 4A B1 78 FC 
   527)      2228.6  Rx     18EF1C8F  8  0D 71 15 00 24 00 83 03 
   528)      2229.6  Rx     18EF1C8F  8  0D 72 15 00 09 00 0E 00 
   529)      2240.3  Rx     18EF1CCD  8  A3 00 00 00 00 FB FF FB 
   530)      2247.7  Rx     18EF1C8F  8  0D 80 00 B5 98 B1 78 FC 
   531)      2248.6  Rx     18EF1C8F  8  0D 81 15 00 22 00 85 03 
   532)      2249.6  Rx     18EF1C8F  8  0D 82 16 00 0B 00 0F 00 
   533)      2260.3  Rx     18EF1CCD  8  A1 40 FB FF FF FF 00 00 
   534)      2267.7  Rx     18EF1C8F  8  0D 90 00 D5 E6 B1 78 FC 
   535)      2268.6  Rx     18EF1C8F  8  0D 91 14 00 25 00 82 03 
   536)      2269.6  Rx     18EF1C8F  8  0D 92 15 00 0B 00 10 00 
   537)      2287.7  Rx     18EF1C8F  8  0D A0 00 F2 34 B2 78 FC 
   538)      2288.6  Rx     18EF1C8F  8  0D A1 15 00 23 00 84 03 
   539)      2289.5  Rx     18EFCD1C  8  A1 01 00 00 FB FF FF FF 
   540)      2290.1  Rx     18EF1C8F  8  0D A2 14 00 0B 00 0C 00 
   541)      2307.7  Rx     18EF1C8F  8  0D B0 00 15 83 B2 78 FC 
   542)      2308.6  Rx     18EF1C8F  8  0D B1 17 00 23 00 83 03 
   543)      2309.2  Rx     18EFCD1C  8  A0 00 14 00 00 00 00 00 
   544)      2309.7  Rx     18EF1C8F  8  0D B2 13 00 0B 00 0F 00 
   545)      2310.3  Rx     18EF1CCD  8  A0 00 14 00 75 07 00 00 
   546)      2320.4  Rx     18EF1CCD  8  A2 00 00 00 00 00 00 00 
   547)      2327.7  Rx     18EF1C8F  8  0D C0 00 35 D1 B2 78 FC 
   548)      2328.6  Rx     18EF1C8F  8  0D C1 14 00 22 00 83 03 
   549)      2329.5  Rx     18EFCD1C  8  A0 00 2A 00 00 00 00 00 
   550)      2330.0  Rx     18EF1C8F  8  0D C2 13 00 09 00 0E 00 
   551)      2330.6  Rx     18EF1CCD  8  A0 00 2A 00 82 05 00 00 
   552)      2340.5  Rx     18EF1CCD  8  A3 00 00 00 00 FB FF FB 
   553)      2347.7  Rx     18EF1C8F  8  0D D0 00 57 1F B3 78 FC 
   554)      2348.6  Rx     18EF1C8F  8  0D D1 16 00 21 00 83 03 
   555)      2349.2  Rx     18EFCD1C  8  A0 00 1B 00 00 00 00 00 
   556)      2349.8  Rx     18EF1C8F  8  0D D2 14 00 07 00 0E 00 
   557)      2350.3  Rx     18EF1CCD  8  A0 00 1B 00 00 00 00 00 
   558)      2360.6  Rx     18EF1CCD  8  A1 40 FB FF FF FF 00 00 
   559)      2367.7  Rx     18EF1C8F  8  0D E0 00 75 6D B3 78 FC 
   560)      2368.6  Rx     18EF1C8F  8  0D E1 15 00 21 00 83 03 
   561)      2369.2  Rx     18EFCD1C  8  A0 00 00 00 00 00 00 00 
   562)      2369.8  Rx     18EF1C8F  8  0D E2 15 00 08 00 0F 00 
   563)      2370.4  Rx     18EF1CCD  8  A0 00 00 00 01 00 00 00 
   564)      2387.7  Rx     18EF1C8F  8  0D F0 00 95 BB B3 78 FC 
   565)      2388.6  Rx     18EF1C8F  8  0D F1 17 00 21 00 82 03 
   566)      2389.6  Rx     18EF1C8F  8  0D F2 13 00 08 00 0E 00 
   567)      2407.7  Rx     18EF1C8F  8  0D 00 00 B5 09 B4 78 FC 
   568)      2408.6  Rx     18EF1C8F  8  0D 01 13 00 22 00 84 03 
   569)      2409.6  Rx     18EF1C8F  8  0D 02 15 00 09 00 0D 00 
   570)      2420.7  Rx     18EF1CCD  8  A2 00 00 00 00 00 00 00 
   571)      2427.7  Rx     18EF1C8F  8  0D 10 00 D5 57 B4 78 FC 
   572)      2428.7  Rx     18EF1C8F  8  0D 11 16 00 22 00 83 03 
   573)      2429.7  Rx     18EF1C8F  8  0D 12 14 00 0B 00 0E 00 
   574)      2440.8  Rx     18EF1CCD  8  A3 00 00 00 00 FB FF FB 
   575)      2447.7  Rx     18EF1C8F  8  0D 20 00 F5 A5 B4 78 FC 
   576)      2448.6  Rx     18EF1C8F  8  0D 21 14 00 21 00 84 03 
   577)      2449.7  Rx     18EF1C8F  8  0D 22 14 00 0A 00 0B 00 
   578)      2460.8  Rx     18EF1CCD  8  A1 40 FB FF FF FF 00 00 
   579)      2467.8  Rx     18EF1C8F  8  0D 30 00 15 F4 B4 78 FC 
   580)      2468.7  Rx     18EF1C8F  8  0D 31 15 00 24 00 84 03 
   581)      2469.6  Rx     18EF1C8F  8  0D 32 14 00 09 00 0D 00 
   582)      2470.8  Rx     18EFCD1C  4  01 A8 59 00 
   583)      2471.3  Rx     18EF1CCD  4  01 5A A8 00 
   584)      2487.7  Rx     18EF1C8F  8  0D 40 00 35 42 B5 78 FC 
   585)      2488.7  Rx     18EF1C8F  8  0D 41 17 00 22 00 85 03 
   586)      2489.7  Rx     18EF1C8F  8  0D 42 14 00 0C 00 0E 00 
   587)      2490.3  Rx     18EFCD1C  8  A1 01 00 00 FB FF FF FF 
   588)      2507.8  Rx     18EF1C8F  8  0D 50 00 55 90 B5 78 FC 
   589)      2508.7  Rx     18EF1C8F  8  0D 51 16 00 23 00 84 03 
   590)      2509.3  Rx     18EFCD1C  8  A0 00 14 00 00 00 00 00 
   591)      2509.8  Rx     18EF1C8F  8  0D 52 15 00 09 00 0F 00 
   592)      2510.4  Rx     18EF1CCD  8  A0 00 14 00 74 07 00 00 
   593)      2520.9  Rx     18EF1CCD  8  A2 00 00 00 00 00 00 00 
   594)      2527.7  Rx     18EF1C8F  8  0D 60 00 75 DE B5 78 FC 
   595)      2528.7  Rx     18EF1C8F  8  0D 61 16 00 23 00 82 03 
   596)      2529.5  Rx     18EFCD1C  8  A0 00 2A 00 00 00 00 00 
   597)      2530.0  Rx     18EF1C8F  8  0D 62 15 00 0B 00 0E 00 
   598)      2530.6  Rx     18EF1CCD  8  A0 00 2A 00 83 05 00 00 
   599)      2541.0  Rx     18EF1CCD  8  A3 00 00 00 00 FB FF FB 
   600)      2547.8  Rx     18EF1C8F  8  0D 70 00 97 2C B6 78 FC 
   601)      2548.7  Rx     18EF1C8F  8  0D 71 17 00 22 00 83 03 
   602)      2549.3  Rx     18EFCD1C  8  A0 00 1B 00 00 00 00 00 
   603)      2549.9  Rx     18EF1C8F  8  0D 72 14 00 09 00 0F 00 
   604)      2550.4  Rx     18EF1CCD  8  A0 00 1B 00 00 00 00 00 
   605)      2561.1  Rx     18EF1CCD  8  A1 40 FB FF FF FF 00 00 
   606)      2567.8  Rx     18EF1C8F  8  0D 80 00 B5 7A B6 78 FC 
   607)      2568.7  Rx     18EF1C8F  8  0D 81 15 00 21 00 81 03 
   608)      2569.3  Rx     18EFCD1C  8  A0 00 00 00 00 00 00 00 
   609)      2569.8  Rx     18EF1C8F  8  0D 82 15 00 0A 00 0D 00 
   610)      2570.4  Rx     18EF1CCD  8  A0 00 00 00 01 00 00 00 
   611)      2587.8  Rx     18EF1C8F  8  0D 90 00 D5 C8 B6 78 FC 
   612)      2588.7  Rx     18EF1C8F  8  0D 91 16 00 23 00 83 03 
   613)      2589.7  Rx     18EF1C8F  8  0D 92 15 00 0A 00 0F 00 
   614)      2607.8  Rx     18EF1C8F  8  0D A0 00 F2 16 B7 78 FC 
   615)      2608.7  Rx     18EF1C8F  8  0D A1 18 00 21 00 83 03 
   616)      2609.7  Rx     18EF1C8F  8  0D A2 14 00 0B 00 0F 00 
   617)      2621.2  Rx     18EF1CCD  8  A2 00 00 00 00 00 00 00 
   618)      2627.8  Rx     18EF1C8F  8  0D B0 00 15 65 B7 78 FC 
   619)      2628.7  Rx     18EF1C8F  8  0D B1 17 00 23 00 85 03 
   620)      2629.7  Rx     18EF1C8F  8  0D B2 12 00 0B 00 0E 00 
   621)      2641.3  Rx     18EF1CCD  8  A3 00 00 00 00 FB FF FB 
   622)      2647.8  Rx     18EF1C8F  8  0D C0 00 35 B3 B7 78 FC 
   623)      2648.7  Rx     18EF1C8F  8  0D C1 18 00 22 00 83 03 
   624)      2649.7  Rx     18EF1C8F  8  0D C2 14 00 09 00 0E 00 
   625)      2661.3  Rx     18EF1CCD  8  A1 40 FB FF FF FF 00 00 
   626)      2667.8  Rx     18EF1C8F  8  0D D0 00 55 01 B8 78 FC 
   627)      2668.7  Rx     18EF1C8F  8  0D D1 16 00 23 00 83 03 
   628)      2669.7  Rx     18EF1C8F  8  0D D2 14 00 0A 00 10 00 
   629)      2687.8  Rx     18EF1C8F  8  0D E0 00 72 4F B8 78 FC 
   630)      2688.7  Rx     18EF1C8F  8  0D E1 16 00 23 00 81 03 
   631)      2689.7  Rx     18EF1C8F  8  0D E2 15 00 0B 00 0E 00 
   632)      2691.1  Rx     18EFCD1C  8  A1 01 00 00 FB FF FF FF 
   633)      2707.8  Rx     18EF1C8F  8  0D F0 00 95 9D B8 78 FC 
   634)      2708.7  Rx     18EF1C8F  8  0D F1 16 00 23 00 83 03 
   635)      2709.3  Rx     18EFCD1C  8  A0 00 14 00 00 00 00 00 
   636)      2709.9  Rx     18EF1C8F  8  0D F2 14 00 0B 00 0E 00 
   637)      2710.4  Rx     18EF1CCD  8  A0 00 14 00 74 07 00 00 
   638)      2721.4  Rx     18EF1CCD  8  A2 00 00 00 00 00 00 00 
   639)      2727.8  Rx     18EF1C8F  8  0D 00 00 B5 EB B8 78 FC 
   640)      2728.7  Rx     18EF1C8F  8  0D 01 15 00 23 00 84 03 
   641)      2729.5  Rx     18EFCD1C  8  A0 00 2A 00 00 00 00 00 
   642)      2730.1  Rx     18EF1C8F  8  0D 02 13 00 0A 00 0E 00 
   643)      2730.6  Rx     18EF1CCD  8  A0 00 2A 00 82 05 00 00 
   644)      2741.5  Rx     18EF1CCD  8  A3 00 00 00 00 FB FF FB 
   645)      2747.8  Rx     18EF1C8F  8  0D 10 00 D7 39 B9 78 FC 
   646)      2748.7  Rx     18EF1C8F  8  0D 11 16 00 22 00 84 03 
   647)      2749.3  Rx     18EFCD1C  8  A0 00 1B 00 00 00 00 00 
   648)      2749.9  Rx     18EF1C8F  8  0D 12 13 00 09 00 0F 00 
   649)      2750.5  Rx     18EF1CCD  8  A0 00 1B 00 00 00 00 00 
   650)      2761.5  Rx     18EF1CCD  8  A1 40 FB FF FF FF 00 00 
   651)      2767.8  Rx     18EF1C8F  8  0D 20 00 F5 87 B9 78 FC 
   652)      2768.7  Rx     18EF1C8F  8  0D 21 14 00 25 00 83 03 
   653)      2769.3  Rx     18EFCD1C  8  A0 00 00 00 00 00 00 00 
   654)      2769.9  Rx     18EF1C8F  8  0D 22 13 00 0A 00 0A 00 
   655)      2770.5  Rx     18EF1CCD  8  A0 00 00 00 01 00 00 00 
   656)      2787.8  Rx     18EF1C8F  8  0D 30 00 15 D6 B9 78 FC 
   657)      2788.7  Rx     18EF1C8F  8  0D 31 15 00 23 00 83 03 
   658)      2789.7  Rx     18EF1C8F  8  0D 32 15 00 0B 00 09 00 
   659)      2807.8  Rx     18EF1C8F  8  0D 40 00 32 24 BA 78 FC 
   660)      2808.7  Rx     18EF1C8F  8  0D 41 16 00 24 00 84 03 
   661)      2809.7  Rx     18EF1C8F  8  0D 42 12 00 0C 00 0F 00 
   662)      2821.7  Rx     18EF1CCD  8  A2 00 00 00 00 00 00 00 
   663)      2827.8  Rx     18EF1C8F  8  0D 50 00 57 72 BA 78 FC 
   664)      2828.7  Rx     18EF1C8F  8  0D 51 16 00 22 00 82 03 
   665)      2829.7  Rx     18EF1C8F  8  0D 52 14 00 09 00 10 00 
   666)      2830.7  Rx     18FEF31C  8  EF 28 80 99 AD CE 2C 89 
   667)      2831.3  Rx     18FEE81C  8  97 4F 05 00 00 00 2C 51 
   668)      2831.8  Rx     18FEE61C  8  98 07 0E 09 57 29 00 00 
   669)      2832.4  Rx     19F8021C  8  8A FC 86 6C 00 00 FF FF 
   670)      2841.7  Rx     18EF1CCD  8  A3 00 00 00 00 FB FF FB 
   671)      2847.8  Rx     18EF1C8F  8  0D 60 00 75 C0 BA 78 FC 
   672)      2848.7  Rx     18EF1C8F  8  0D 61 16 00 23 00 83 03 
   673)      2849.7  Rx     18EF1C8F  8  0D 62 16 00 09 00 0E 00 
   674)      2861.8  Rx     18EF1CCD  8  A1 40 FB FF FF FF 00 00 
   675)      2867.8  Rx     18EF1C8F  8  0D 70 00 95 0E BB 78 FC 
   676)      2868.7  Rx     18EF1C8F  8  0D 71 15 00 23 00 83 03 
   677)      2869.7  Rx     18EF1C8F  8  0D 72 13 00 09 00 0D 00 
   678)      2887.8  Rx     18EF1C8F  8  0D 80 00 B5 5C BB 78 FC 
   679)      2888.7  Rx     18EF1C8F  8  0D 81 16 00 22 00 82 03 
   680)      2889.7  Rx     18EF1C8F  8  0D 82 14 00 0C 00 0F 00 
   681)      2891.4  Rx     18EFCD1C  8  A1 01 00 00 FB FF FF FF 
   682)      2893.9  Rx     19F8051C  8  A0 2F 8A EE 50 26 52 50 
   683)      2894.5  Rx     19F8051C  8  A1 1E 40 6B 91 3C C7 A6 
   684)      2895.0  Rx     19F8051C  8  A2 98 06 C0 31 73 04 F4 
   685)      2895.6  Rx     19F8051C  8  A3 91 CB 02 1B B4 41 08 
   686)      2896.1  Rx     19F8051C  8  A4 00 00 00 00 40 00 0D 
   687)      2896.7  Rx     19F8051C  8  A5 4E 00 85 00 FC 0F 00 
   688)      2897.3  Rx     19F8051C  8  A6 00 01 AF 02 20 03 FF 
   689)      2907.8  Rx     18EF1C8F  8  0D 90 00 DA AA BB 78 FC 
   690)      2908.7  Rx     18EF1C8F  8  0D 91 16 00 22 00 82 03 
   691)      2909.7  Rx     18EF1C8F  8  0D 92 14 00 0C 00 11 00 
   692)      2910.7  Rx     18EFCD1C  8  A0 00 14 00 00 00 00 00 
   693)      2911.3  Rx     18EF1CCD  8  A0 00 14 00 74 07 00 00 
   694)      2921.9  Rx     18EF1CCD  8  A2 00 00 00 00 00 00 00 
   695)      2927.8  Rx     18EF1C8F  8  0D A0 00 F5 F8 BB 78 FC 
   696)      2928.7  Rx     18EF1C8F  8  0D A1 15 00 21 00 82 03 
   697)      2929.3  Rx     18EFCD1C  8  A0 00 2A 00 00 00 00 00 
   698)      2929.9  Rx     18EF1C8F  8  0D A2 15 00 0A 00 0F 00 
   699)      2930.5  Rx     18EF1CCD  8  A0 00 2A 00 82 05 00 00 
   700)      2941.9  Rx     18EF1CCD  8  A3 00 00 00 00 FB FF FB 
   701)      2947.8  Rx     18EF1C8F  8  0D B0 00 15 47 BC 78 FC 
   702)      2948.7  Rx     18EF1C8F  8  0D B1 16 00 22 00 82 03 
   703)      2949.3  Rx     18EFCD1C  8  A0 00 1B 00 00 00 00 00 
   704)      2949.9  Rx     18EF1C8F  8  0D B2 17 00 09 00 0F 00 
   705)      2950.4  Rx     18EF1CCD  8  A0 00 1B 00 00 00 00 00 
   706)      2962.0  Rx     18EF1CCD  8  A1 40 FB FF FF FF 00 00 
   707)      2967.8  Rx     18EF1C8F  8  0D C0 00 35 95 BC 78 FC 
   708)      2968.7  Rx     18EF1C8F  8  0D C1 16 00 22 00 83 03 
   709)      2969.5  Rx     18EFCD1C  8  A0 00 00 00 00 00 00 00 
   710)      2970.1  Rx     18EF1C8F  8  0D C2 16 00 0A 00 0D 00 
   711)      2970.7  Rx     18EF1CCD  8  A0 00 00 00 01 00 00 00 
   712)      2987.8  Rx     18EF1C8F  8  0D D0 00 57 E3 BC 78 FC 
   713)      2988.7  Rx     18EF1C8F  8  0D D1 17 00 22 00 81 03 
   714)      2989.7  Rx     18EF1C8F  8  0D D2 12 00 0A 00 0C 00 
   715)      3007.8  Rx     18EF1C8F  8  0D E0 00 75 31 BD 78 FC 
   716)      3008.7  Rx     18EF1C8F  8  0D E1 16 00 22 00 83 03 
   717)      3009.7  Rx     18EF1C8F  8  0D E2 13 00 0B 00 0E 00 
   718)      3022.1  Rx     18EF1CCD  8  A2 00 00 00 00 00 00 00 
   719)      3027.8  Rx     18EF1C8F  8  0D F0 00 95 7F BD 78 FC 
   720)      3028.7  Rx     18EF1C8F  8  0D F1 14 00 20 00 83 03 
   721)      3029.7  Rx     18EF1C8F  8  0D F2 16 00 09 00 0F 00 
   722)      3042.2  Rx     18EF1CCD  8  A3 00 00 00 00 FB FF FB 
   723)      3047.8  Rx     18EF1C8F  8  0D 00 00 B2 CD BD 78 FC 
   724)      3048.7  Rx     18EF1C8F  8  0D 01 17 00 23 00 85 03 
   725)      3049.7  Rx     18EF1C8F  8  0D 02 15 00 0C 00 0E 00 
   726)      3053.4  Rx     18EF8F1C  4  01 F9 53 00 
   727)      3053.9  Rx     18EF1C8F  4  01 54 F9 00 
   728)      3062.2  Rx     18EF1CCD  8  A1 40 FB FF FF FF 00 00 
   729)      3067.8  Rx     18EF1C8F  8  0D 10 00 D5 1B BE 78 FC 
   730)      3068.7  Rx     18EF1C8F  8  0D 11 17 00 22 00 81 03 
   731)      3069.7  Rx     18EF1C8F  8  0D 12 14 00 0B 00 0F 00 
   732)      3087.8  Rx     18EF1C8F  8  0D 20 00 F5 69 BE 78 FC 
   733)      3088.7  Rx     18EF1C8F  8  0D 21 15 00 23 00 83 03 
   734)      3089.7  Rx     18EF1C8F  8  0D 22 14 00 09 00 0F 00 
   735)      3090.3  Rx     18EFCD1C  8  A1 01 00 00 FB FF FF FF 
   736)      3107.8  Rx     18EF1C8F  8  0D 30 00 15 B8 BE 78 FC 
   737)      3108.7  Rx     18EF1C8F  8  0D 31 16 00 23 00 82 03 
   738)      3109.7  Rx     18EF1C8F  8  0D 32 13 00 0B 00 0D 00 
   739)      3111.2  Rx     18EFCD1C  8  A0 00 14 00 00 00 00 00 
   740)      3111.8  Rx     18EF1CCD  8  A0 00 14 00 75 07 00 00 
   741)      3122.3  Rx     18EF1CCD  8  A2 00 00 00 00 00 00 00 
   742)      3127.8  Rx     18EF1C8F  8  0D 40 00 35 06 BF 78 FC 
   743)      3128.7  Rx     18EF1C8F  8  0D 41 13 00 22 00 81 03 
   744)      3129.3  Rx     18EFCD1C  8  A0 00 2A 00 00 00 00 00 
   745)      3129.8  Rx     18EF1C8F  8  0D 42 14 00 0A 00 0E 00 
   746)      3130.4  Rx     18EF1CCD  8  A0 00 2A 00 83 05 00 00 
   747)      3142.4  Rx     18EF1CCD  8  A3 00 00 00 00 FB FF FB 
   748)      3147.8  Rx     18EF1C8F  8  0D 50 00 55 54 BF 78 FC 
   749)      3148.7  Rx     18EF1C8F  8  0D 51 15 00 23 00 84 03 
   750)      3149.7  Rx     18EF1C8F  8  0D 52 15 00 09 00 0B 00 
   751)      3158.1  Rx     18EFCD1C  8  A0 00 1B 00 00 00 00 00 
   752)      3158.8  Rx     18EF1CCD  8  A0 00 1B 00 00 00 00 00 
   753)      3162.3  Rx     18EF1CCD  8  A1 40 FB FF FF FF 00 00 
   754)      3167.7  Rx     18EF1C8F  8  0D 60 00 75 A2 BF 78 FC 
   755)      3168.7  Rx     18EF1C8F  8  0D 61 16 00 24 00 84 03 
   756)      3169.3  Rx     18EFCD1C  8  A0 00 00 00 00 00 00 00 
   757)      3169.8  Rx     18EF1C8F  8  0D 62 16 00 09 00 0C 00 
   758)      3170.4  Rx     18EF1CCD  8  A0 00 00 00 01 00 00 00 
   759)      3187.8  Rx     18EF1C8F  8  0D 70 00 95 F0 BF 78 FC 
   760)      3188.7  Rx     18EF1C8F  8  0D 71 16 00 22 00 83 03 
   761)      3189.7  Rx     18EF1C8F  8  0D 72 16 00 04 00 10 00 
   762)      3207.7  Rx     18EF1C8F  8  0D 80 00 B5 3E C0 78 FC 
   763)      3208.7  Rx     18EF1C8F  8  0D 81 16 00 22 00 81 03 
   764)      3209.7  Rx     18EF1C8F  8  0D 82 14 00 04 00 10 00 
   765)      3222.5  Rx     18EF1CCD  8  A2 00 00 00 00 00 00 00 
   766)      3227.8  Rx     18EF1C8F  8  0D 90 00 D5 8C C0 78 FC 
   767)      3228.7  Rx     18EF1C8F  8  0D 91 15 00 21 00 81 03 
   768)      3229.7  Rx     18EF1C8F  8  0D 92 15 00 09 00 0D 00 
   769)      3242.5  Rx     18EF1CCD  8  A3 00 00 00 00 FB FF FB 
   770)      3247.7  Rx     18EF1C8F  8  0D A0 00 F5 DA C0 78 FC 
   771)      3248.6  Rx     18EF1C8F  8  0D A1 17 00 24 00 82 03 
   772)      3249.7  Rx     18EF1C8F  8  0D A2 14 00 0D 00 0B 00 
   773)      3262.6  Rx     18EF1CCD  8  A1 40 FB FF FF FF 00 00 
   774)      3267.7  Rx     18EF1C8F  8  0D B0 00 15 29 C1 78 FC 
   775)      3268.7  Rx     18EF1C8F  8  0D B1 17 00 24 00 86 03 
   776)      3269.6  Rx     18EF1C8F  8  0D B2 13 00 0C 00 0C 00 
   777)      3287.7  Rx     18EF1C8F  8  0D C0 00 35 77 C1 78 FC 
   778)      3288.6  Rx     18EF1C8F  8  0D C1 18 00 22 00 83 03 
   779)      3289.6  Rx     18EFCD1C  8  A1 01 00 00 FB FF FF FF 
   780)      3290.1  Rx     18EF1C8F  8  0D C2 12 00 0B 00 10 00 
   781)      3307.7  Rx     18EF1C8F  8  0D D0 00 55 C5 C1 78 FC 
   782)      3308.7  Rx     18EF1C8F  8  0D D1 17 00 21 00 84 03 
   783)      3309.6  Rx     18EF1C8F  8  0D D2 14 00 09 00 10 00 
   784)      3310.6  Rx     18EFCD1C  8  A0 00 14 00 00 00 00 00 
   785)      3311.3  Rx     18EF1CCD  8  A0 00 14 00 75 07 00 00 
   786)      3322.7  Rx     18EF1CCD  8  A2 00 00 00 00 00 00 00 
   787)      3327.7  Rx     18EF1C8F  8  0D E0 00 75 13 C2 78 FC 
   788)      3328.6  Rx     18EF1C8F  8  0D E1 18 00 23 00 80 03 
   789)      3329.6  Rx     18EF1C8F  8  0D E2 16 00 09 00 10 00 
   790)      3331.3  Rx     18EFCD1C  8  A0 00 2A 00 00 00 00 00 
   791)      3332.0  Rx     18EF1CCD  8  A0 00 2A 00 83 05 00 00 
   792)      3342.7  Rx     18EF1CCD  8  A3 00 00 00 00 FB FF FB 
   793)      3347.7  Rx     18EF1C8F  8  0D F0 00 97 61 C2 78 FC 
   794)      3348.6  Rx     18EF1C8F  8  0D F1 16 00 22 00 82 03 
   795)      3349.2  Rx     18EFCD1C  8  A0 00 1B 00 00 00 00 00 
   796)      3349.8  Rx     18EF1C8F  8  0D F2 15 00 0A 00 0F 00 
   797)      3350.4  Rx     18EF1CCD  8  A0 00 1B 00 00 00 00 00 
   798)      3362.8  Rx     18EF1CCD  8  A1 40 FB FF FF FF 00 00 
   799)      3367.7  Rx     18EF1C8F  8  0D 00 00 B5 AF C2 78 FC 
   800)      3368.6  Rx     18EF1C8F  8  0D 01 16 00 21 00 83 03 
   801)      3369.2  Rx     18EFCD1C  8  A0 00 00 00 00 00 00 00 
   802)      3369.8  Rx     18EF1C8F  8  0D 02 15 00 0B 00 0D 00 
   803)      3370.3  Rx     18EF1CCD  8  A0 00 00 00 01 00 00 00 
   804)      3387.7  Rx     18EF1C8F  8  0D 10 00 D5 FD C2 78 FC 
   805)      3388.6  Rx     18EF1C8F  8  0D 11 16 00 23 00 84 03 
   806)      3389.6  Rx     18EF1C8F  8  0D 12 14 00 0C 00 0E 00 
   807)      3407.7  Rx     18EF1C8F  8  0D 20 00 F5 4B C3 78 FC 
   808)      3408.6  Rx     18EF1C8F  8  0D 21 15 00 22 00 82 03 
   809)      3409.6  Rx     18EF1C8F  8  0D 22 16 00 0B 00 0E 00 
   810)      3422.9  Rx     18EF1CCD  8  A2 00 00 00 00 00 00 00 
   811)      3427.7  Rx     18EF1C8F  8  0D 30 00 15 9A C3 78 FC 
   812)      3428.6  Rx     18EF1C8F  8  0D 31 15 00 23 00 81 03 
   813)      3429.7  Rx     18EF1C8F  8  0D 32 14 00 0A 00 0E 00 
   814)      3443.0  Rx     18EF1CCD  8  A3 00 00 00 00 FB FF FB 
   815)      3447.7  Rx     18EF1C8F  8  0D 40 00 35 E8 C3 78 FC 
   816)      3448.6  Rx     18EF1C8F  8  0D 41 16 00 22 00 81 03 
   817)      3449.6  Rx     18EF1C8F  8  0D 42 15 00 0A 00 0F 00 
   818)      3463.0  Rx     18EF1CCD  8  A1 40 FB FF FF FF 00 00 
   819)      3467.7  Rx     18EF1C8F  8  0D 50 00 55 36 C4 78 FC 
   820)      3468.6  Rx     18EF1C8F  8  0D 51 17 00 21 00 84 03 
   821)      3469.6  Rx     18EF1C8F  8  0D 52 14 00 0C 00 0E 00 
   822)      3487.7  Rx     18EF1C8F  8  0D 60 00 75 84 C4 78 FC 
   823)      3488.6  Rx     18EF1C8F  8  0D 61 18 00 22 00 83 03 
   824)      3489.6  Rx     18EF1C8F  8  0D 62 14 00 0B 00 0E 00 
   825)      3490.2  Rx     18EFCD1C  8  A1 01 00 00 FB FF FF FF 
   826)      3507.7  Rx     18EF1C8F  8  0D 70 00 95 D2 C4 78 FC 
   827)      3508.6  Rx     18EF1C8F  8  0D 71 16 00 22 00 83 03 
   828)      3509.4  Rx     18EFCD1C  8  A0 00 14 00 00 00 00 00 
   829)      3510.0  Rx     18EF1C8F  8  0D 72 14 00 0A 00 0C 00 
   830)      3510.6  Rx     18EF1CCD  8  A0 00 14 00 75 07 00 00 
   831)      3523.1  Rx     18EF1CCD  8  A2 00 00 00 00 00 00 00 
   832)      3527.7  Rx     18EF1C8F  8  0D 80 00 B5 20 C5 78 FC 
   833)      3528.6  Rx     18EF1C8F  8  0D 81 16 00 22 00 85 03 
   834)      3529.6  Rx     18EF1C8F  8  0D 82 15 00 09 00 0D 00 
   835)      3531.0  Rx     18EFCD1C  8  A0 00 2A 00 00 00 00 00 
   836)      3531.6  Rx     18EF1CCD  8  A0 00 2A 00 82 05 00 00 
   837)      3543.1  Rx     18EF1CCD  8  A3 00 00 00 00 FB FF FB 
   838)      3547.7  Rx     18EF1C8F  8  0D 90 00 D5 6E C5 78 FC 
   839)      3548.6  Rx     18EF1C8F  8  0D 91 17 00 22 00 85 03 
   840)      3549.6  Rx     18EF1C8F  8  0D 92 13 00 0B 00 0E 00 
   841)      3551.1  Rx     18EFCD1C  8  A0 00 1B 00 00 00 00 00 
   842)      3551.7  Rx     18EF1CCD  8  A0 00 1B 00 00 00 00 00 
   843)      3563.2  Rx     18EF1CCD  8  A1 40 FB FF FF FF 00 00 
   844)      3567.7  Rx     18EF1C8F  8  0D A0 00 F5 BC C5 78 FC 
   845)      3568.6  Rx     18EF1C8F  8  0D A1 15 00 24 00 85 03 
   846)      3569.2  Rx     18EFCD1C  8  A0 00 00 00 00 00 00 00 
   847)      3569.8  Rx     18EF1C8F  8  0D A2 13 00 0C 00 0E 00 
   848)      3570.3  Rx     18EF1CCD  8  A0 00 00 00 01 00 00 00 
   849)      3587.7  Rx     18EF1C8F  8  0D B0 00 15 0B C6 78 FC 
   850)      3588.6  Rx     18EF1C8F  8  0D B1 15 00 24 00 82 03 
   851)      3589.6  Rx     18EF1C8F  8  0D B2 14 00 0C 00 0D 00 
   852)      3607.7  Rx     18EF1C8F  8  0D C0 00 35 59 C6 78 FC 
   853)      3608.6  Rx     18EF1C8F  8  0D C1 16 00 22 00 82 03 
   854)      3609.6  Rx     18EF1C8F  8  0D C2 15 00 08 00 11 00 
   855)      3623.3  Rx     18EF1CCD  8  A2 00 00 00 00 00 00 00 
   856)      3627.7  Rx     18EF1C8F  8  0D D0 00 55 A7 C6 78 FC 
   857)      3628.6  Rx     18EF1C8F  8  0D D1 17 00 22 00 83 03 
   858)      3629.6  Rx     18EF1C8F  8  0D D2 14 00 07 00 0F 00 
   859)      3643.3  Rx     18EF1CCD  8  A3 00 00 00 00 FB FF FB 
   860)      3647.7  Rx     18EF1C8F  8  0D E0 00 75 F5 C6 78 FC 
   861)      3648.6  Rx     18EF1C8F  8  0D E1 14 00 22 00 84 03 
   862)      3649.6  Rx     18EF1C8F  8  0D E2 15 00 0A 00 0E 00 
   863)      3663.4  Rx     18EF1CCD  8  A1 40 FB FF FF FF 00 00 
   864)      3667.7  Rx     18EF1C8F  8  0D F0 00 95 43 C7 79 FC 
   865)      3668.6  Rx     18EF1C8F  8  0D F1 16 00 23 00 85 03 
   866)      3669.6  Rx     18EF1C8F  8  0D F2 13 00 09 00 0E 00 
   867)      3687.6  Rx     18EF1C8F  8  0D 00 00 B5 91 C7 78 FC 
   868)      3688.6  Rx     18EF1C8F  8  0D 01 16 00 23 00 82 03 
   869)      3689.6  Rx     18EF1C8F  8  0D 02 15 00 0B 00 0E 00 
   870)      3690.2  Rx     18EFCD1C  8  A1 01 00 00 FB FF FF FF 
   871)      3707.7  Rx     18EF1C8F  8  0D 10 00 D2 DF C7 78 FC 
   872)      3708.6  Rx     18EF1C8F  8  0D 11 14 00 23 00 82 03 
   873)      3709.1  Rx     18EFCD1C  8  A0 00 14 00 00 00 00 00 
   874)      3709.7  Rx     18EF1C8F  8  0D 12 16 00 0A 00 0E 00 
   875)      3710.3  Rx     18EF1CCD  8  A0 00 14 00 75 07 00 00 
   876)      3723.5  Rx     18EF1CCD  8  A2 00 00 00 00 00 00 00 
   877)      3727.6  Rx     18EF1C8F  8  0D 20 00 F7 2D C8 78 FC 
   878)      3728.6  Rx     18EF1C8F  8  0D 21 15 00 21 00 83 03 
   879)      3729.6  Rx     18EF1C8F  8  0D 22 14 00 0A 00 0D 00 
   880)      3730.1  Rx     18EFCD1C  8  A0 00 2A 00 00 00 00 00 
   881)      3730.8  Rx     18EF1CCD  8  A0 00 2A 00 83 05 00 00 
   882)      3743.5  Rx     18EF1CCD  8  A3 00 00 00 00 FB FF FB 
   883)      3747.7  Rx     18EF1C8F  8  0D 30 00 15 7C C8 78 FC 
   884)      3748.6  Rx     18EF1C8F  8  0D 31 16 00 24 00 84 03 
   885)      3749.5  Rx     18EF1C8F  8  0D 32 13 00 0B 00 0B 00 
   886)      3750.8  Rx     18EFCD1C  8  A0 00 1B 00 00 00 00 00 
   887)      3751.5  Rx     18EF1CCD  8  A0 00 1B 00 00 00 00 00 
   888)      3763.5  Rx     18EF1CCD  8  A1 40 FB FF FF FF 00 00 
   889)      3767.6  Rx     18EF1C8F  8  0D 40 00 37 CA C8 78 FC 
   890)      3768.6  Rx     18EF1C8F  8  0D 41 15 00 23 00 83 03 
   891)      3769.1  Rx     18EFCD1C  8  A0 00 00 00 00 00 00 00 
   892)      3769.7  Rx     18EF1C8F  8  0D 42 15 00 0A 00 09 00 
   893)      3770.3  Rx     18EF1CCD  8  A0 00 00 00 01 00 00 00 
   894)      3787.6  Rx     18EF1C8F  8  0D 50 00 55 18 C9 78 FC 
   895)      3788.6  Rx     18EF1C8F  8  0D 51 14 00 23 00 83 03 
   896)      3789.5  Rx     18EF1C8F  8  0D 52 16 00 0A 00 0E 00 
   897)      3807.6  Rx     18EF1C8F  8  0D 60 00 75 66 C9 78 FC 
   898)      3808.5  Rx     18EF1C8F  8  0D 61 16 00 22 00 82 03 
   899)      3809.6  Rx     18EF1C8F  8  0D 62 14 00 0A 00 0F 00 
   900)      3823.7  Rx     18EF1CCD  8  A2 00 00 00 00 00 00 00 
   901)      3827.6  Rx     18EF1C8F  8  0D 70 00 95 B4 C9 78 FC 
   902)      3828.5  Rx     18EF1C8F  8  0D 71 16 00 23 00 83 03 
   903)      3829.5  Rx     18EF1C8F  8  0D 72 16 00 08 00 0F 00 
   904)      3830.5  Rx     18FEF31C  8  EF 28 80 99 AD CE 2C 89 
   905)      3831.0  Rx     18FEE81C  8  97 4F 07 00 00 00 2C 51 
   906)      3831.6  Rx     18FEE61C  8  9C 07 0E 09 57 29 00 00 
   907)      3832.2  Rx     19F8021C  8  8F FC 86 6C 00 00 FF FF 
   908)      3843.7  Rx     18EF1CCD  8  A3 00 00 00 00 FB FF FB 
   909)      3847.6  Rx     18EF1C8F  8  0D 80 00 B7 02 CA 79 FC 
   910)      3848.5  Rx     18EF1C8F  8  0D 81 16 00 22 00 84 03 
   911)      3849.6  Rx     18EF1C8F  8  0D 82 14 00 08 00 0E 00 
   912)      3863.7  Rx     18EF1CCD  8  A1 40 FB FF FF FF 00 00 
   913)      3867.6  Rx     18EF1C8F  8  0D 90 00 D5 50 CA 78 FC 
   914)      3868.5  Rx     18EF1C8F  8  0D 91 17 00 22 00 84 03 
   915)      3869.5  Rx     18EF1C8F  8  0D 92 14 00 09 00 0D 00 
   916)      3887.6  Rx     18EF1C8F  8  0D A0 00 F2 9E CA 78 FC 
   917)      3888.5  Rx     18EF1C8F  8  0D A1 16 00 23 00 83 03 
   918)      3889.5  Rx     18EFCD1C  8  A1 01 00 00 FB FF FF FF 
   919)      3890.1  Rx     18EF1C8F  8  0D A2 15 00 07 00 0D 00 
   920)      3901.6  Rx     19F8051C  8  C0 2F 8F EE 50 36 79 50 
   921)      3902.2  Rx     19F8051C  8  C1 1E 40 A5 CC 5D C7 A6 
   922)      3902.8  Rx     19F8051C  8  C2 98 06 40 41 C0 F7 F3 
   923)      3903.3  Rx     19F8051C  8  C3 91 CB 02 3D B7 41 08 
   924)      3903.9  Rx     19F8051C  8  C4 00 00 00 00 40 00 0D 
   925)      3904.5  Rx     19F8051C  8  C5 4E 00 85 00 FC 0F 00 
   926)      3905.1  Rx     19F8051C  8  C6 00 01 AF 02 F4 01 FF 
   927)      3907.6  Rx     18EF1C8F  8  0D B0 00 1A ED CA 78 FC 
   928)      3908.5  Rx     18EF1C8F  8  0D B1 16 00 22 00 85 03 
   929)      3909.1  Rx     18EFCD1C  8  A0 00 14 00 00 00 00 00 
   930)      3909.7  Rx     18EF1C8F  8  0D B2 16 00 08 00 0E 00 
   931)      3910.2  Rx     18EF1CCD  8  A0 00 14 00 75 07 00 00 
   932)      3923.8  Rx     18EF1CCD  8  A2 00 00 00 00 00 00 00 
   933)      3927.6  Rx     18EF1C8F  8  0D C0 00 35 3B CB 78 FC 
   934)      3928.5  Rx     18EF1C8F  8  0D C1 17 00 22 00 82 03 
   935)      3929.3  Rx     18EFCD1C  8  A0 00 2A 00 00 00 00 00 
   936)      3929.9  Rx     18EF1C8F  8  0D C2 14 00 0A 00 0D 00 
   937)      3930.4  Rx     18EF1CCD  8  A0 00 2A 00 82 05 00 00 
   938)      3943.9  Rx     18EF1CCD  8  A3 00 00 00 00 FB FF FB 
   939)      3947.6  Rx     18EF1C8F  8  0D D0 00 57 89 CB 78 FC 
   940)      3948.5  Rx     18EF1C8F  8  0D D1 15 00 22 00 84 03 
   941)      3949.5  Rx     18EF1C8F  8  0D D2 15 00 0B 00 0D 00 
   942)      3950.1  Rx     18EFCD1C  8  A0 00 1B 00 00 00 00 00 
   943)      3950.8  Rx     18EF1CCD  8  A0 00 1B 00 00 00 00 00 
   944)      3963.9  Rx     18EF1CCD  8  A1 40 FB FF FF FF 00 00 
   945)      3967.6  Rx     18EF1C8F  8  0D E0 00 75 D7 CB 78 FC 
   946)      3968.5  Rx     18EF1C8F  8  0D E1 19 00 22 00 84 03 
   947)      3969.5  Rx     18EF1C8F  8  0D E2 14 00 0C 00 0D 00 
   948)      3970.8  Rx     18EFCD1C  8  A0 00 00 00 00 00 00 00 
   949)      3971.4  Rx     18EF1CCD  8  A0 00 00 00 01 00 00 00 
   950)      3987.6  Rx     18EF1C8F  8  0D F0 00 95 25 CC 78 FC 
   951)      3988.5  Rx     18EF1C8F  8  0D F1 17 00 24 00 84 03 
   952)      3989.5  Rx     18EF1C8F  8  0D F2 14 00 09 00 0E 00 
   953)      4007.6  Rx     18EF1C8F  8  0D 00 00 B5 73 CC 78 FC 
   954)      4008.5  Rx     18EF1C8F  8  0D 01 17 00 23 00 84 03 
   955)      4009.5  Rx     18EF1C8F  8  0D 02 15 00 0A 00 10 00 
   956)      4024.1  Rx     18EF1CCD  8  A2 00 00 00 00 00 00 00 
   957)      4027.6  Rx     18EF1C8F  8  0D 10 00 D5 C1 CC 78 FC 
   958)      4028.5  Rx     18EF1C8F  8  0D 11 16 00 23 00 84 03 
   959)      4029.5  Rx     18EF1C8F  8  0D 12 15 00 09 00 0E 00 
   960)      4044.1  Rx     18EF1CCD  8  A3 00 00 00 00 FB FF FB 
   961)      4047.6  Rx     18EF1C8F  8  0D 20 00 F5 0F CD 78 FC 
   962)      4048.5  Rx     18EF1C8F  8  0D 21 18 00 24 00 83 03 
   963)      4049.5  Rx     18EF1C8F  8  0D 22 16 00 0C 00 0E 00 
   964)      4064.2  Rx     18EF1CCD  8  A1 40 FB FF FF FF 00 00 
   965)      4067.6  Rx     18EF1C8F  8  0D 30 00 15 5E CD 78 FC 
   966)      4068.5  Rx     18EF1C8F  8  0D 31 17 00 23 00 82 03 
   967)      4069.5  Rx     18EF1C8F  8  0D 32 14 00 0C 00 0E 00 
   968)      4087.6  Rx     18EF1C8F  8  0D 40 00 32 AC CD 78 FC 
   969)      4088.5  Rx     18EF1C8F  8  0D 41 17 00 22 00 85 03 
   970)      4089.4  Rx     18EFCD1C  8  A1 01 00 00 FB FF FF FF 
   971)      4090.0  Rx     18EF1C8F  8  0D 42 16 00 07 00 0E 00 
   972)      4107.6  Rx     18EF1C8F  8  0D 50 00 57 FA CD 78 FC 
   973)      4108.5  Rx     18EF1C8F  8  0D 51 17 00 22 00 83 03 
   974)      4109.1  Rx     18EFCD1C  8  A0 00 14 00 00 00 00 00 
   975)      4109.7  Rx     18EF1C8F  8  0D 52 13 00 09 00 0E 00 
   976)      4110.3  Rx     18EF1CCD  8  A0 00 14 00 75 07 00 00 
   977)      4124.3  Rx     18EF1CCD  8  A2 00 00 00 00 00 00 00 
   978)      4127.6  Rx     18EF1C8F  8  0D 60 00 72 48 CE 78 FC 
   979)      4128.5  Rx     18EF1C8F  8  0D 61 17 00 22 00 83 03 
   980)      4129.5  Rx     18EF1C8F  8  0D 62 16 00 0C 00 0C 00 
   981)      4130.1  Rx     18EFCD1C  8  A0 00 2A 00 00 00 00 00 
   982)      4130.7  Rx     18EF1CCD  8  A0 00 2A 00 82 05 00 00 
   983)      4144.4  Rx     18EF1CCD  8  A3 00 00 00 00 FB FF FB 
   984)      4147.6  Rx     18EF1C8F  8  0D 70 00 97 96 CE 78 FC 
   985)      4148.5  Rx     18EF1C8F  8  0D 71 15 00 22 00 82 03 
   986)      4149.1  Rx     18EFCD1C  8  A0 00 1B 00 00 00 00 00 
   987)      4149.7  Rx     18EF1C8F  8  0D 72 13 00 0B 00 0D 00 
   988)      4150.3  Rx     18EF1CCD  8  A0 00 1B 00 00 00 00 00 
   989)      4164.4  Rx     18EF1CCD  8  A1 40 FB FF FF FF 00 00 
   990)      4167.6  Rx     18EF1C8F  8  0D 80 00 B5 E4 CE 78 FC 
   991)      4168.6  Rx     18EF1C8F  8  0D 81 16 00 21 00 83 03 
   992)      4169.5  Rx     18EF1C8F  8  0D 82 13 00 0A 00 0D 00 
   993)      4170.1  Rx     18EFCD1C  8  A0 00 00 00 00 00 00 00 
   994)      4170.7  Rx     18EF1CCD  8  A0 00 00 00 01 00 00 00 
   995)      4187.6  Rx     18EF1C8F  8  0D 90 00 D5 32 CF 78 FC 
   996)      4188.5  Rx     18EF1C8F  8  0D 91 16 00 22 00 84 03 
   997)      4189.5  Rx     18EF1C8F  8  0D 92 13 00 0A 00 0F 00 
   998)      4207.6  Rx     18EF1C8F  8  0D A0 00 F5 80 CF 78 FC 
   999)      4208.6  Rx     18EF1C8F  8  0D A1 15 00 23 00 81 03 
  1000)      4209.5  Rx     18EF1C8F  8  0D A2 13 00 0B 00 0E 00 
  1001)      4224.6  Rx     18EF1CCD  8  A2 00 00 00 00 00 00 00 
  1002)      4227.7  Rx     18EF1C8F  8  0D B0 00 15 CF CF 78 FC 
  1003)      4228.5  Rx     18EF1C8F  8  0D B1 16 00 23 00 82 03 
  1004)      4229.6  Rx     18EF1C8F  8  0D B2 12 00 0D 00 0E 00 
  1005)      4244.6  Rx     18EF1CCD  8  A3 00 00 00 00 FB FF FB 
  1006)      4247.6  Rx     18EF1C8F  8  0D C0 00 35 1D D0 78 FC 
  1007)      4248.6  Rx     18EF1C8F  8  0D C1 15 00 24 00 83 03 
  1008)      4249.5  Rx     18EF1C8F  8  0D C2 12 00 0C 00 0F 00 
  1009)      4264.7  Rx     18EF1CCD  8  A1 40 FB FF FF FF 00 00 
  1010)      4267.7  Rx     18EF1C8F  8  0D D0 00 55 6B D0 78 FC 
  1011)      4268.5  Rx     18EF1C8F  8  0D D1 16 00 21 00 84 03 
  1012)      4269.6  Rx     18EF1C8F  8  0D D2 15 00 0A 00 0F 00 
  1013)      4287.7  Rx     18EF1C8F  8  0D E0 00 75 B9 D0 78 FC 
  1014)      4288.6  Rx     18EF1C8F  8  0D E1 15 00 22 00 84 03 
  1015)      4289.3  Rx     18EFCD1C  8  A1 01 00 00 FB FF FF FF 
  1016)      4289.9  Rx     18EF1C8F  8  0D E2 13 00 0C 00 0E 00 
  1017)      4307.7  Rx     18EF1C8F  8  0D F0 00 92 07 D1 78 FC 
  1018)      4308.6  Rx     18EF1C8F  8  0D F1 13 00 22 00 82 03 
  1019)      4309.1  Rx     18EFCD1C  8  A0 00 14 00 00 00 00 00 
  1020)      4309.7  Rx     18EF1C8F  8  0D F2 13 00 0A 00 0D 00 
  1021)      4310.3  Rx     18EF1CCD  8  A0 00 14 00 74 07 00 00 
  1022)      4324.8  Rx     18EF1CCD  8  A2 00 00 00 00 00 00 00 
  1023)      4327.7  Rx     18EF1C8F  8  0D 00 00 B7 55 D1 78 FC 
  1024)      4328.6  Rx     18EF1C8F  8  0D 01 16 00 21 00 83 03 
  1025)      4329.2  Rx     18EFCD1C  8  A0 00 2A 00 00 00 00 00 
  1026)      4329.7  Rx     18EF1C8F  8  0D 02 14 00 0A 00 0D 00 
  1027)      4330.3  Rx     18EF1CCD  8  A0 00 2A 00 82 05 00 00 
  1028)      4344.8  Rx     18EF1CCD  8  A3 00 00 00 00 FB FF FB 
  1029)      4347.7  Rx     18EF1C8F  8  0D 10 00 D2 A3 D1 79 FC 
  1030)      4348.6  Rx     18EF1C8F  8  0D 11 17 00 23 00 84 03 
  1031)      4349.1  Rx     18EFCD1C  8  A0 00 1B 00 00 00 00 00 
  1032)      4349.7  Rx     18EF1C8F  8  0D 12 14 00 0A 00 0D 00 
  1033)      4350.3  Rx     18EF1CCD  8  A0 00 1B 00 00 00 00 00 
  1034)      4364.9  Rx     18EF1CCD  8  A1 40 FB FF FF FF 00 00 
  1035)      4367.7  Rx     18EF1C8F  8  0D 20 00 F7 F1 D1 79 FC 
  1036)      4368.6  Rx     18EF1C8F  8  0D 21 15 00 22 00 82 03 
  1037)      4369.6  Rx     18EFCD1C  8  A0 00 00 00 00 00 00 00 
  1038)      4370.1  Rx     18EF1C8F  8  0D 22 15 00 0A 00 0F 00 
  1039)      4370.7  Rx     18EF1CCD  8  A0 00 00 00 01 00 00 00 
  1040)      4387.6  Rx     18EF1C8F  8  0D 30 00 15 40 D2 78 FC 
  1041)      4388.6  Rx     18EF1C8F  8  0D 31 16 00 21 00 84 03 
  1042)      4389.6  Rx     18EF1C8F  8  0D 32 14 00 09 00 10 00 
  1043)      4407.7  Rx     18EF1C8F  8  0D 40 00 35 8E D2 78 FC 
  1044)      4408.6  Rx     18EF1C8F  8  0D 41 18 00 23 00 82 03 
  1045)      4409.6  Rx     18EF1C8F  8  0D 42 15 00 0A 00 0E 00 
  1046)      4425.1  Rx     18EF1CCD  8  A2 00 00 00 00 00 00 00 
  1047)      4427.7  Rx     18EF1C8F  8  0D 50 00 55 DC D2 78 FC 
  1048)      4428.6  Rx     18EF1C8F  8  0D 51 15 00 21 00 82 03 
  1049)      4429.6  Rx     18EF1C8F  8  0D 52 15 00 09 00 10 00 
  1050)      4445.1  Rx     18EF1CCD  8  A3 00 00 00 00 FB FF FB 
  1051)      4447.7  Rx     18EF1C8F  8  0D 60 00 72 2A D3 78 FC 
  1052)      4448.6  Rx     18EF1C8F  8  0D 61 16 00 22 00 84 03 
  1053)      4449.6  Rx     18EF1C8F  8  0D 62 15 00 0A 00 0E 00 
  1054)      4465.2  Rx     18EF1CCD  8  A1 40 FB FF FF FF 00 00 
  1055)      4467.7  Rx     18EF1C8F  8  0D 70 00 95 78 D3 78 FC 
  1056)      4468.6  Rx     18EF1C8F  8  0D 71 16 00 23 00 84 03 
  1057)      4469.6  Rx     18EF1C8F  8  0D 72 14 00 0B 00 0C 00 
  1058)      4487.7  Rx     18EF1C8F  8  0D 80 00 B5 C6 D3 78 FC 
  1059)      4488.6  Rx     18EF1C8F  8  0D 81 16 00 23 00 83 03 
  1060)      4489.3  Rx     18EFCD1C  4  01 A9 5A 00 
  1061)      4489.9  Rx     18EF1C8F  8  0D 82 14 00 0D 00 0E 00 
  1062)      4490.3  Rx     18EF1CCD  4  01 5B A9 00 
  1063)      4490.9  Rx     18EFCD1C  8  A1 01 00 00 FB FF FF FF 
  1064)      4507.7  Rx     18EF1C8F  8  0D 90 00 D5 14 D4 78 FC 
  1065)      4508.6  Rx     18EF1C8F  8  0D 91 17 00 23 00 82 03 
  1066)      4509.2  Rx     18EFCD1C  8  A0 00 14 00 00 00 00 00 
  1067)      4509.7  Rx     18EF1C8F  8  0D 92 13 00 0A 00 0E 00 
  1068)      4510.3  Rx     18EF1CCD  8  A0 00 14 00 75 07 00 00 
  1069)      4525.3  Rx     18EF1CCD  8  A2 00 00 00 00 00 00 00 
  1070)      4527.7  Rx     18EF1C8F  8  0D A0 00 F5 62 D4 78 FC 
  1071)      4528.6  Rx     18EF1C8F  8  0D A1 17 00 23 00 83 03 
  1072)      4529.2  Rx     18EFCD1C  8  A0 00 2A 00 00 00 00 00 
  1073)      4529.7  Rx     18EF1C8F  8  0D A2 15 00 08 00 0D 00 
  1074)      4530.3  Rx     18EF1CCD  8  A0 00 2A 00 82 05 00 00 
  1075)      4545.3  Rx     18EF1CCD  8  A3 00 00 00 00 FB FF FB 
  1076)      4547.7  Rx     18EF1C8F  8  0D B0 00 15 B1 D4 78 FC 
  1077)      4548.6  Rx     18EF1C8F  8  0D B1 16 00 23 00 84 03 
  1078)      4549.2  Rx     18EFCD1C  8  A0 00 1B 00 00 00 00 00 
  1079)      4549.8  Rx     18EF1C8F  8  0D B2 15 00 05 00 10 00 
  1080)      4550.3  Rx     18EF1CCD  8  A0 00 1B 00 00 00 00 00 
  1081)      4565.4  Rx     18EF1CCD  8  A1 40 FB FF FF FF 00 00 
  1082)      4567.7  Rx     18EF1C8F  8  0D C0 00 35 FF D4 78 FC 
  1083)      4568.6  Rx     18EF1C8F  8  0D C1 15 00 21 00 83 03 
  1084)      4569.2  Rx     18EFCD1C  8  A0 00 00 00 00 00 00 00 
  1085)      4569.7  Rx     18EF1C8F  8  0D C2 16 00 07 00 0E 00 
  1086)      4570.3  Rx     18EF1CCD  8  A0 00 00 00 01 00 00 00 
  1087)      4587.7  Rx     18EF1C8F  8  0D D0 00 52 4D D5 78 FC 
  1088)      4588.6  Rx     18EF1C8F  8  0D D1 17 00 22 00 85 03 
  1089)      4589.6  Rx     18EF1C8F  8  0D D2 13 00 0A 00 0D 00 
  1090)      4607.7  Rx     18EF1C8F  8  0D E0 00 75 9B D5 78 FC 
  1091)      4608.6  Rx     18EF1C8F  8  0D E1 17 00 22 00 83 03 
  1092)      4609.6  Rx     18EF1C8F  8  0D E2 14 00 0B 00 0E 00 
  1093)      4625.5  Rx     18EF1CCD  8  A2 00 00 00 00 00 00 00 
  1094)      4627.7  Rx     18EF1C8F  8  0D F0 00 95 E9 D5 78 FC 
  1095)      4628.6  Rx     18EF1C8F  8  0D F1 16 00 23 00 83 03 
  1096)      4629.6  Rx     18EF1C8F  8  0D F2 14 00 09 00 0D 00 
  1097)      4645.6  Rx     18EF1CCD  8  A3 00 00 00 00 FB FF FB 
  1098)      4647.7  Rx     18EF1C8F  8  0D 00 00 B5 37 D6 79 FC 
  1099)      4648.6  Rx     18EF1C8F  8  0D 01 17 00 24 00 84 03 
  1100)      4649.7  Rx     18EF1C8F  8  0D 02 15 00 0A 00 0E 00 
  1101)      4665.6  Rx     18EF1CCD  8  A1 40 FB FF FF FF 00 00 
  1102)      4667.7  Rx     18EF1C8F  8  0D 10 00 D5 85 D6 78 FC 
  1103)      4668.6  Rx     18EF1C8F  8  0D 11 17 00 22 00 83 03 
  1104)      4669.6  Rx     18EF1C8F  8  0D 12 14 00 08 00 0E 00 
  1105)      4687.7  Rx     18EF1C8F  8  0D 20 00 F5 D3 D6 78 FC 
  1106)      4688.6  Rx     18EF1C8F  8  0D 21 16 00 23 00 85 03 
  1107)      4689.4  Rx     18EFCD1C  8  A1 01 00 00 FB FF FF FF 
  1108)      4690.0  Rx     18EF1C8F  8  0D 22 13 00 0B 00 0F 00 
  1109)      4707.7  Rx     18EF1C8F  8  0D 30 00 15 22 D7 78 FC 
  1110)      4708.7  Rx     18EF1C8F  8  0D 31 17 00 22 00 84 03 
  1111)      4709.2  Rx     18EFCD1C  8  A0 00 14 00 00 00 00 00 
  1112)      4709.8  Rx     18EF1C8F  8  0D 32 15 00 0B 00 0F 00 
  1113)      4710.3  Rx     18EF1CCD  8  A0 00 14 00 75 07 00 00 
  1114)      4725.7  Rx     18EF1CCD  8  A2 00 00 00 00 00 00 00 
  1115)      4727.7  Rx     18EF1C8F  8  0D 40 00 35 70 D7 78 FC 
  1116)      4728.6  Rx     18EF1C8F  8  0D 41 17 00 22 00 83 03 
  1117)      4729.2  Rx     18EFCD1C  8  A0 00 2A 00 00 00 00 00 
  1118)      4729.8  Rx     18EF1C8F  8  0D 42 14 00 09 00 0C 00 
  1119)      4730.3  Rx     18EF1CCD  8  A0 00 2A 00 82 05 00 00 
  1120)      4745.8  Rx     18EF1CCD  8  A3 00 00 00 00 FB FF FB 
  1121)      4747.7  Rx     18EF1C8F  8  0D 50 00 55 BE D7 78 FC 
  1122)      4748.7  Rx     18EF1C8F  8  0D 51 17 00 24 00 82 03 
  1123)      4749.3  Rx     18EFCD1C  8  A0 00 1B 00 00 00 00 00 
  1124)      4749.8  Rx     18EF1C8F  8  0D 52 14 00 0A 00 0E 00 
  1125)      4750.4  Rx     18EF1CCD  8  A0 00 1B 00 00 00 00 00 
  1126)      4765.8  Rx     18EF1CCD  8  A1 40 FB FF FF FF 00 00 
  1127)      4767.7  Rx     18EF1C8F  8  0D 60 00 75 0C D8 78 FC 
  1128)      4768.6  Rx     18EF1C8F  8  0D 61 17 00 23 00 83 03 
  1129)      4769.2  Rx     18EFCD1C  8  A0 00 00 00 00 00 00 00 
  1130)      4769.8  Rx     18EF1C8F  8  0D 62 14 00 0C 00 10 00 
  1131)      4770.4  Rx     18EF1CCD  8  A0 00 00 00 01 00 00 00 
  1132)      4787.8  Rx     18EF1C8F  8  0D 70 00 95 5A D8 78 FC 
  1133)      4788.7  Rx     18EF1C8F  8  0D 71 17 00 22 00 85 03 
  1134)      4789.7  Rx     18EF1C8F  8  0D 72 14 00 0B 00 10 00 
  1135)      4807.7  Rx     18EF1C8F  8  0D 80 00 B5 A8 D8 78 FC 
  1136)      4808.7  Rx     18EF1C8F  8  0D 81 15 00 23 00 82 03 
  1137)      4809.7  Rx     18EF1C8F  8  0D 82 14 00 09 00 0F 00 
  1138)      4826.0  Rx     18EF1CCD  8  A2 00 00 00 00 00 00 00 
  1139)      4827.8  Rx     18EF1C8F  8  0D 90 00 D5 F6 D8 79 FC 
  1140)      4828.7  Rx     18EF1C8F  8  0D 91 17 00 22 00 84 03 
  1141)      4829.7  Rx     18EF1C8F  8  0D 92 14 00 0A 00 0E 00 
  1142)      4831.6  Rx     18FEF31C  8  EF 28 80 99 AD CE 2C 89 
  1143)      4832.2  Rx     18FEE81C  8  97 4F 08 00 00 00 2C 51 
  1144)      4832.8  Rx     18FEE61C  8  A0 07 0E 09 57 29 00 00 
  1145)      4833.3  Rx     19F0101C  8  94 00 EE 50 46 A0 50 1E 
  1146)      4833.9  Rx     19F8021C  8  94 FC 86 6C 00 00 FF FF 
  1147)      4846.0  Rx     18EF1CCD  8  A3 00 00 00 00 FB FF FB 
  1148)      4847.7  Rx     18EF1C8F  8  0D A0 00 F7 44 D9 78 FC 
  1149)      4848.7  Rx     18EF1C8F  8  0D A1 16 00 24 00 82 03 
  1150)      4849.7  Rx     18EF1C8F  8  0D A2 16 00 0A 00 10 00 
  1151)      4866.1  Rx     18EF1CCD  8  A1 40 FB FF FF FF 00 00 
  1152)      4867.8  Rx     18EF1C8F  8  0D B0 00 15 93 D9 78 FC 
  1153)      4868.7  Rx     18EF1C8F  8  0D B1 17 00 21 00 82 03 
  1154)      4869.7  Rx     18EF1C8F  8  0D B2 14 00 0A 00 0F 00 
  1155)      4883.4  Rx     19F8051C  8  E0 2F 94 EE 50 46 A0 50 
  1156)      4884.0  Rx     19F8051C  8  E1 1E 80 C7 EB 30 C7 A6 
  1157)      4884.5  Rx     19F8051C  8  E2 98 06 60 13 26 06 F4 
  1158)      4885.1  Rx     19F8051C  8  E3 91 CB 02 EE A5 41 08 
  1159)      4885.7  Rx     19F8051C  8  E4 00 00 00 00 40 00 0D 
  1160)      4886.2  Rx     19F8051C  8  E5 4E 00 85 00 FC 0F 00 
  1161)      4886.8  Rx     19F8051C  8  E6 00 01 AF 02 58 02 FF 
  1162)      4887.8  Rx     18EF1C8F  8  0D C0 00 3A E1 D9 79 FC 
  1163)      4888.7  Rx     18EF1C8F  8  0D C1 16 00 23 00 81 03 
  1164)      4889.4  Rx     18EFCD1C  8  A1 01 00 00 FB FF FF FF 
  1165)      4890.0  Rx     18EF1C8F  8  0D C2 13 00 09 00 0D 00 
  1166)      4907.8  Rx     18EF1C8F  8  0D D0 00 52 2F DA 78 FC 
  1167)      4908.7  Rx     18EF1C8F  8  0D D1 15 00 23 00 82 03 
  1168)      4909.2  Rx     18EFCD1C  8  A0 00 14 00 00 00 00 00 
  1169)      4909.8  Rx     18EF1C8F  8  0D D2 13 00 09 00 0D 00 
  1170)      4910.4  Rx     18EF1CCD  8  A0 00 14 00 76 07 00 00 
  1171)      4926.2  Rx     18EF1CCD  8  A2 00 00 00 00 00 00 00 
  1172)      4927.7  Rx     18EF1C8F  8  0D E0 00 75 7D DA 79 FC 
  1173)      4928.7  Rx     18EF1C8F  8  0D E1 15 00 22 00 83 03 
  1174)      4929.2  Rx     18EFCD1C  8  A0 00 2A 00 00 00 00 00 
  1175)      4929.8  Rx     18EF1C8F  8  0D E2 13 00 0B 00 0E 00 
  1176)      4930.4  Rx     18EF1CCD  8  A0 00 2A 00 81 05 00 00 
  1177)      4946.3  Rx     18EF1CCD  8  A3 00 00 00 00 FB FF FB 
  1178)      4947.8  Rx     18EF1C8F  8  0D F0 00 95 CB DA 79 FC 
  1179)      4948.7  Rx     18EF1C8F  8  0D F1 15 00 23 00 83 03 
  1180)      4949.2  Rx     18EFCD1C  8  A0 00 1B 00 00 00 00 00 
  1181)      4949.8  Rx     18EF1C8F  8  0D F2 16 00 0B 00 0D 00 
  1182)      4950.4  Rx     18EF1CCD  8  A0 00 1B 00 00 00 00 00 
  1183)      4966.3  Rx     18EF1CCD  8  A1 40 FB FF FF FF 00 00 
  1184)      4967.8  Rx     18EF1C8F  8  0D 00 00 B5 19 DB 79 FC 
  1185)      4968.7  Rx     18EF1C8F  8  0D 01 15 00 22 00 83 03 
  1186)      4969.3  Rx     18EFCD1C  8  A0 00 00 00 00 00 00 00 
  1187)      4969.8  Rx     18EF1C8F  8  0D 02 14 00 0B 00 0D 00 
  1188)      4970.4  Rx     18EF1CCD  8  A0 00 00 00 01 00 00 00 
  1189)      4987.8  Rx     18EF1C8F  8  0D 10 00 D5 67 DB 79 FC 
  1190)      4988.7  Rx     18EF1C8F  8  0D 11 14 00 22 00 83 03 
  1191)      4989.7  Rx     18EF1C8F  8  0D 12 14 00 09 00 0E 00 
  1192)      5007.8  Rx     18EF1C8F  8  0D 20 00 F2 B5 DB 78 FC 
  1193)      5008.7  Rx     18EF1C8F  8  0D 21 16 00 22 00 84 03 
  1194)      5009.7  Rx     18EF1C8F  8  0D 22 15 00 08 00 0E 00 
  1195)      5026.5  Rx     18EF1CCD  8  A2 00 00 00 00 00 00 00 
  1196)      5027.8  Rx     18EF1C8F  8  0D 30 00 15 04 DC 78 FC 
  1197)      5028.7  Rx     18EF1C8F  8  0D 31 16 00 24 00 83 03 
  1198)      5029.7  Rx     18EF1C8F  8  0D 32 15 00 08 00 0E 00 
  1199)      5046.5  Rx     18EF1CCD  8  A3 00 00 00 00 FB FF FB 
  1200)      5047.8  Rx     18EF1C8F  8  0D 40 00 35 52 DC 79 FC 
  1201)      5048.7  Rx     18EF1C8F  8  0D 41 16 00 23 00 83 03 
  1202)      5049.7  Rx     18EF1C8F  8  0D 42 14 00 0A 00 0E 00 
  1203)      5066.6  Rx     18EF1CCD  8  A1 40 FB FF FF FF 00 00 
  1204)      5067.8  Rx     18EF1C8F  8  0D 50 00 57 A0 DC 78 FC 
  1205)      5068.7  Rx     18EF1C8F  8  0D 51 17 00 24 00 83 03 
  1206)      5069.7  Rx     18EF1C8F  8  0D 52 14 00 09 00 0C 00 
  1207)      5087.8  Rx     18EF1C8F  8  0D 60 00 72 EE DC 78 FC 
  1208)      5088.7  Rx     18EF1C8F  8  0D 61 17 00 24 00 82 03 
  1209)      5089.3  Rx     18EFCD1C  8  A1 01 00 00 FB FF FF FF 
  1210)      5089.9  Rx     18EF1C8F  8  0D 62 17 00 09 00 0B 00 
  1211)      5107.8  Rx     18EF1C8F  8  0D 70 00 95 3C DD 78 FC 
  1212)      5108.7  Rx     18EF1C8F  8  0D 71 16 00 23 00 82 03 
  1213)      5109.3  Rx     18EFCD1C  8  A0 00 14 00 00 00 00 00 
  1214)      5109.8  Rx     18EF1C8F  8  0D 72 13 00 09 00 0E 00 
  1215)      5110.4  Rx     18EF1CCD  8  A0 00 14 00 74 07 00 00 
  1216)      5126.7  Rx     18EF1CCD  8  A2 00 00 00 00 00 00 00 
  1217)      5127.8  Rx     18EF1C8F  8  0D 80 00 B5 8A DD 78 FC 
  1218)      5128.7  Rx     18EF1C8F  8  0D 81 16 00 23 00 82 03 
  1219)      5129.3  Rx     18EFCD1C  8  A0 00 2A 00 00 00 00 00 
  1220)      5129.8  Rx     18EF1C8F  8  0D 82 15 00 08 00 0F 00 
  1221)      5130.4  Rx     18EF1CCD  8  A0 00 2A 00 82 05 00 00 
  1222)      5146.7  Rx     18EF1CCD  8  A3 00 00 00 00 FB FF FB 
  1223)      5147.8  Rx     18EF1C8F  8  0D 90 00 D5 D8 DD 78 FC 
  1224)      5148.7  Rx     18EF1C8F  8  0D 91 18 00 23 00 84 03 
  1225)      5149.3  Rx     18EFCD1C  8  A0 00 1B 00 00 00 00 00 
  1226)      5149.8  Rx     18EF1C8F  8  0D 92 14 00 09 00 0F 00 
  1227)      5150.4  Rx     18EF1CCD  8  A0 00 1B 00 00 00 00 00 
  1228)      5166.8  Rx     18EF1CCD  8  A1 40 FB FF FF FF 00 00 
  1229)      5167.8  Rx     18EF1C8F  8  0D A0 00 F5 26 DE 79 FC 
  1230)      5168.7  Rx     18EF1C8F  8  0D A1 17 00 22 00 81 03 
  1231)      5169.3  Rx     18EFCD1C  8  A0 00 00 00 00 00 00 00 
  1232)      5169.9  Rx     18EF1C8F  8  0D A2 14 00 0A 00 0E 00 
  1233)      5170.4  Rx     18EF1CCD  8  A0 00 00 00 01 00 00 00 
  1234)      5187.8  Rx     18EF1C8F  8  0D B0 00 17 75 DE 78 FC 
  1235)      5188.7  Rx     18EF1C8F  8  0D B1 16 00 24 00 82 03 
  1236)      5189.7  Rx     18EF1C8F  8  0D B2 14 00 08 00 10 00 
  1237)      5207.8  Rx     18EF1C8F  8  0D C0 00 32 C3 DE 78 FC 
  1238)      5208.7  Rx     18EF1C8F  8  0D C1 16 00 22 00 81 03 
  1239)      5209.7  Rx     18EF1C8F  8  0D C2 14 00 0B 00 0F 00 
  1240)      5226.9  Rx     18EF1CCD  8  A2 00 00 00 00 00 00 00 
  1241)      5227.8  Rx     18EF1C8F  8  0D D0 00 57 11 DF 78 FC 
  1242)      5228.7  Rx     18EF1C8F  8  0D D1 17 00 22 00 82 03 
  1243)      5229.7  Rx     18EF1C8F  8  0D D2 15 00 0A 00 10 00 
  1244)      5247.0  Rx     18EF1CCD  8  A3 00 00 00 00 FB FF FB 
  1245)      5247.8  Rx     18EF1C8F  8  0D E0 00 75 5F DF 79 FC 
  1246)      5248.7  Rx     18EF1C8F  8  0D E1 17 00 22 00 83 03 
  1247)      5249.7  Rx     18EF1C8F  8  0D E2 17 00 0A 00 0E 00 
  1248)      5253.1  Rx     18EF8F1C  4  01 FA 54 00 
  1249)      5253.7  Rx     18EF1C8F  4  01 55 FA 00 
  1250)      5267.0  Rx     18EF1CCD  8  A1 40 FB FF FF FF 00 00 
  1251)      5267.8  Rx     18EF1C8F  8  0D F0 00 95 AD DF 79 FC 
  1252)      5268.7  Rx     18EF1C8F  8  0D F1 16 00 22 00 81 03 
  1253)      5269.7  Rx     18EF1C8F  8  0D F2 14 00 0D 00 0D 00 
  1254)      5287.8  Rx     18EF1C8F  8  0D 00 00 B5 FB DF 79 FC 
  1255)      5288.7  Rx     18EF1C8F  8  0D 01 16 00 23 00 84 03 
  1256)      5289.3  Rx     18EFCD1C  8  A1 01 00 00 FB FF FF FF 
  1257)      5289.9  Rx     18EF1C8F  8  0D 02 14 00 0A 00 0E 00 
  1258)      5307.8  Rx     18EF1C8F  8  0D 10 00 D2 49 E0 79 FC 
  1259)      5308.7  Rx     18EF1C8F  8  0D 11 17 00 22 00 83 03 
  1260)      5309.3  Rx     18EFCD1C  8  A0 00 14 00 00 00 00 00 
  1261)      5309.8  Rx     18EF1C8F  8  0D 12 14 00 0B 00 0F 00 
  1262)      5310.4  Rx     18EF1CCD  8  A0 00 14 00 74 07 00 00 
  1263)      5327.2  Rx     18EF1CCD  8  A2 00 00 00 00 00 00 00 
  1264)      5327.9  Rx     18EF1C8F  8  0D 20 00 F5 97 E0 78 FC 
  1265)      5328.8  Rx     18EF1C8F  8  0D 21 15 00 24 00 83 03 
  1266)      5329.3  Rx     18EFCD1C  8  A0 00 2A 00 00 00 00 00 
  1267)      5329.9  Rx     18EF1C8F  8  0D 22 16 00 0C 00 0D 00 
  1268)      5330.5  Rx     18EF1CCD  8  A0 00 2A 00 82 05 00 00 
  1269)      5347.2  Rx     18EF1CCD  8  A3 00 00 00 00 FB FF FB 
  1270)      5347.8  Rx     18EF1C8F  8  0D 30 00 15 E6 E0 78 FC 
  1271)      5348.7  Rx     18EF1C8F  8  0D 31 17 00 22 00 83 03 
  1272)      5349.8  Rx     18EF1C8F  8  0D 32 14 00 0A 00 0E 00 
  1273)      5350.4  Rx     18EFCD1C  8  A0 00 1B 00 00 00 00 00 
  1274)      5350.9  Rx     18EF1CCD  8  A0 00 1B 00 00 00 00 00 
  1275)      5367.2  Rx     18EF1CCD  8  A1 40 FB FF FF FF 00 00 
  1276)      5367.9  Rx     18EF1C8F  8  0D 40 00 35 34 E1 79 FC 
  1277)      5368.8  Rx     18EF1C8F  8  0D 41 17 00 23 00 83 03 
  1278)      5369.4  Rx     18EFCD1C  8  A0 00 00 00 00 00 00 00 
  1279)      5369.9  Rx     18EF1C8F  8  0D 42 14 00 0A 00 0F 00 
  1280)      5370.5  Rx     18EF1CCD  8  A0 00 00 00 01 00 00 00 
  1281)      5387.8  Rx     18EF1C8F  8  0D 50 00 55 82 E1 78 FC 
  1282)      5388.8  Rx     18EF1C8F  8  0D 51 16 00 24 00 83 03 
  1283)      5389.8  Rx     18EF1C8F  8  0D 52 11 00 0A 00 0F 00 
  1284)      5407.8  Rx     18EF1C8F  8  0D 60 00 75 D0 E1 79 FC 
  1285)      5408.8  Rx     18EF1C8F  8  0D 61 16 00 22 00 82 03 
  1286)      5409.8  Rx     18EF1C8F  8  0D 62 17 00 0B 00 0F 00 
  1287)      5427.4  Rx     18EF1CCD  8  A2 00 00 00 00 00 00 00 
  1288)      5428.0  Rx     18EF1C8F  8  0D 70 00 95 1E E2 78 FC 
  1289)      5428.8  Rx     18EF1C8F  8  0D 71 14 00 24 00 83 03 
  1290)      5429.8  Rx     18EF1C8F  8  0D 72 17 00 0B 00 10 00 
  1291)      5447.5  Rx     18EF1CCD  8  A3 00 00 00 00 FB FF FB 
  1292)      5448.1  Rx     18EF1C8F  8  0D 80 00 B5 6C E2 78 FC 
  1293)      5448.8  Rx     18EF1C8F  8  0D 81 16 00 23 00 82 03 
  1294)      5449.8  Rx     18EF1C8F  8  0D 82 15 00 0B 00 0E 00 
  1295)      5467.5  Rx     18EF1CCD  8  A1 40 FB FF FF FF 00 00 
  1296)      5468.1  Rx     18EF1C8F  8  0D 90 00 D5 BA E2 79 FC 
  1297)      5468.8  Rx     18EF1C8F  8  0D 91 14 00 23 00 83 03 
  1298)      5469.8  Rx     18EF1C8F  8  0D 92 14 00 0A 00 0E 00 
  1299)      5487.9  Rx     18EF1C8F  8  0D A0 00 F2 08 E3 79 FC 
  1300)      5488.8  Rx     18EF1C8F  8  0D A1 15 00 21 00 83 03 
  1301)      5489.8  Rx     18EF1C8F  8  0D A2 16 00 0A 00 0F 00 
  1302)      5491.0  Rx     18EFCD1C  8  A1 01 00 00 FB FF FF FF 
  1303)      5507.9  Rx     18EF1C8F  8  0D B0 00 15 57 E3 79 FC 
  1304)      5508.8  Rx     18EF1C8F  8  0D B1 15 00 21 00 84 03 
  1305)      5509.4  Rx     18EFCD1C  8  A0 00 14 00 00 00 00 00 
  1306)      5509.9  Rx     18EF1C8F  8  0D B2 14 00 0B 00 0F 00 
  1307)      5510.5  Rx     18EF1CCD  8  A0 00 14 00 75 07 00 00 
  1308)      5527.7  Rx     18EF1CCD  8  A2 00 00 00 00 00 00 00 
  1309)      5528.2  Rx     18EF1C8F  8  0D C0 00 35 A5 E3 78 FC 
  1310)      5528.8  Rx     18EF1C8F  8  0D C1 14 00 22 00 83 03 
  1311)      5529.4  Rx     18EFCD1C  8  A0 00 2A 00 00 00 00 00 
  1312)      5530.0  Rx     18EF1C8F  8  0D C2 14 00 0C 00 0E 00 
  1313)      5530.6  Rx     18EF1CCD  8  A0 00 2A 00 82 05 00 00 
  1314)      5547.7  Rx     18EF1CCD  8  A3 00 00 00 00 FB FF FB 
  1315)      5548.3  Rx     18EF1C8F  8  0D D0 00 55 F3 E3 78 FC 
  1316)      5548.8  Rx     18EF1C8F  8  0D D1 17 00 21 00 84 03 
  1317)      5549.6  Rx     18EFCD1C  8  A0 00 1B 00 00 00 00 00 
  1318)      5550.2  Rx     18EF1C8F  8  0D D2 16 00 0B 00 0D 00 
  1319)      5550.8  Rx     18EF1CCD  8  A0 00 1B 00 00 00 00 00 
  1320)      5567.8  Rx     18EF1CCD  8  A1 40 FB FF FF FF 00 00 
  1321)      5568.3  Rx     18EF1C8F  8  0D E0 00 77 41 E4 78 FC 
  1322)      5568.9  Rx     18EF1C8F  8  0D E1 15 00 21 00 83 03 
  1323)      5569.5  Rx     18EFCD1C  8  A0 00 00 00 00 00 00 00 
  1324)      5570.0  Rx     18EF1C8F  8  0D E2 15 00 08 00 0E 00 
  1325)      5570.6  Rx     18EF1CCD  8  A0 00 00 00 01 00 00 00 
  1326)      5587.9  Rx     18EF1C8F  8  0D F0 00 97 8F E4 79 FC 
  1327)      5588.8  Rx     18EF1C8F  8  0D F1 15 00 23 00 84 03 
  1328)      5589.8  Rx     18EF1C8F  8  0D F2 14 00 09 00 0E 00 
  1329)      5607.9  Rx     18EF1C8F  8  0D 00 00 B2 DD E4 79 FC 
  1330)      5608.8  Rx     18EF1C8F  8  0D 01 16 00 23 00 82 03 
  1331)      5609.8  Rx     18EF1C8F  8  0D 02 14 00 0A 00 0C 00 
  1332)      5627.9  Rx     18EF1CCD  8  A2 00 00 00 00 00 00 00 
  1333)      5628.5  Rx     18EF1C8F  8  0D 10 00 D5 2B E5 78 FC 
  1334)      5629.0  Rx     18EF1C8F  8  0D 11 15 00 22 00 84 03 
  1335)      5629.8  Rx     18EF1C8F  8  0D 12 16 00 09 00 0E 00 
  1336)      5647.9  Rx     18EF1C8F  8  0D 20 00 F5 79 E5 78 FC 
  1337)      5648.4  Rx     18EF1CCD  8  A3 00 00 00 00 FB FF FB 
  1338)      5649.0  Rx     18EF1C8F  8  0D 21 16 00 23 00 83 03 
  1339)      5649.8  Rx     18EF1C8F  8  0D 22 15 00 0A 00 0F 00 
  1340)      5667.9  Rx     18EF1C8F  8  0D 30 00 15 C8 E5 78 FC 
  1341)      5668.5  Rx     18EF1CCD  8  A1 40 FB FF FF FF 00 00 
  1342)      5669.0  Rx     18EF1C8F  8  0D 31 15 00 20 00 81 03 
  1343)      5669.8  Rx     18EF1C8F  8  0D 32 14 00 09 00 0F 00 
  1344)      5687.9  Rx     18EF1C8F  8  0D 40 00 35 16 E6 79 FC 
  1345)      5688.8  Rx     18EF1C8F  8  0D 41 16 00 22 00 84 03 
  1346)      5689.8  Rx     18EF1C8F  8  0D 42 14 00 09 00 0D 00 
  1347)      5691.3  Rx     18EFCD1C  8  A1 01 00 00 FB FF FF FF 
  1348)      5707.9  Rx     18EF1C8F  8  0D 50 00 55 64 E6 78 FC 
  1349)      5708.8  Rx     18EF1C8F  8  0D 51 17 00 24 00 84 03 
  1350)      5709.8  Rx     18EF1C8F  8  0D 52 13 00 08 00 0C 00 
  1351)      5710.8  Rx     18EFCD1C  8  A0 00 14 00 00 00 00 00 
  1352)      5711.5  Rx     18EF1CCD  8  A0 00 14 00 75 07 00 00 
  1353)      5727.9  Rx     18EF1C8F  8  0D 60 00 75 B2 E6 78 FC 
  1354)      5728.5  Rx     18EF1CCD  8  A2 00 00 00 00 00 00 00 
  1355)      5729.0  Rx     18EF1C8F  8  0D 61 15 00 21 00 83 03 
  1356)      5729.6  Rx     18EFCD1C  8  A0 00 2A 00 00 00 00 00 
  1357)      5730.1  Rx     18EF1C8F  8  0D 62 15 00 0B 00 0F 00 
  1358)      5730.7  Rx     18EF1CCD  8  A0 00 2A 00 82 05 00 00 
  1359)      5747.9  Rx     18EF1C8F  8  0D 70 00 95 00 E7 78 FC 
  1360)      5748.5  Rx     18EF1CCD  8  A3 00 00 00 00 FB FF FB 
  1361)      5749.0  Rx     18EF1C8F  8  0D 71 15 00 22 00 83 03 
  1362)      5749.6  Rx     18EFCD1C  8  A0 00 1B 00 00 00 00 00 
  1363)      5750.2  Rx     18EF1C8F  8  0D 72 14 00 0B 00 11 00 
  1364)      5750.7  Rx     18EF1CCD  8  A0 00 1B 00 00 00 00 00 
  1365)      5767.9  Rx     18EF1C8F  8  0D 80 00 B5 4E E7 79 FC 
  1366)      5768.5  Rx     18EF1CCD  8  A1 40 FB FF FF FF 00 00 
  1367)      5769.0  Rx     18EF1C8F  8  0D 81 16 00 22 00 83 03 
  1368)      5769.6  Rx     18EFCD1C  8  A0 00 00 00 00 00 00 00 
  1369)      5770.2  Rx     18EF1C8F  8  0D 82 14 00 08 00 0F 00 
  1370)      5770.7  Rx     18EF1CCD  8  A0 00 00 00 01 00 00 00 
  1371)      5787.9  Rx     18EF1C8F  8  0D 90 00 D7 9C E7 79 FC 
  1372)      5788.8  Rx     18EF1C8F  8  0D 91 17 00 22 00 83 03 
  1373)      5789.8  Rx     18EF1C8F  8  0D 92 16 00 09 00 0F 00 
  1374)      5807.9  Rx     18EF1C8F  8  0D A0 00 F5 EA E7 79 FC 
  1375)      5808.8  Rx     18EF1C8F  8  0D A1 16 00 22 00 83 03 
  1376)      5809.8  Rx     18EF1C8F  8  0D A2 13 00 0A 00 0F 00 
  1377)      5827.9  Rx     18EF1C8F  8  0D B0 00 12 39 E8 78 FC 
  1378)      5828.5  Rx     18EF1CCD  8  A2 00 00 00 00 00 00 00 
  1379)      5829.1  Rx     18EF1C8F  8  0D B1 16 00 21 00 83 03 
  1380)      5829.8  Rx     18EF1C8F  8  0D B2 14 00 05 00 0F 00 
  1381)      5830.8  Rx     18FEF31C  8  EE 28 80 99 AD CE 2C 89 
  1382)      5831.3  Rx     18FEE81C  8  97 4F 0D 00 00 00 2C 51 
  1383)      5831.9  Rx     18FEE61C  8  A4 07 0E 09 57 29 00 00 
  1384)      5832.4  Rx     19F8021C  8  99 FC 86 6C 01 00 FF FF 
  1385)      5847.9  Rx     18EF1C8F  8  0D C0 00 37 87 E8 79 FC 
  1386)      5848.5  Rx     18EF1CCD  8  A3 00 00 00 00 FB FF FB 
  1387)      5849.0  Rx     18EF1C8F  8  0D C1 18 00 23 00 82 03 
  1388)      5849.8  Rx     18EF1C8F  8  0D C2 15 00 06 00 0E 00 
  1389)      5867.9  Rx     18EF1C8F  8  0D D0 00 52 D5 E8 78 FC 
  1390)      5868.5  Rx     18EF1CCD  8  A1 40 FB FF FF FF 00 00 
  1391)      5869.0  Rx     18EF1C8F  8  0D D1 17 00 23 00 82 03 
  1392)      5869.8  Rx     18EF1C8F  8  0D D2 16 00 0C 00 0E 00 
  1393)      5881.1  Rx     19F8051C  8  00 2F 99 EE 50 56 C7 50 
  1394)      5881.7  Rx     19F8051C  8  01 1E 80 22 62 09 C7 A6 
  1395)      5882.2  Rx     19F8051C  8  02 98 06 E0 96 2D F0 F3 
  1396)      5882.8  Rx     19F8051C  8  03 91 CB 02 45 9B 41 08 
  1397)      5883.4  Rx     19F8051C  8  04 00 00 00 00 40 00 0D 
  1398)      5883.9  Rx     19F8051C  8  05 4E 00 85 00 FC 0F 00 
  1399)      5884.5  Rx     19F8051C  8  06 00 01 AF 02 BC 02 FF 
  1400)      5887.9  Rx     18EF1C8F  8  0D E0 00 7A 23 E9 79 FC 
  1401)      5888.8  Rx     18EF1C8F  8  0D E1 16 00 23 00 82 03 
  1402)      5889.8  Rx     18EF1C8F  8  0D E2 15 00 0C 00 0F 00 
  1403)      5890.4  Rx     18EFCD1C  8  A1 01 00 00 FB FF FF FF 
  1404)      5907.9  Rx     18EF1C8F  8  0D F0 00 92 71 E9 79 FC 
  1405)      5908.8  Rx     18EF1C8F  8  0D F1 15 00 23 00 83 03 
  1406)      5909.8  Rx     18EF1C8F  8  0D F2 17 00 0C 00 10 00 
  1407)      5911.2  Rx     18EFCD1C  8  A0 00 14 00 00 00 00 00 
  1408)      5911.9  Rx     18EF1CCD  8  A0 00 14 00 75 07 00 00 
  1409)      5927.9  Rx     18EF1C8F  8  0D 00 00 B7 BF E9 79 FC 
  1410)      5928.6  Rx     18EF1CCD  8  A2 00 00 00 00 00 00 00 
  1411)      5929.2  Rx     18EF1C8F  8  0D 01 17 00 22 00 84 03 
  1412)      5929.8  Rx     18EF1C8F  8  0D 02 15 00 0A 00 0B 00 
  1413)      5931.4  Rx     18EFCD1C  8  A0 00 2A 00 00 00 00 00 
  1414)      5932.0  Rx     18EF1CCD  8  A0 00 2A 00 81 05 00 00 
  1415)      5947.9  Rx     18EF1C8F  8  0D 10 00 D5 0D EA 79 FC 
  1416)      5948.6  Rx     18EF1CCD  8  A3 00 00 00 00 FB FF FB 
  1417)      5949.2  Rx     18EF1C8F  8  0D 11 18 00 22 00 84 03 
  1418)      5949.8  Rx     18EFCD1C  8  A0 00 1B 00 00 00 00 00 
  1419)      5950.3  Rx     18EF1C8F  8  0D 12 14 00 09 00 0E 00 
  1420)      5950.9  Rx     18EF1CCD  8  A0 00 1B 00 00 00 00 00 
  1421)      5967.9  Rx     18EF1C8F  8  0D 20 00 F5 5B EA 79 FC 
  1422)      5968.7  Rx     18EF1CCD  8  A1 40 FB FF FF FF 00 00 
  1423)      5969.2  Rx     18EF1C8F  8  0D 21 16 00 23 00 84 03 
  1424)      5969.8  Rx     18EFCD1C  8  A0 00 00 00 00 00 00 00 
  1425)      5970.4  Rx     18EF1C8F  8  0D 22 14 00 05 00 10 00 
  1426)      5970.9  Rx     18EF1CCD  8  A0 00 00 00 01 00 00 00 
  1427)      5987.9  Rx     18EF1C8F  8  0D 30 00 17 AA EA 79 FC 
  1428)      5988.8  Rx     18EF1C8F  8  0D 31 18 00 24 00 84 03 
  1429)      5989.9  Rx     18EF1C8F  8  0D 32 13 00 08 00 0E 00 
