;$FILEVERSION=1.1
;$STARTTIME=46287.6683779977
;
;   Start time: 9/22/2026 16:02:27.859.0
;   Generated by PCAN-View v5.3.3.958
;
;   Message Number
;   |         Time Offset (ms)
;   |         |        Type
;   |         |        |        ID (hex)
;   |         |        |        |     Data Length
;   |         |        |        |     |   Data Bytes (hex) ...
;   |         |        |        |     |   |
;---+--   ----+----  --+--  ----+---  +  -+ -- -- -- -- -- -- --
     1)        17.6  Rx     18EFCD1C  8  A1 09 00 00 00 00 00 00 
     2)        37.9  Rx     18EFCD1C  8  A1 09 00 00 00 00 00 00 
     3)        58.6  Rx     18EFCD1C  8  A1 09 00 00 00 00 00 00 
     4)        79.0  Rx     18EFCD1C  8  A1 09 00 00 00 00 00 00 
     5)        99.7  Rx     18EFCD1C  8  A1 09 00 00 00 00 00 00 
     6)       120.1  Rx     18EFCD1C  8  A1 09 00 00 00 00 00 00 
     7)       140.8  Rx     18EFCD1C  8  A1 09 00 00 00 00 00 00 
     8)       161.6  Rx     18EFCD1C  8  A1 09 00 00 00 00 00 00 
     9)       182.1  Rx     18EFCD1C  8  A1 09 00 00 00 00 00 00 
    10)       182.1  Rx     18EFCD1C  8  A0 00 2A 00 00 00 00 00 
    11)       185.1  Rx     18EF1CCD  8  A0 00 2A 00 42 06 00 00 
    12)       203.2  Rx     18EFCD1C  8  A1 09 00 00 00 00 00 00 
    13)       223.9  Rx     18EFCD1C  8  A1 09 00 00 00 00 00 00 
    14)       244.3  Rx     18EFCD1C  8  A1 09 00 00 00 00 00 00 
    15)       264.6  Rx     18EFCD1C  8  A1 09 00 00 00 00 00 00 
    16)       285.2  Rx     18EFCD1C  8  A1 09 00 00 00 00 00 00 
    17)       305.9  Rx     18EFCD1C  8  A1 09 00 00 00 00 00 00 
    18)       326.6  Rx     18EFCD1C  8  A1 09 00 00 00 00 00 00 
    19)       347.1  Rx     18EFCD1C  8  A1 09 00 00 00 00 00 00 
    20)       367.4  Rx     18EFCD1C  8  A1 09 00 00 00 00 00 00 
    21)       387.8  Rx     18EFCD1C  8  A1 09 00 00 00 00 00 00 
    22)       387.8  Rx     18EFCD1C  8  A0 00 1B 00 00 00 00 00 
    23)       390.8  Rx     18EF1CCD  8  A0 00 1B 00 F5 00 00 00 
    24)       408.5  Rx     18EFCD1C  8  A1 09 00 00 00 00 00 00 
    25)       428.9  Rx     18EFCD1C  8  A1 09 00 00 00 00 00 00 
    26)       449.6  Rx     18EFCD1C  8  A1 09 00 00 00 00 00 00 
    27)       469.9  Rx     18EFCD1C  8  A1 09 00 00 00 00 00 00 
    28)       490.5  Rx     18EFCD1C  8  A1 09 00 00 00 00 00 00 
    29)       510.9  Rx     18EFCD1C  8  A1 09 00 00 00 00 00 00 
    30)       531.2  Rx     18EFCD1C  8  A1 09 00 00 00 00 00 00 
    31)       551.8  Rx     18EFCD1C  8  A1 09 00 00 00 00 00 00 
    32)       572.6  Rx     18EFCD1C  8  A1 09 00 00 00 00 00 00 
    33)       593.0  Rx     18EFCD1C  8  A1 09 00 00 00 00 00 00 
    34)       593.0  Rx     18EFCD1C  8  A0 00 00 00 00 00 00 00 
    35)       595.9  Rx     18EF1CCD  8  A0 00 00 00 03 00 00 00 
    36)       613.8  Rx     18EFCD1C  8  A1 09 00 00 00 00 00 00 
    37)       634.2  Rx     18EFCD1C  8  A1 09 00 00 00 00 00 00 
    38)       654.6  Rx     18EFCD1C  8  A1 09 00 00 00 00 00 00 
    39)       675.3  Rx     18EFCD1C  8  A1 09 00 00 00 00 00 00 
    40)       696.0  Rx     18EFCD1C  8  A1 09 00 00 00 00 00 00 
    41)       716.6  Rx     18EFCD1C  8  A1 09 00 00 00 00 00 00 
    42)       737.4  Rx     18EFCD1C  8  A1 09 00 00 00 00 00 00 
    43)       757.7  Rx     18EFCD1C  8  A1 09 00 00 00 00 00 00 
    44)       778.1  Rx     18EFCD1C  8  A1 09 00 00 00 00 00 00 
    45)       798.7  Rx     18EFCD1C  8  A1 09 00 00 00 00 00 00 
    46)       798.7  Rx     18EFCD1C  8  A0 00 14 00 00 00 00 00 
    47)       801.8  Rx     18EF1CCD  8  A0 00 14 00 6D 07 00 00 
    48)       819.6  Rx     18EFCD1C  8  A1 09 00 00 00 00 00 00 
    49)       839.9  Rx     18EFCD1C  8  A1 09 00 00 00 00 00 00 
    50)       860.5  Rx     18EFCD1C  8  A1 09 00 00 00 00 00 00 
    51)       881.1  Rx     18EFCD1C  8  A1 09 00 00 00 00 00 00 
    52)       901.7  Rx     18EFCD1C  8  A1 09 00 00 00 00 00 00 
    53)       922.0  Rx     18EFCD1C  8  A1 09 00 00 00 00 00 00 
    54)       942.3  Rx     18EFCD1C  8  A1 09 00 00 00 00 00 00 
    55)       963.0  Rx     18EFCD1C  8  A1 09 00 00 00 00 00 00 
    56)       983.3  Rx     18EFCD1C  8  A1 09 00 00 00 00 00 00 
    57)      1004.0  Rx     18EFCD1C  8  A1 09 00 00 00 00 00 00 
    58)      1004.0  Rx     18EFCD1C  8  A0 00 2A 00 00 00 00 00 
    59)      1006.9  Rx     18EF1CCD  8  A0 00 2A 00 3C 06 00 00 
    60)      1024.8  Rx     18EFCD1C  8  A1 09 00 00 00 00 00 00 
    61)      1045.5  Rx     18EFCD1C  8  A1 09 00 00 00 00 00 00 
    62)      1066.3  Rx     18EFCD1C  8  A1 09 00 00 00 00 00 00 
    63)      1086.6  Rx     18EFCD1C  8  A1 09 00 00 00 00 00 00 
    64)      1107.2  Rx     18EFCD1C  8  A1 09 00 00 00 00 00 00 
    65)      1127.6  Rx     18EFCD1C  8  A1 09 00 00 00 00 00 00 
    66)      1148.2  Rx     18EFCD1C  8  A1 09 00 00 00 00 00 00 
    67)      1168.9  Rx     18EFCD1C  8  A1 09 00 00 00 00 00 00 
    68)      1189.6  Rx     18EFCD1C  8  A1 09 00 00 00 00 00 00 
    69)      1210.3  Rx     18EFCD1C  8  A1 09 00 00 00 00 00 00 
    70)      1210.3  Rx     18EFCD1C  8  A0 00 1B 00 00 00 00 00 
    71)      1213.3  Rx     18EF1CCD  8  A0 00 1B 00 F9 00 00 00 
    72)      1231.0  Rx     18EFCD1C  8  A1 09 00 00 00 00 00 00 
    73)      1251.3  Rx     18EFCD1C  8  A1 09 00 00 00 00 00 00 
    74)      1271.6  Rx     18EFCD1C  8  A1 09 00 00 00 00 00 00 
    75)      1292.4  Rx     18EFCD1C  8  A1 09 00 00 00 00 00 00 
    76)      1313.1  Rx     18EFCD1C  8  A1 09 00 00 00 00 00 00 
    77)      1333.3  Rx     18EFCD1C  8  A1 09 00 00 00 00 00 00 
    78)      1354.1  Rx     18EFCD1C  8  A1 09 00 00 00 00 00 00 
    79)      1374.8  Rx     18EFCD1C  8  A1 09 00 00 00 00 00 00 
    80)      1395.2  Rx     18EFCD1C  8  A1 09 00 00 00 00 00 00 
    81)      1415.8  Rx     18EFCD1C  8  A1 09 00 00 00 00 00 00 
    82)      1415.9  Rx     18EFCD1C  8  A0 00 00 00 00 00 00 00 
    83)      1418.7  Rx     18EF1CCD  8  A0 00 00 00 03 00 00 00 
    84)      1436.5  Rx     18EFCD1C  8  A1 09 00 00 00 00 00 00 
    85)      1456.9  Rx     18EFCD1C  8  A1 09 00 00 00 00 00 00 
    86)      1477.2  Rx     18EFCD1C  8  A1 09 00 00 00 00 00 00 
    87)      1497.7  Rx     18EFCD1C  8  A1 09 00 00 00 00 00 00 
    88)      1518.1  Rx     18EFCD1C  8  A1 09 00 00 00 00 00 00 
    89)      1538.7  Rx     18EFCD1C  8  A1 09 00 00 00 00 00 00 
    90)      1559.4  Rx     18EFCD1C  8  A1 09 00 00 00 00 00 00 
    91)      1580.1  Rx     18EFCD1C  8  A1 09 00 00 00 00 00 00 
    92)      1600.5  Rx     18EFCD1C  8  A1 09 00 00 00 00 00 00 
    93)      1621.2  Rx     18EFCD1C  8  A1 09 00 00 00 00 00 00 
    94)      1621.2  Rx     18EFCD1C  8  A0 00 14 00 00 00 00 00 
    95)      1624.2  Rx     18EF1CCD  8  A0 00 14 00 6E 07 00 00 
    96)      1642.6  Rx     18EFCD1C  8  A1 09 00 00 00 00 00 00 
    97)      1663.2  Rx     18EFCD1C  8  A1 09 00 00 00 00 00 00 
    98)      1683.8  Rx     18EFCD1C  8  A1 09 00 00 00 00 00 00 
    99)      1704.1  Rx     18EFCD1C  8  A1 09 00 00 00 00 00 00 
   100)      1724.4  Rx     18EFCD1C  8  A1 09 00 00 00 00 00 00 
   101)      1745.1  Rx     18EFCD1C  8  A1 09 00 00 00 00 00 00 
   102)      1765.8  Rx     18EFCD1C  8  A1 09 00 00 00 00 00 00 
   103)      1786.2  Rx     18EFCD1C  8  A1 09 00 00 00 00 00 00 
   104)      1807.0  Rx     18EFCD1C  8  A1 09 00 00 00 00 00 00 
   105)      1827.3  Rx     18EFCD1C  8  A1 09 00 00 00 00 00 00 
   106)      1827.3  Rx     18EFCD1C  8  A0 00 2A 00 00 00 00 00 
   107)      1830.2  Rx     18EF1CCD  8  A0 00 2A 00 0B 06 00 00 
   108)      1848.2  Rx     18EFCD1C  8  A1 09 00 00 00 00 00 00 
   109)      1868.5  Rx     18EFCD1C  8  A1 09 00 00 00 00 00 00 
   110)      1889.1  Rx     18EFCD1C  8  A1 09 00 00 00 00 00 00 
   111)      1909.7  Rx     18EFCD1C  8  A1 09 00 00 00 00 00 00 
   112)      1930.2  Rx     18EFCD1C  8  A1 09 00 00 00 00 00 00 
   113)      1951.0  Rx     18EFCD1C  8  A1 09 00 00 00 00 00 00 
   114)      1971.7  Rx     18EFCD1C  8  A1 09 00 00 00 00 00 00 
   115)      1992.2  Rx     18EFCD1C  8  A1 09 00 00 00 00 00 00 
   116)      2012.5  Rx     18EFCD1C  8  A1 09 00 00 00 00 00 00 
   117)      2032.8  Rx     18EFCD1C  8  A1 09 00 00 00 00 00 00 
   118)      2032.8  Rx     18EFCD1C  8  A0 00 1B 00 00 00 00 00 
   119)      2033.2  Rx     18EFCD1C  4  01 99 7A 00 
   120)      2036.0  Rx     18EF1CCD  8  A0 00 1B 00 78 43 07 00 
   121)      2036.4  Rx     18EF1CCD  4  01 7B 99 01 
   122)      2053.7  Rx     18EFCD1C  8  A1 09 00 00 00 00 00 00 
   123)      2074.2  Rx     18EFCD1C  8  A1 09 00 00 00 00 00 00 
   124)      2094.5  Rx     18EFCD1C  8  A1 09 00 00 00 00 00 00 
   125)      2115.2  Rx     18EFCD1C  8  A1 09 00 00 00 00 00 00 
   126)      2135.5  Rx     18EFCD1C  8  A1 09 00 00 00 00 00 00 
   127)      2155.8  Rx     18EFCD1C  8  A1 09 00 00 00 00 00 00 
   128)      2176.4  Rx     18EFCD1C  8  A1 09 00 00 00 00 00 00 
   129)      2197.0  Rx     18EFCD1C  8  A1 09 00 00 00 00 00 00 
   130)      2217.7  Rx     18EFCD1C  8  A1 09 00 00 00 00 00 00 
   131)      2238.1  Rx     18EFCD1C  8  A1 09 00 00 00 00 00 00 
   132)      2238.1  Rx     18EFCD1C  8  A0 00 00 00 00 00 00 00 
   133)      2241.0  Rx     18EF1CCD  8  A0 00 00 00 03 00 00 00 
   134)      2258.8  Rx     18EFCD1C  8  A1 09 00 00 00 00 00 00 
   135)      2279.3  Rx     18EFCD1C  8  A1 09 00 00 00 00 00 00 
   136)      2299.9  Rx     18EFCD1C  8  A1 09 00 00 00 00 00 00 
   137)      2320.6  Rx     18EFCD1C  8  A1 09 00 00 00 00 00 00 
   138)      2341.3  Rx     18EFCD1C  8  A1 09 00 00 00 00 00 00 
   139)      2362.1  Rx     18EFCD1C  8  A1 09 00 00 00 00 00 00 
   140)      2382.7  Rx     18EFCD1C  8  A1 09 00 00 00 00 00 00 
   141)      2403.2  Rx     18EFCD1C  8  A1 09 00 00 00 00 00 00 
   142)      2423.4  Rx     18EFCD1C  8  A1 09 00 00 00 00 00 00 
   143)      2444.1  Rx     18EFCD1C  8  A1 09 00 00 00 00 00 00 
   144)      2444.2  Rx     18EFCD1C  8  A0 00 14 00 00 00 00 00 
   145)      2446.9  Rx     18EF1CCD  8  A0 00 14 00 6C 07 00 00 
   146)      2465.0  Rx     18EFCD1C  8  A1 09 00 00 00 00 00 00 
   147)      2485.4  Rx     18EFCD1C  8  A1 09 00 00 00 00 00 00 
   148)      2505.9  Rx     18EFCD1C  8  A1 09 00 00 00 00 00 00 
   149)      2526.4  Rx     18EFCD1C  8  A1 09 00 00 00 00 00 00 
   150)      2546.8  Rx     18EFCD1C  8  A1 09 00 00 00 00 00 00 
   151)      2567.6  Rx     18EFCD1C  8  A1 09 00 00 00 00 00 00 
   152)      2588.4  Rx     18EFCD1C  8  A1 09 00 00 00 00 00 00 
   153)      2609.0  Rx     18EFCD1C  8  A1 09 00 00 00 00 00 00 
   154)      2629.8  Rx     18EFCD1C  8  A1 09 00 00 00 00 00 00 
   155)      2650.0  Rx     18EFCD1C  8  A1 09 00 00 00 00 00 00 
   156)      2650.1  Rx     18EFCD1C  8  A0 00 2A 00 00 00 00 00 
   157)      2652.8  Rx     18EF1CCD  8  A0 00 2A 00 B0 05 00 00 
   158)      2671.0  Rx     18EFCD1C  8  A1 09 00 00 00 00 00 00 
   159)      2691.4  Rx     18EFCD1C  8  A1 09 00 00 00 00 00 00 
   160)      2711.7  Rx     18EFCD1C  8  A1 09 00 00 00 00 00 00 
   161)      2732.3  Rx     18EFCD1C  8  A1 09 00 00 00 00 00 00 
   162)      2752.8  Rx     18EFCD1C  8  A1 09 00 00 00 00 00 00 
   163)      2773.6  Rx     18EFCD1C  8  A1 09 00 00 00 00 00 00 
   164)      2794.2  Rx     18EFCD1C  8  A1 09 00 00 00 00 00 00 
   165)      2814.5  Rx     18EFCD1C  8  A1 09 00 00 00 00 00 00 
   166)      2835.1  Rx     18EFCD1C  8  A1 09 00 00 00 00 00 00 
   167)      2855.7  Rx     18EFCD1C  8  A1 09 00 00 00 00 00 00 
   168)      2855.7  Rx     18EFCD1C  8  A0 00 1B 00 00 00 00 00 
   169)      2858.5  Rx     18EF1CCD  8  A0 00 1B 00 1E 14 18 00 
   170)      2876.6  Rx     18EFCD1C  8  A1 09 00 00 00 00 00 00 
   171)      2897.1  Rx     18EFCD1C  8  A1 09 00 00 00 00 00 00 
   172)      2917.7  Rx     18EFCD1C  8  A1 09 00 00 00 00 00 00 
   173)      2938.2  Rx     18EFCD1C  8  A1 09 00 00 00 00 00 00 
   174)      2958.6  Rx     18EFCD1C  8  A1 09 00 00 00 00 00 00 
   175)      2979.1  Rx     18EFCD1C  8  A1 09 00 00 00 00 00 00 
   176)      2999.4  Rx     18EFCD1C  8  A1 09 00 00 00 00 00 00 
   177)      3019.7  Rx     18EFCD1C  8  A1 09 00 00 00 00 00 00 
   178)      3040.1  Rx     18EFCD1C  8  A1 09 00 00 00 00 00 00 
   179)      3060.5  Rx     18EFCD1C  8  A1 09 00 00 00 00 00 00 
   180)      3060.6  Rx     18EFCD1C  8  A0 00 00 00 00 00 00 00 
   181)      3063.3  Rx     18EF1CCD  8  A0 00 00 00 03 00 00 00 
   182)      3081.4  Rx     18EFCD1C  8  A1 09 00 00 00 00 00 00 
   183)      3102.2  Rx     18EFCD1C  8  A1 09 00 00 00 00 00 00 
   184)      3122.8  Rx     18EFCD1C  8  A1 09 00 00 00 00 00 00 
   185)      3143.2  Rx     18EFCD1C  8  A1 09 00 00 00 00 00 00 
   186)      3163.5  Rx     18EFCD1C  8  A1 09 00 00 00 00 00 00 
   187)      3184.2  Rx     18EFCD1C  8  A1 09 00 00 00 00 00 00 
   188)      3204.6  Rx     18EFCD1C  8  A1 09 00 00 00 00 00 00 
   189)      3224.9  Rx     18EFCD1C  8  A1 09 00 00 00 00 00 00 
   190)      3245.6  Rx     18EFCD1C  8  A1 09 00 00 00 00 00 00 
   191)      3266.1  Rx     18EFCD1C  8  A1 09 00 00 00 00 00 00 
   192)      3266.1  Rx     18EFCD1C  8  A0 00 14 00 00 00 00 00 
   193)      3268.8  Rx     18EF1CCD  8  A0 00 14 00 6D 07 00 00 
   194)      3286.9  Rx     18EFCD1C  8  A1 09 00 00 00 00 00 00 
   195)      3307.2  Rx     18EFCD1C  8  A1 09 00 00 00 00 00 00 
   196)      3327.8  Rx     18EFCD1C  8  A1 09 00 00 00 00 00 00 
   197)      3348.5  Rx     18EFCD1C  8  A1 09 00 00 00 00 00 00 
   198)      3369.2  Rx     18EFCD1C  8  A1 09 00 00 00 00 00 00 
   199)      3389.7  Rx     18EFCD1C  8  A1 09 00 00 00 00 00 00 
   200)      3410.1  Rx     18EFCD1C  8  A1 09 00 00 00 00 00 00 
   201)      3430.8  Rx     18EFCD1C  8  A1 09 00 00 00 00 00 00 
   202)      3451.5  Rx     18EFCD1C  8  A1 09 00 00 00 00 00 00 
   203)      3471.8  Rx     18EFCD1C  8  A1 09 00 00 00 00 00 00 
   204)      3471.9  Rx     18EFCD1C  8  A0 00 2A 00 00 00 00 00 
   205)      3474.6  Rx     18EF1CCD  8  A0 00 2A 00 82 05 00 00 
   206)      3492.7  Rx     18EFCD1C  8  A1 09 00 00 00 00 00 00 
   207)      3513.3  Rx     18EFCD1C  8  A1 09 00 00 00 00 00 00 
   208)      3534.0  Rx     18EFCD1C  8  A1 09 00 00 00 00 00 00 
   209)      3554.8  Rx     18EFCD1C  8  A1 09 00 00 00 00 00 00 
   210)      3575.1  Rx     18EFCD1C  8  A1 09 00 00 00 00 00 00 
   211)      3595.9  Rx     18EFCD1C  8  A1 09 00 00 00 00 00 00 
   212)      3616.2  Rx     18EFCD1C  8  A1 09 00 00 00 00 00 00 
   213)      3636.8  Rx     18EFCD1C  8  A1 09 00 00 00 00 00 00 
   214)      3657.2  Rx     18EFCD1C  8  A1 09 00 00 00 00 00 00 
   215)      3677.8  Rx     18EFCD1C  8  A1 09 00 00 00 00 00 00 
   216)      3677.8  Rx     18EFCD1C  8  A0 00 1B 00 00 00 00 00 
   217)      3680.4  Rx     18EF1CCD  8  A0 00 1B 00 8F D8 22 00 
   218)      3698.6  Rx     18EFCD1C  8  A1 09 00 00 00 00 00 00 
   219)      3718.9  Rx     18EFCD1C  8  A1 09 00 00 00 00 00 00 
   220)      3739.2  Rx     18EFCD1C  8  A1 09 00 00 00 00 00 00 
   221)      3759.6  Rx     18EFCD1C  8  A1 09 00 00 00 00 00 00 
   222)      3779.8  Rx     18EFCD1C  8  A1 09 00 00 00 00 00 00 
   223)      3800.4  Rx     18EFCD1C  8  A1 09 00 00 00 00 00 00 
   224)      3820.7  Rx     18EFCD1C  8  A1 09 00 00 00 00 00 00 
   225)      3841.0  Rx     18EFCD1C  8  A1 09 00 00 00 00 00 00 
   226)      3861.7  Rx     18EFCD1C  8  A1 09 00 00 00 00 00 00 
   227)      3882.2  Rx     18EFCD1C  8  A1 09 00 00 00 00 00 00 
   228)      3882.2  Rx     18EFCD1C  8  A0 00 00 00 00 00 00 00 
   229)      3884.8  Rx     18EF1CCD  8  A0 00 00 00 03 00 00 00 
   230)      3902.8  Rx     18EFCD1C  8  A1 09 00 00 00 00 00 00 
   231)      3923.5  Rx     18EFCD1C  8  A1 09 00 00 00 00 00 00 
   232)      3943.9  Rx     18EFCD1C  8  A1 09 00 00 00 00 00 00 
   233)      3964.6  Rx     18EFCD1C  8  A1 09 00 00 00 00 00 00 
   234)      3984.9  Rx     18EFCD1C  8  A1 09 00 00 00 00 00 00 
   235)      4005.6  Rx     18EFCD1C  8  A1 09 00 00 00 00 00 00 
   236)      4026.4  Rx     18EFCD1C  8  A1 09 00 00 00 00 00 00 
   237)      4046.7  Rx     18EFCD1C  8  A1 09 00 00 00 00 00 00 
   238)      4067.0  Rx     18EFCD1C  8  A1 09 00 00 00 00 00 00 
   239)      4087.3  Rx     18EFCD1C  8  A1 09 00 00 00 00 00 00 
   240)      4087.3  Rx     18EFCD1C  8  A0 00 14 00 00 00 00 00 
   241)      4087.6  Rx     18EFCD1C  4  01 9A 7B 00 
   242)      4090.1  Rx     18EF1CCD  8  A0 00 14 00 6F 07 00 00 
   243)      4090.7  Rx     18EF1CCD  4  01 7C 9A 01 
   244)      4108.0  Rx     18EFCD1C  8  A1 09 00 00 00 00 00 00 
   245)      4128.6  Rx     18EFCD1C  8  A1 09 00 00 00 00 00 00 
   246)      4149.3  Rx     18EFCD1C  8  A1 09 00 00 00 00 00 00 
   247)      4169.8  Rx     18EFCD1C  8  A1 09 00 00 00 00 00 00 
   248)      4190.3  Rx     18EFCD1C  8  A1 09 00 00 00 00 00 00 
   249)      4210.9  Rx     18EFCD1C  8  A1 09 00 00 00 00 00 00 
   250)      4231.5  Rx     18EFCD1C  8  A1 09 00 00 00 00 00 00 
   251)      4251.9  Rx     18EFCD1C  8  A1 09 00 00 00 00 00 00 
   252)      4272.2  Rx     18EFCD1C  8  A1 09 00 00 00 00 00 00 
   253)      4292.7  Rx     18EFCD1C  8  A1 09 00 00 00 00 00 00 
   254)      4292.7  Rx     18EFCD1C  8  A0 00 2A 00 00 00 00 00 
   255)      4295.3  Rx     18EF1CCD  8  A0 00 2A 00 45 06 00 00 
   256)      4313.4  Rx     18EFCD1C  8  A1 09 00 00 00 00 00 00 
   257)      4333.8  Rx     18EFCD1C  8  A1 09 00 00 00 00 00 00 
   258)      4354.5  Rx     18EFCD1C  8  A1 09 00 00 00 00 00 00 
   259)      4362.3  Rx     18EF1CCD  8  A2 00 00 00 0A 00 00 00 
   260)      4374.9  Rx     18EFCD1C  8  A1 09 00 00 00 00 00 00 
   261)      4395.2  Rx     18EFCD1C  8  A1 09 00 00 00 00 00 00 
   262)      4415.8  Rx     18EFCD1C  8  A1 09 00 00 00 00 00 00 
   263)      4436.3  Rx     18EFCD1C  8  A1 09 00 00 00 00 00 00 
   264)      4456.9  Rx     18EFCD1C  8  A1 09 00 00 00 00 00 00 
   265)      4477.5  Rx     18EFCD1C  8  A1 09 00 00 00 00 00 00 
   266)      4498.2  Rx     18EFCD1C  8  A1 09 00 00 00 00 00 00 
   267)      4498.3  Rx     18EFCD1C  8  A0 00 1B 00 00 00 00 00 
   268)      4500.7  Rx     18EF1CCD  8  A0 00 1B 00 FF 63 1B 00 
   269)      4518.9  Rx     18EFCD1C  8  A1 09 00 00 00 00 00 00 
   270)      4539.7  Rx     18EFCD1C  8  A1 09 00 00 00 00 00 00 
   271)      4560.0  Rx     18EFCD1C  8  A1 09 00 00 00 00 00 00 
   272)      4580.7  Rx     18EFCD1C  8  A1 09 00 00 00 00 00 00 
   273)      4601.0  Rx     18EFCD1C  8  A1 09 00 00 00 00 00 00 
   274)      4622.0  Rx     18EFCD1C  8  A1 09 00 00 00 00 00 00 
   275)      4642.7  Rx     18EFCD1C  8  A1 09 00 00 00 00 00 00 
   276)      4663.0  Rx     18EFCD1C  8  A1 09 00 00 00 00 00 00 
   277)      4683.3  Rx     18EFCD1C  8  A1 09 00 00 00 00 00 00 
   278)      4704.0  Rx     18EFCD1C  8  A1 09 00 00 00 00 00 00 
   279)      4704.0  Rx     18EFCD1C  8  A0 00 00 00 00 00 00 00 
   280)      4706.5  Rx     18EF1CCD  8  A0 00 00 00 04 00 00 00 
   281)      4725.0  Rx     18EFCD1C  8  A1 09 00 00 00 00 00 00 
   282)      4745.7  Rx     18EFCD1C  8  A1 09 00 00 00 00 00 00 
   283)      4766.5  Rx     18EFCD1C  8  A1 09 00 00 00 00 00 00 
   284)      4786.8  Rx     18EFCD1C  8  A1 09 00 00 00 00 00 00 
   285)      4807.1  Rx     18EFCD1C  8  A1 09 00 00 00 00 00 00 
   286)      4827.8  Rx     18EFCD1C  8  A1 09 00 00 00 00 00 00 
   287)      4848.2  Rx     18EFCD1C  8  A1 09 00 00 00 00 00 00 
   288)      4868.5  Rx     18EFCD1C  8  A1 09 00 00 00 00 00 00 
   289)      4889.0  Rx     18EFCD1C  8  A1 09 00 00 00 00 00 00 
   290)      4909.5  Rx     18EFCD1C  8  A1 09 00 00 00 00 00 00 
   291)      4909.5  Rx     18EFCD1C  8  A0 00 14 00 00 00 00 00 
   292)      4912.0  Rx     18EF1CCD  8  A0 00 14 00 66 07 00 00 
   293)      4930.4  Rx     18EFCD1C  8  A1 09 00 00 00 00 00 00 
   294)      4951.0  Rx     18EFCD1C  8  A1 09 00 00 00 00 00 00 
   295)      4971.6  Rx     18EFCD1C  8  A1 09 00 00 00 00 00 00 
   296)      4992.0  Rx     18EFCD1C  8  A1 09 00 00 00 00 00 00 
   297)      5012.5  Rx     18EFCD1C  8  A1 09 00 00 00 00 00 00 
   298)      5032.9  Rx     18EFCD1C  8  A1 09 00 00 00 00 00 00 
   299)      5053.1  Rx     18EFCD1C  8  A1 09 00 00 00 00 00 00 
   300)      5073.7  Rx     18EFCD1C  8  A1 09 00 00 00 00 00 00 
   301)      5094.3  Rx     18EFCD1C  8  A1 09 00 00 00 00 00 00 
   302)      5114.6  Rx     18EFCD1C  8  A1 09 00 00 00 00 00 00 
   303)      5114.6  Rx     18EFCD1C  8  A0 00 2A 00 00 00 00 00 
   304)      5117.1  Rx     18EF1CCD  8  A0 00 2A 00 48 06 00 00 
   305)      5135.4  Rx     18EFCD1C  8  A1 09 00 00 00 00 00 00 
   306)      5155.7  Rx     18EFCD1C  8  A1 09 00 00 00 00 00 00 
   307)      5176.0  Rx     18EFCD1C  8  A1 09 00 00 00 00 00 00 
   308)      5196.7  Rx     18EFCD1C  8  A1 09 00 00 00 00 00 00 
   309)      5217.0  Rx     18EFCD1C  8  A1 09 00 00 00 00 00 00 
   310)      5237.7  Rx     18EFCD1C  8  A1 09 00 00 00 00 00 00 
   311)      5258.5  Rx     18EFCD1C  8  A1 09 00 00 00 00 00 00 
   312)      5278.9  Rx     18EFCD1C  8  A1 09 00 00 00 00 00 00 
   313)      5299.2  Rx     18EFCD1C  8  A1 09 00 00 00 00 00 00 
   314)      5319.8  Rx     18EFCD1C  8  A1 09 00 00 00 00 00 00 
   315)      5319.9  Rx     18EFCD1C  8  A0 00 1B 00 00 00 00 00 
   316)      5322.5  Rx     18EF1CCD  8  A0 00 1B 00 B0 00 00 00 
   317)      5340.5  Rx     18EFCD1C  8  A1 09 00 00 00 00 00 00 
   318)      5360.8  Rx     18EFCD1C  8  A1 09 00 00 00 00 00 00 
   319)      5381.1  Rx     18EFCD1C  8  A1 09 00 00 00 00 00 00 
   320)      5401.3  Rx     18EFCD1C  8  A1 09 00 00 00 00 00 00 
   321)      5421.8  Rx     18EFCD1C  8  A1 09 00 00 00 00 00 00 
   322)      5442.2  Rx     18EFCD1C  8  A1 09 00 00 00 00 00 00 
   323)      5462.5  Rx     18EFCD1C  8  A1 09 00 00 00 00 00 00 
   324)      5482.8  Rx     18EFCD1C  8  A1 09 00 00 00 00 00 00 
   325)      5503.1  Rx     18EFCD1C  8  A1 09 00 00 00 00 00 00 
   326)      5523.7  Rx     18EFCD1C  8  A1 09 00 00 00 00 00 00 
   327)      5523.7  Rx     18EFCD1C  8  A0 00 00 00 00 00 00 00 
   328)      5526.4  Rx     18EF1CCD  8  A0 00 00 00 04 00 00 00 
   329)      5544.5  Rx     18EFCD1C  8  A1 09 00 00 00 00 00 00 
   330)      5564.8  Rx     18EFCD1C  8  A1 09 00 00 00 00 00 00 
   331)      5585.1  Rx     18EFCD1C  8  A1 09 00 00 00 00 00 00 
   332)      5605.7  Rx     18EFCD1C  8  A1 09 00 00 00 00 00 00 
   333)      5626.3  Rx     18EFCD1C  8  A1 09 00 00 00 00 00 00 
   334)      5646.8  Rx     18EFCD1C  8  A1 09 00 00 00 00 00 00 
   335)      5667.5  Rx     18EFCD1C  8  A1 09 00 00 00 00 00 00 
   336)      5687.9  Rx     18EFCD1C  8  A1 09 00 00 00 00 00 00 
   337)      5708.2  Rx     18EFCD1C  8  A1 09 00 00 00 00 00 00 
   338)      5728.9  Rx     18EFCD1C  8  A1 09 00 00 00 00 00 00 
   339)      5728.9  Rx     18EFCD1C  8  A0 00 14 00 00 00 00 00 
   340)      5731.7  Rx     18EF1CCD  8  A0 00 14 00 63 07 00 00 
   341)      5749.6  Rx     18EFCD1C  8  A1 09 00 00 00 00 00 00 
   342)      5770.4  Rx     18EFCD1C  8  A1 09 00 00 00 00 00 00 
   343)      5790.8  Rx     18EFCD1C  8  A1 09 00 00 00 00 00 00 
   344)      5811.1  Rx     18EFCD1C  8  A1 09 00 00 00 00 00 00 
   345)      5831.4  Rx     18EFCD1C  8  A1 09 00 00 00 00 00 00 
   346)      5852.0  Rx     18EFCD1C  8  A1 09 00 00 00 00 00 00 
   347)      5872.4  Rx     18EFCD1C  8  A1 09 00 00 00 00 00 00 
   348)      5893.2  Rx     18EFCD1C  8  A1 09 00 00 00 00 00 00 
   349)      5913.9  Rx     18EFCD1C  8  A1 09 00 00 00 00 00 00 
   350)      5934.6  Rx     18EFCD1C  8  A1 09 00 00 00 00 00 00 
   351)      5934.6  Rx     18EFCD1C  8  A0 00 2A 00 00 00 00 00 
   352)      5937.3  Rx     18EF1CCD  8  A0 00 2A 00 47 06 00 00 
   353)      5955.4  Rx     18EFCD1C  8  A1 09 00 00 00 00 00 00 
   354)      5976.1  Rx     18EFCD1C  8  A1 09 00 00 00 00 00 00 
   355)      5996.5  Rx     18EFCD1C  8  A1 09 00 00 00 00 00 00 
   356)      6017.0  Rx     18EFCD1C  8  A1 09 00 00 00 00 00 00 
   357)      6037.5  Rx     18EFCD1C  8  A1 09 00 00 00 00 00 00 
   358)      6058.2  Rx     18EFCD1C  8  A1 09 00 00 00 00 00 00 
   359)      6078.9  Rx     18EFCD1C  8  A1 09 00 00 00 00 00 00 
   360)      6099.4  Rx     18EFCD1C  8  A1 09 00 00 00 00 00 00 
   361)      6119.9  Rx     18EFCD1C  8  A1 09 00 00 00 00 00 00 
   362)      6140.4  Rx     18EFCD1C  8  A1 09 00 00 00 00 00 00 
   363)      6140.5  Rx     18EFCD1C  8  A0 00 1B 00 00 00 00 00 
   364)      6140.8  Rx     18EFCD1C  4  01 9B 7C 00 
   365)      6143.5  Rx     18EF1CCD  8  A0 00 1B 00 B0 00 00 00 
   366)      6143.9  Rx     18EF1CCD  4  01 7D 9B 01 
   367)      6161.5  Rx     18EFCD1C  8  A1 09 00 00 00 00 00 00 
   368)      6182.0  Rx     18EFCD1C  8  A1 09 00 00 00 00 00 00 
   369)      6202.8  Rx     18EFCD1C  8  A1 09 00 00 00 00 00 00 
   370)      6223.4  Rx     18EFCD1C  8  A1 09 00 00 00 00 00 00 
   371)      6244.2  Rx     18EFCD1C  8  A1 09 00 00 00 00 00 00 
   372)      6264.9  Rx     18EFCD1C  8  A1 09 00 00 00 00 00 00 
   373)      6285.2  Rx     18EFCD1C  8  A1 09 00 00 00 00 00 00 
   374)      6305.6  Rx     18EFCD1C  8  A1 09 00 00 00 00 00 00 
   375)      6326.1  Rx     18EFCD1C  8  A1 09 00 00 00 00 00 00 
   376)      6346.4  Rx     18EFCD1C  8  A1 09 00 00 00 00 00 00 
   377)      6346.5  Rx     18EFCD1C  8  A0 00 00 00 00 00 00 00 
   378)      6349.1  Rx     18EF1CCD  8  A0 00 00 00 04 00 00 00 
