;$FILEVERSION=1.1
;$STARTTIME=46287.6757588657
;
;   Start time: 9/22/2026 16:13:05.566.0
;   Generated by PCAN-View v5.3.3.958
;
;   Message Number
;   |         Time Offset (ms)
;   |         |        Type
;   |         |        |        ID (hex)
;   |         |        |        |     Data Length
;   |         |        |        |     |   Data Bytes (hex) ...
;   |         |        |        |     |   |
;---+--   ----+----  --+--  ----+---  +  -+ -- -- -- -- -- -- --
     1)         2.2  Rx     18EF1C8F  8  0D 90 00 D4 04 35 87 FC 
     2)         3.1  Rx     18EF1C8F  8  0D 91 16 00 1F 00 83 03 
     3)         3.8  Rx     18EF1CCD  8  A2 00 00 00 00 00 00 00 
     4)         4.3  Rx     18EF1C8F  8  0D 92 14 00 09 00 10 00 
     5)        22.2  Rx     18EF1C8F  8  0D A0 00 F4 52 35 87 FC 
     6)        23.1  Rx     18EF1C8F  8  0D A1 17 00 21 00 85 03 
     7)        23.9  Rx     18EF1CCD  8  A3 00 00 00 00 FA FF FA 
     8)        24.4  Rx     18EF1C8F  8  0D A2 14 00 08 00 0D 00 
     9)        42.2  Rx     18EF1C8F  8  0D B0 00 14 A1 35 87 FC 
    10)        43.1  Rx     18EF1C8F  8  0D B1 18 00 23 00 85 03 
    11)        43.9  Rx     18EF1CCD  8  A1 40 FA FF FF FF 00 00 
    12)        44.5  Rx     18EF1C8F  8  0D B2 15 00 0A 00 0E 00 
    13)        52.3  Rx     18EFCD1C  8  A1 01 00 00 FA FF FF FF 
    14)        62.2  Rx     18EF1C8F  8  0D C0 00 34 EF 35 87 FC 
    15)        63.1  Rx     18EF1C8F  8  0D C1 17 00 23 00 85 03 
    16)        64.1  Rx     18EF1C8F  8  0D C2 14 00 0A 00 0F 00 
    17)        72.1  Rx     18EFCD1C  8  A0 00 14 00 00 00 00 00 
    18)        72.7  Rx     18EF1CCD  8  A0 00 14 00 7A 07 00 00 
    19)        82.2  Rx     18EF1C8F  8  0D D0 00 57 3D 36 87 FC 
    20)        83.1  Rx     18EF1C8F  8  0D D1 18 00 22 00 84 03 
    21)        84.1  Rx     18EF1C8F  8  0D D2 15 00 0C 00 0F 00 
    22)        92.1  Rx     18EFCD1C  8  A0 00 2A 00 00 00 00 00 
    23)        92.7  Rx     18EF1CCD  8  A0 00 2A 00 76 05 00 00 
    24)       102.2  Rx     18EF1C8F  8  0D E0 00 74 8B 36 87 FC 
    25)       103.1  Rx     18EF1C8F  8  0D E1 17 00 21 00 83 03 
    26)       104.0  Rx     18EF1CCD  8  A2 00 00 00 00 00 00 00 
    27)       104.6  Rx     18EF1C8F  8  0D E2 15 00 0D 00 0D 00 
    28)       112.1  Rx     18EFCD1C  8  A0 00 1B 00 00 00 00 00 
    29)       112.7  Rx     18EF1CCD  8  A0 00 1B 00 00 00 00 00 
    30)       122.2  Rx     18EF1C8F  8  0D F0 00 94 D9 36 87 FC 
    31)       123.1  Rx     18EF1C8F  8  0D F1 18 00 22 00 83 03 
    32)       124.1  Rx     18EF1CCD  8  A3 00 00 00 00 FA FF FA 
    33)       124.6  Rx     18EF1C8F  8  0D F2 15 00 0B 00 0C 00 
    34)       132.1  Rx     18EFCD1C  8  A0 00 00 00 00 00 00 00 
    35)       132.7  Rx     18EF1CCD  8  A0 00 00 00 01 00 00 00 
    36)       142.1  Rx     18EF1C8F  8  0D 00 00 B7 27 37 87 FC 
    37)       143.1  Rx     18EF1C8F  8  0D 01 18 00 23 00 84 03 
    38)       144.1  Rx     18EF1C8F  8  0D 02 13 00 0D 00 0E 00 
    39)       144.6  Rx     18EF1CCD  8  A1 40 FA FF FF FF 00 00 
    40)       162.2  Rx     18EF1C8F  8  0D 10 00 D4 75 37 87 FC 
    41)       163.0  Rx     18EF1C8F  8  0D 11 18 00 22 00 82 03 
    42)       164.1  Rx     18EF1C8F  8  0D 12 15 00 0B 00 0E 00 
    43)       182.1  Rx     18EF1C8F  8  0D 20 00 F4 C3 37 87 FC 
    44)       183.1  Rx     18EF1C8F  8  0D 21 15 00 23 00 83 03 
    45)       184.1  Rx     18EF1C8F  8  0D 22 15 00 0A 00 10 00 
    46)       193.6  Rx     18FEF31C  8  5E 29 80 99 AC CE 2C 89 
    47)       194.2  Rx     18FEE81C  8  97 4F 00 00 00 00 10 52 
    48)       194.7  Rx     18FEE61C  8  14 0D 0E 09 57 29 00 00 
    49)       195.3  Rx     19F0101C  8  10 00 EE 50 D3 36 82 1E 
    50)       195.9  Rx     19F8021C  8  10 FC 86 6C 00 00 FF FF 
    51)       202.1  Rx     18EF1C8F  8  0D 30 00 17 12 38 87 FC 
    52)       203.0  Rx     18EF1C8F  8  0D 31 16 00 21 00 84 03 
    53)       204.1  Rx     18EF1C8F  8  0D 32 16 00 0B 00 0F 00 
    54)       204.6  Rx     18EF1CCD  8  A2 00 00 00 00 00 00 00 
    55)       222.1  Rx     18EF1C8F  8  0D 40 00 34 60 38 87 FC 
    56)       223.1  Rx     18EF1C8F  8  0D 41 15 00 22 00 84 03 
    57)       224.0  Rx     18EF1C8F  8  0D 42 15 00 0B 00 0E 00 
    58)       224.6  Rx     18EF1CCD  8  A3 00 00 00 00 FA FF FA 
    59)       240.4  Rx     19F8051C  8  80 2F 10 EE 50 D3 36 82 
    60)       241.0  Rx     19F8051C  8  81 1E 80 CE 24 2F E1 A6 
    61)       241.5  Rx     19F8051C  8  82 98 06 E0 65 4B B4 F3 
    62)       242.1  Rx     19F8051C  8  83 91 CB 02 41 40 68 08 
    63)       242.7  Rx     18EF1C8F  8  0D 50 00 54 AE 38 87 FC 
    64)       243.2  Rx     18EF1C8F  8  0D 51 15 00 23 00 83 03 
    65)       243.8  Rx     19F8051C  8  84 00 00 00 00 20 00 0A 
    66)       244.3  Rx     18EF1C8F  8  0D 52 14 00 0A 00 0F 00 
    67)       244.9  Rx     18EF1CCD  8  A1 40 FA FF FF FF 00 00 
    68)       245.5  Rx     19F8051C  8  85 64 00 64 00 DC 05 00 
    69)       246.0  Rx     19F8051C  8  86 00 01 0F 00 00 00 FF 
    70)       252.1  Rx     18EFCD1C  8  A1 01 00 00 FA FF FF FF 
    71)       262.1  Rx     18EF1C8F  8  0D 60 00 79 FC 38 87 FC 
    72)       263.1  Rx     18EF1C8F  8  0D 61 16 00 23 00 83 03 
    73)       264.1  Rx     18EF1C8F  8  0D 62 15 00 0B 00 0E 00 
    74)       272.0  Rx     18EFCD1C  8  A0 00 14 00 00 00 00 00 
    75)       272.6  Rx     18EF1CCD  8  A0 00 14 00 7A 07 00 00 
    76)       282.1  Rx     18EF1C8F  8  0D 70 00 94 4A 39 87 FC 
    77)       283.0  Rx     18EF1C8F  8  0D 71 16 00 23 00 82 03 
    78)       284.1  Rx     18EF1C8F  8  0D 72 14 00 0A 00 0E 00 
    79)       292.1  Rx     18EFCD1C  8  A0 00 2A 00 00 00 00 00 
    80)       292.7  Rx     18EF1CCD  8  A0 00 2A 00 75 05 00 00 
    81)       302.2  Rx     18EF1C8F  8  0D 80 00 B7 98 39 87 FC 
    82)       303.1  Rx     18EF1C8F  8  0D 81 17 00 22 00 86 03 
    83)       304.1  Rx     18EF1C8F  8  0D 82 15 00 08 00 0E 00 
    84)       304.6  Rx     18EF1CCD  8  A2 00 00 00 00 00 00 00 
    85)       312.0  Rx     18EFCD1C  8  A0 00 1B 00 00 00 00 00 
    86)       312.7  Rx     18EF1CCD  8  A0 00 1B 00 00 00 00 00 
    87)       322.1  Rx     18EF1C8F  8  0D 90 00 D4 E6 39 87 FC 
    88)       323.1  Rx     18EF1C8F  8  0D 91 14 00 21 00 84 03 
    89)       324.1  Rx     18EF1C8F  8  0D 92 14 00 04 00 0F 00 
    90)       324.6  Rx     18EF1CCD  8  A3 00 00 00 00 FA FF FA 
    91)       332.1  Rx     18EFCD1C  8  A0 00 00 00 00 00 00 00 
    92)       332.7  Rx     18EF1CCD  8  A0 00 00 00 01 00 00 00 
    93)       342.2  Rx     18EF1C8F  8  0D A0 00 F4 34 3A 87 FC 
    94)       343.1  Rx     18EF1C8F  8  0D A1 16 00 22 00 82 03 
    95)       344.1  Rx     18EF1C8F  8  0D A2 14 00 09 00 0E 00 
    96)       344.6  Rx     18EF1CCD  8  A1 40 FA FF FF FF 00 00 
    97)       362.2  Rx     18EF1C8F  8  0D B0 00 17 83 3A 87 FC 
    98)       363.1  Rx     18EF1C8F  8  0D B1 16 00 21 00 81 03 
    99)       364.0  Rx     18EF1C8F  8  0D B2 14 00 0A 00 0F 00 
   100)       382.2  Rx     18EF1C8F  8  0D C0 00 34 D1 3A 87 FC 
   101)       383.1  Rx     18EF1C8F  8  0D C1 15 00 23 00 84 03 
   102)       384.1  Rx     18EF1C8F  8  0D C2 13 00 08 00 0E 00 
   103)       402.2  Rx     18EF1C8F  8  0D D0 00 54 1F 3B 87 FC 
   104)       403.1  Rx     18EF1C8F  8  0D D1 15 00 21 00 84 03 
   105)       404.1  Rx     18EF1C8F  8  0D D2 14 00 0A 00 0E 00 
   106)       404.7  Rx     18EF1CCD  8  A2 00 00 00 00 00 00 00 
   107)       422.1  Rx     18EF1C8F  8  0D E0 00 74 6D 3B 87 FC 
   108)       423.1  Rx     18EF1C8F  8  0D E1 16 00 20 00 83 03 
   109)       424.1  Rx     18EF1C8F  8  0D E2 13 00 09 00 0F 00 
   110)       424.7  Rx     18EF1CCD  8  A3 00 00 00 00 FA FF FA 
   111)       442.2  Rx     18EF1C8F  8  0D F0 00 94 BB 3B 87 FC 
   112)       443.1  Rx     18EF1C8F  8  0D F1 16 00 20 00 81 03 
   113)       444.1  Rx     18EF1C8F  8  0D F2 15 00 09 00 0E 00 
   114)       444.8  Rx     18EF1CCD  8  A1 40 FA FF FF FF 00 00 
   115)       452.2  Rx     18EFCD1C  8  A1 01 00 00 FA FF FF FF 
   116)       462.2  Rx     18EF1C8F  8  0D 00 00 B4 09 3C 87 FC 
   117)       463.1  Rx     18EF1C8F  8  0D 01 16 00 20 00 84 03 
   118)       464.1  Rx     18EF1C8F  8  0D 02 16 00 0B 00 0D 00 
   119)       472.1  Rx     18EFCD1C  8  A0 00 14 00 00 00 00 00 
   120)       472.8  Rx     18EF1CCD  8  A0 00 14 00 7A 07 00 00 
   121)       482.2  Rx     18EF1C8F  8  0D 10 00 D4 57 3C 87 FC 
   122)       483.1  Rx     18EF1C8F  8  0D 11 16 00 23 00 83 03 
   123)       484.1  Rx     18EF1C8F  8  0D 12 15 00 09 00 0D 00 
   124)       492.1  Rx     18EFCD1C  8  A0 00 2A 00 00 00 00 00 
   125)       492.7  Rx     18EF1CCD  8  A0 00 2A 00 75 05 00 00 
   126)       502.2  Rx     18EF1C8F  8  0D 20 00 F4 A5 3C 87 FC 
   127)       503.1  Rx     18EF1C8F  8  0D 21 16 00 22 00 82 03 
   128)       504.1  Rx     18EF1C8F  8  0D 22 15 00 09 00 0F 00 
   129)       504.9  Rx     18EF1CCD  8  A2 00 00 00 00 00 00 00 
   130)       512.1  Rx     18EFCD1C  8  A0 00 1B 00 00 00 00 00 
   131)       512.7  Rx     18EF1CCD  8  A0 00 1B 00 00 00 00 00 
   132)       522.2  Rx     18EF1C8F  8  0D 30 00 17 F4 3C 87 FC 
   133)       523.1  Rx     18EF1C8F  8  0D 31 16 00 22 00 84 03 
   134)       524.1  Rx     18EF1C8F  8  0D 32 14 00 08 00 0F 00 
   135)       525.0  Rx     18EF1CCD  8  A3 00 00 00 00 FA FF FA 
   136)       532.1  Rx     18EFCD1C  8  A0 00 00 00 00 00 00 00 
   137)       532.7  Rx     18EF1CCD  8  A0 00 00 00 01 00 00 00 
   138)       542.2  Rx     18EF1C8F  8  0D 40 00 37 42 3D 87 FC 
   139)       543.1  Rx     18EF1C8F  8  0D 41 15 00 22 00 83 03 
   140)       544.1  Rx     18EF1C8F  8  0D 42 12 00 0A 00 0C 00 
   141)       545.0  Rx     18EF1CCD  8  A1 40 FA FF FF FF 00 00 
   142)       562.2  Rx     18EF1C8F  8  0D 50 00 54 90 3D 87 FC 
   143)       563.1  Rx     18EF1C8F  8  0D 51 16 00 22 00 83 03 
   144)       564.1  Rx     18EF1C8F  8  0D 52 14 00 0A 00 0B 00 
   145)       582.2  Rx     18EF1C8F  8  0D 60 00 74 DE 3D 87 FC 
   146)       583.1  Rx     18EF1C8F  8  0D 61 16 00 23 00 81 03 
   147)       584.1  Rx     18EF1C8F  8  0D 62 13 00 0A 00 0A 00 
   148)       602.2  Rx     18EF1C8F  8  0D 70 00 94 2C 3E 87 FC 
   149)       603.1  Rx     18EF1C8F  8  0D 71 17 00 24 00 84 03 
   150)       604.1  Rx     18EF1C8F  8  0D 72 14 00 0A 00 0E 00 
   151)       605.1  Rx     18EF1CCD  8  A2 00 00 00 00 00 00 00 
   152)       622.2  Rx     18EF1C8F  8  0D 80 00 B4 7A 3E 87 FC 
   153)       623.1  Rx     18EF1C8F  8  0D 81 17 00 21 00 86 03 
   154)       624.1  Rx     18EF1C8F  8  0D 82 14 00 0B 00 0E 00 
   155)       625.2  Rx     18EF1CCD  8  A3 00 00 00 00 FA FF FA 
   156)       642.2  Rx     18EF1C8F  8  0D 90 00 D7 C8 3E 87 FC 
   157)       643.1  Rx     18EF1C8F  8  0D 91 17 00 21 00 84 03 
   158)       644.1  Rx     18EF1C8F  8  0D 92 12 00 0B 00 0E 00 
   159)       645.2  Rx     18EF1CCD  8  A1 40 FA FF FF FF 00 00 
   160)       652.2  Rx     18EFCD1C  8  A1 01 00 00 FA FF FF FF 
   161)       662.2  Rx     18EF1C8F  8  0D A0 00 F4 16 3F 87 FC 
   162)       663.1  Rx     18EF1C8F  8  0D A1 16 00 22 00 83 03 
   163)       664.1  Rx     18EF1C8F  8  0D A2 13 00 09 00 0F 00 
   164)       672.1  Rx     18EFCD1C  8  A0 00 14 00 00 00 00 00 
   165)       672.8  Rx     18EF1CCD  8  A0 00 14 00 7A 07 00 00 
   166)       682.2  Rx     18EF1C8F  8  0D B0 00 17 65 3F 87 FC 
   167)       683.1  Rx     18EF1C8F  8  0D B1 18 00 23 00 83 03 
   168)       684.1  Rx     18EF1C8F  8  0D B2 15 00 0A 00 0E 00 
   169)       692.2  Rx     18EFCD1C  8  A0 00 2A 00 00 00 00 00 
   170)       692.8  Rx     18EF1CCD  8  A0 00 2A 00 75 05 00 00 
   171)       702.2  Rx     18EF1C8F  8  0D C0 00 34 B3 3F 87 FC 
   172)       703.1  Rx     18EF1C8F  8  0D C1 16 00 20 00 83 03 
   173)       704.1  Rx     18EF1C8F  8  0D C2 15 00 0A 00 0C 00 
   174)       705.4  Rx     18EF1CCD  8  A2 00 00 00 00 00 00 00 
   175)       712.1  Rx     18EFCD1C  8  A0 00 1B 00 00 00 00 00 
   176)       712.8  Rx     18EF1CCD  8  A0 00 1B 00 00 00 00 00 
   177)       722.2  Rx     18EF1C8F  8  0D D0 00 54 01 40 87 FC 
   178)       723.1  Rx     18EF1C8F  8  0D D1 17 00 22 00 84 03 
   179)       724.1  Rx     18EF1C8F  8  0D D2 14 00 0B 00 0D 00 
   180)       725.4  Rx     18EF1CCD  8  A3 00 00 00 00 FA FF FA 
   181)       732.1  Rx     18EFCD1C  8  A0 00 00 00 00 00 00 00 
   182)       732.7  Rx     18EF1CCD  8  A0 00 00 00 01 00 00 00 
   183)       742.2  Rx     18EF1C8F  8  0D E0 00 77 4F 40 87 FC 
   184)       743.1  Rx     18EF1C8F  8  0D E1 17 00 22 00 85 03 
   185)       744.2  Rx     18EF1C8F  8  0D E2 14 00 0A 00 0D 00 
   186)       745.5  Rx     18EF1CCD  8  A1 40 FA FF FF FF 00 00 
   187)       762.2  Rx     18EF1C8F  8  0D F0 00 94 9D 40 87 FC 
   188)       763.2  Rx     18EF1C8F  8  0D F1 15 00 21 00 83 03 
   189)       764.1  Rx     18EF1C8F  8  0D F2 14 00 0A 00 0E 00 
   190)       782.2  Rx     18EF1C8F  8  0D 00 00 B4 EB 40 87 FC 
   191)       783.1  Rx     18EF1C8F  8  0D 01 15 00 21 00 84 03 
   192)       784.2  Rx     18EF1C8F  8  0D 02 13 00 0B 00 0F 00 
   193)       802.2  Rx     18EF1C8F  8  0D 10 00 D4 39 41 87 FC 
   194)       803.2  Rx     18EF1C8F  8  0D 11 15 00 21 00 84 03 
   195)       804.1  Rx     18EF1C8F  8  0D 12 14 00 0B 00 0F 00 
   196)       805.6  Rx     18EF1CCD  8  A2 00 00 00 00 00 00 00 
   197)       822.2  Rx     18EF1C8F  8  0D 20 00 F4 87 41 87 FC 
   198)       823.2  Rx     18EF1C8F  8  0D 21 16 00 21 00 83 03 
   199)       824.1  Rx     18EF1C8F  8  0D 22 16 00 0A 00 0E 00 
   200)       825.7  Rx     18EF1CCD  8  A3 00 00 00 00 FA FF FA 
   201)       842.3  Rx     18EF1C8F  8  0D 30 00 14 D6 41 87 FC 
   202)       843.1  Rx     18EF1C8F  8  0D 31 17 00 22 00 84 03 
   203)       844.2  Rx     18EF1C8F  8  0D 32 13 00 0A 00 0E 00 
   204)       845.7  Rx     18EF1CCD  8  A1 40 FA FF FF FF 00 00 
   205)       852.3  Rx     18EFCD1C  8  A1 01 00 00 FA FF FF FF 
   206)       862.2  Rx     18EF1C8F  8  0D 40 00 37 24 42 87 FC 
   207)       863.2  Rx     18EF1C8F  8  0D 41 16 00 22 00 83 03 
   208)       864.1  Rx     18EF1C8F  8  0D 42 14 00 08 00 10 00 
   209)       872.1  Rx     18EFCD1C  8  A0 00 14 00 00 00 00 00 
   210)       872.8  Rx     18EF1CCD  8  A0 00 14 00 7A 07 00 00 
   211)       882.2  Rx     18EF1C8F  8  0D 50 00 54 72 42 87 FC 
   212)       883.2  Rx     18EF1C8F  8  0D 51 15 00 22 00 82 03 
   213)       884.2  Rx     18EF1C8F  8  0D 52 14 00 09 00 0F 00 
   214)       892.2  Rx     18EFCD1C  8  A0 00 2A 00 00 00 00 00 
   215)       892.9  Rx     18EF1CCD  8  A0 00 2A 00 75 05 00 00 
   216)       902.3  Rx     18EF1C8F  8  0D 60 00 77 C0 42 87 FC 
   217)       903.2  Rx     18EF1C8F  8  0D 61 15 00 21 00 83 03 
   218)       904.2  Rx     18EF1C8F  8  0D 62 15 00 0B 00 0E 00 
   219)       905.8  Rx     18EF1CCD  8  A2 00 00 00 00 00 00 00 
   220)       912.2  Rx     18EFCD1C  8  A0 00 1B 00 00 00 00 00 
   221)       912.9  Rx     18EF1CCD  8  A0 00 1B 00 00 00 00 00 
   222)       922.2  Rx     18EF1C8F  8  0D 70 00 94 0E 43 87 FC 
   223)       923.2  Rx     18EF1C8F  8  0D 71 15 00 22 00 82 03 
   224)       924.2  Rx     18EF1C8F  8  0D 72 14 00 0B 00 0F 00 
   225)       925.9  Rx     18EF1CCD  8  A3 00 00 00 00 FA FF FA 
   226)       932.2  Rx     18EFCD1C  8  A0 00 00 00 00 00 00 00 
   227)       932.8  Rx     18EF1CCD  8  A0 00 00 00 01 00 00 00 
   228)       942.3  Rx     18EF1C8F  8  0D 80 00 B4 5C 43 87 FC 
   229)       943.2  Rx     18EF1C8F  8  0D 81 15 00 21 00 83 03 
   230)       944.2  Rx     18EF1C8F  8  0D 82 14 00 0A 00 0D 00 
   231)       946.0  Rx     18EF1CCD  8  A1 40 FA FF FF FF 00 00 
   232)       962.2  Rx     18EF1C8F  8  0D 90 00 D4 AA 43 87 FC 
   233)       963.2  Rx     18EF1C8F  8  0D 91 17 00 21 00 82 03 
   234)       964.2  Rx     18EF1C8F  8  0D 92 15 00 0B 00 10 00 
   235)       982.3  Rx     18EF1C8F  8  0D A0 00 F4 F8 43 87 FC 
   236)       983.2  Rx     18EF1C8F  8  0D A1 15 00 21 00 83 03 
   237)       984.2  Rx     18EF1C8F  8  0D A2 15 00 09 00 0D 00 
   238)      1002.3  Rx     18EF1C8F  8  0D B0 00 14 47 44 87 FC 
   239)      1003.2  Rx     18EF1C8F  8  0D B1 16 00 24 00 83 03 
   240)      1004.2  Rx     18EF1C8F  8  0D B2 13 00 0A 00 0E 00 
   241)      1006.1  Rx     18EF1CCD  8  A2 00 00 00 00 00 00 00 
   242)      1022.3  Rx     18EF1C8F  8  0D C0 00 34 95 44 87 FC 
   243)      1023.2  Rx     18EF1C8F  8  0D C1 16 00 21 00 82 03 
   244)      1024.2  Rx     18EF1C8F  8  0D C2 16 00 0A 00 0C 00 
   245)      1026.1  Rx     18EF1CCD  8  A3 00 00 00 00 FA FF FA 
   246)      1042.3  Rx     18EF1C8F  8  0D D0 00 57 E3 44 87 FC 
   247)      1043.2  Rx     18EF1C8F  8  0D D1 15 00 21 00 83 03 
   248)      1044.2  Rx     18EF1C8F  8  0D D2 14 00 09 00 0D 00 
   249)      1046.2  Rx     18EF1CCD  8  A1 40 FA FF FF FF 00 00 
   250)      1052.4  Rx     18EFCD1C  8  A1 01 00 00 FA FF FF FF 
   251)      1062.3  Rx     18EF1C8F  8  0D E0 00 74 31 45 87 FC 
   252)      1063.2  Rx     18EF1C8F  8  0D E1 16 00 20 00 84 03 
   253)      1064.2  Rx     18EF1C8F  8  0D E2 15 00 09 00 0F 00 
   254)      1072.1  Rx     18EFCD1C  8  A0 00 14 00 00 00 00 00 
   255)      1072.8  Rx     18EF1CCD  8  A0 00 14 00 7A 07 00 00 
   256)      1082.3  Rx     18EF1C8F  8  0D F0 00 97 7F 45 87 FC 
   257)      1083.2  Rx     18EF1C8F  8  0D F1 16 00 22 00 83 03 
   258)      1084.2  Rx     18EF1C8F  8  0D F2 14 00 09 00 0D 00 
   259)      1092.2  Rx     18EFCD1C  8  A0 00 2A 00 00 00 00 00 
   260)      1092.8  Rx     18EF1CCD  8  A0 00 2A 00 74 05 00 00 
   261)      1102.3  Rx     18EF1C8F  8  0D 00 00 B4 CD 45 87 FC 
   262)      1103.2  Rx     18EF1C8F  8  0D 01 16 00 23 00 85 03 
   263)      1104.2  Rx     18EF1C8F  8  0D 02 14 00 09 00 0D 00 
   264)      1106.3  Rx     18EF1CCD  8  A2 00 00 00 00 00 00 00 
   265)      1112.2  Rx     18EFCD1C  8  A0 00 1B 00 00 00 00 00 
   266)      1112.8  Rx     18EF1CCD  8  A0 00 1B 00 00 00 00 00 
   267)      1122.3  Rx     18EF1C8F  8  0D 10 00 D7 1B 46 87 FC 
   268)      1123.2  Rx     18EF1C8F  8  0D 11 17 00 22 00 84 03 
   269)      1124.2  Rx     18EF1C8F  8  0D 12 14 00 09 00 0C 00 
   270)      1126.4  Rx     18EF1CCD  8  A3 00 00 00 00 FA FF FA 
   271)      1132.2  Rx     18EFCD1C  8  A0 00 00 00 00 00 00 00 
   272)      1132.8  Rx     18EF1CCD  8  A0 00 00 00 01 00 00 00 
   273)      1142.3  Rx     18EF1C8F  8  0D 20 00 F4 69 46 87 FC 
   274)      1143.2  Rx     18EF1C8F  8  0D 21 17 00 20 00 82 03 
   275)      1144.2  Rx     18EF1C8F  8  0D 22 15 00 0A 00 0A 00 
   276)      1146.4  Rx     18EF1CCD  8  A1 40 FA FF FF FF 00 00 
   277)      1162.3  Rx     18EF1C8F  8  0D 30 00 17 B8 46 87 FC 
   278)      1163.2  Rx     18EF1C8F  8  0D 31 16 00 21 00 82 03 
   279)      1164.2  Rx     18EF1C8F  8  0D 32 16 00 09 00 0E 00 
   280)      1182.3  Rx     18EF1C8F  8  0D 40 00 32 06 47 87 FC 
   281)      1183.2  Rx     18EF1C8F  8  0D 41 19 00 23 00 83 03 
   282)      1184.2  Rx     18EF1C8F  8  0D 42 14 00 09 00 0E 00 
   283)      1193.5  Rx     18FEF31C  8  5E 29 80 99 AC CE 2C 89 
   284)      1194.1  Rx     18FEE81C  8  97 4F 00 00 00 00 10 52 
   285)      1194.6  Rx     18FEE61C  8  18 0D 0E 09 57 29 00 00 
   286)      1195.2  Rx     19F8021C  8  15 FC 86 6C 00 00 FF FF 
   287)      1202.3  Rx     18EF1C8F  8  0D 50 00 59 54 47 87 FC 
   288)      1203.2  Rx     18EF1C8F  8  0D 51 17 00 23 00 83 03 
   289)      1204.2  Rx     18EF1C8F  8  0D 52 15 00 0B 00 0F 00 
   290)      1206.5  Rx     18EF1CCD  8  A2 00 00 00 00 00 00 00 
   291)      1222.3  Rx     18EF1C8F  8  0D 60 00 74 A2 47 87 FC 
   292)      1223.2  Rx     18EF1C8F  8  0D 61 17 00 22 00 82 03 
   293)      1224.2  Rx     18EF1C8F  8  0D 62 15 00 09 00 0D 00 
   294)      1226.6  Rx     18EF1CCD  8  A3 00 00 00 00 FA FF FA 
   295)      1239.0  Rx     19F8051C  8  A0 2F 15 EE 50 E3 5D 82 
   296)      1239.5  Rx     19F8051C  8  A1 1E 80 CE 24 2F E1 A6 
   297)      1240.1  Rx     19F8051C  8  A2 98 06 E0 65 4B B4 F3 
   298)      1240.6  Rx     19F8051C  8  A3 91 CB 02 41 40 68 08 
   299)      1241.2  Rx     19F8051C  8  A4 00 00 00 00 20 00 0A 
   300)      1241.7  Rx     19F8051C  8  A5 64 00 64 00 DC 05 00 
   301)      1242.3  Rx     19F8051C  8  A6 00 01 0F 00 00 00 FF 
   302)      1242.9  Rx     18EF1C8F  8  0D 70 00 99 F0 47 87 FC 
   303)      1243.4  Rx     18EF1C8F  8  0D 71 17 00 22 00 84 03 
   304)      1244.2  Rx     18EF1C8F  8  0D 72 16 00 08 00 0F 00 
   305)      1246.6  Rx     18EF1CCD  8  A1 40 FA FF FF FF 00 00 
   306)      1252.3  Rx     18EFCD1C  8  A1 01 00 00 FA FF FF FF 
   307)      1262.3  Rx     18EF1C8F  8  0D 80 00 B7 3E 48 87 FC 
   308)      1263.2  Rx     18EF1C8F  8  0D 81 16 00 21 00 83 03 
   309)      1264.2  Rx     18EF1C8F  8  0D 82 13 00 09 00 0E 00 
   310)      1272.2  Rx     18EFCD1C  8  A0 00 14 00 00 00 00 00 
   311)      1272.7  Rx     18EF1CCD  8  A0 00 14 00 7A 07 00 00 
   312)      1282.3  Rx     18EF1C8F  8  0D 90 00 D4 8C 48 87 FC 
   313)      1283.2  Rx     18EF1C8F  8  0D 91 18 00 22 00 83 03 
   314)      1284.2  Rx     18EF1C8F  8  0D 92 17 00 0A 00 10 00 
   315)      1292.2  Rx     18EFCD1C  8  A0 00 2A 00 00 00 00 00 
   316)      1292.8  Rx     18EF1CCD  8  A0 00 2A 00 75 05 00 00 
   317)      1302.3  Rx     18EF1C8F  8  0D A0 00 F4 DA 48 87 FC 
   318)      1303.2  Rx     18EF1C8F  8  0D A1 18 00 22 00 85 03 
   319)      1304.2  Rx     18EF1C8F  8  0D A2 15 00 0A 00 0F 00 
   320)      1306.8  Rx     18EF1CCD  8  A2 00 00 00 00 00 00 00 
   321)      1312.2  Rx     18EFCD1C  8  A0 00 1B 00 00 00 00 00 
   322)      1312.9  Rx     18EF1CCD  8  A0 00 1B 00 00 00 00 00 
   323)      1322.3  Rx     18EF1C8F  8  0D B0 00 17 29 49 87 FC 
   324)      1323.2  Rx     18EF1C8F  8  0D B1 17 00 22 00 84 03 
   325)      1324.2  Rx     18EF1C8F  8  0D B2 14 00 09 00 0E 00 
   326)      1326.8  Rx     18EF1CCD  8  A3 00 00 00 00 FA FF FA 
   327)      1332.2  Rx     18EFCD1C  8  A0 00 00 00 00 00 00 00 
   328)      1332.8  Rx     18EF1CCD  8  A0 00 00 00 01 00 00 00 
   329)      1342.3  Rx     18EF1C8F  8  0D C0 00 34 77 49 87 FC 
   330)      1343.2  Rx     18EF1C8F  8  0D C1 17 00 21 00 83 03 
   331)      1344.2  Rx     18EF1C8F  8  0D C2 14 00 0A 00 0E 00 
   332)      1346.9  Rx     18EF1CCD  8  A1 40 FA FF FF FF 00 00 
   333)      1362.3  Rx     18EF1C8F  8  0D D0 00 54 C5 49 87 FC 
   334)      1363.2  Rx     18EF1C8F  8  0D D1 16 00 23 00 83 03 
   335)      1364.2  Rx     18EF1C8F  8  0D D2 14 00 0B 00 0F 00 
   336)      1382.3  Rx     18EF1C8F  8  0D E0 00 74 13 4A 87 FC 
   337)      1383.2  Rx     18EF1C8F  8  0D E1 17 00 23 00 85 03 
   338)      1384.3  Rx     18EF1C8F  8  0D E2 14 00 0B 00 0E 00 
   339)      1402.3  Rx     18EF1C8F  8  0D F0 00 94 61 4A 87 FC 
   340)      1403.3  Rx     18EF1C8F  8  0D F1 17 00 24 00 83 03 
   341)      1404.2  Rx     18EF1C8F  8  0D F2 14 00 0B 00 0E 00 
   342)      1407.0  Rx     18EF1CCD  8  A2 00 00 00 00 00 00 00 
   343)      1422.3  Rx     18EF1C8F  8  0D 00 00 B4 AF 4A 87 FC 
   344)      1423.2  Rx     18EF1C8F  8  0D 01 15 00 23 00 82 03 
   345)      1424.3  Rx     18EF1C8F  8  0D 02 13 00 09 00 0E 00 
   346)      1427.1  Rx     18EF1CCD  8  A3 00 00 00 00 FA FF FA 
   347)      1442.3  Rx     18EF1C8F  8  0D 10 00 D4 FD 4A 87 FC 
   348)      1443.3  Rx     18EF1C8F  8  0D 11 15 00 22 00 82 03 
   349)      1444.3  Rx     18EF1C8F  8  0D 12 14 00 08 00 0F 00 
   350)      1447.1  Rx     18EF1CCD  8  A1 40 FA FF FF FF 00 00 
   351)      1452.3  Rx     18EFCD1C  8  A1 01 00 00 FA FF FF FF 
   352)      1462.3  Rx     18EF1C8F  8  0D 20 00 F7 4B 4B 87 FC 
   353)      1463.2  Rx     18EF1C8F  8  0D 21 16 00 22 00 84 03 
   354)      1464.3  Rx     18EF1C8F  8  0D 22 14 00 0C 00 0D 00 
   355)      1472.2  Rx     18EFCD1C  8  A0 00 14 00 00 00 00 00 
   356)      1472.8  Rx     18EF1CCD  8  A0 00 14 00 7A 07 00 00 
   357)      1482.4  Rx     18EF1C8F  8  0D 30 00 14 9A 4B 87 FC 
   358)      1483.2  Rx     18EF1C8F  8  0D 31 15 00 24 00 83 03 
   359)      1484.3  Rx     18EF1C8F  8  0D 32 13 00 0B 00 0D 00 
   360)      1492.2  Rx     18EFCD1C  8  A0 00 2A 00 00 00 00 00 
   361)      1492.8  Rx     18EF1CCD  8  A0 00 2A 00 75 05 00 00 
   362)      1502.3  Rx     18EF1C8F  8  0D 40 00 37 E8 4B 87 FC 
   363)      1503.3  Rx     18EF1C8F  8  0D 41 16 00 23 00 83 03 
   364)      1504.2  Rx     18EF1C8F  8  0D 42 13 00 09 00 10 00 
   365)      1507.3  Rx     18EF1CCD  8  A2 00 00 00 00 00 00 00 
   366)      1512.2  Rx     18EFCD1C  8  A0 00 1B 00 00 00 00 00 
   367)      1512.9  Rx     18EF1CCD  8  A0 00 1B 00 00 00 00 00 
   368)      1522.4  Rx     18EF1C8F  8  0D 50 00 57 36 4C 87 FC 
   369)      1523.2  Rx     18EF1C8F  8  0D 51 16 00 22 00 83 03 
   370)      1524.3  Rx     18EF1C8F  8  0D 52 16 00 0C 00 0E 00 
   371)      1527.3  Rx     18EF1CCD  8  A3 00 00 00 00 FA FF FA 
   372)      1532.2  Rx     18EFCD1C  8  A0 00 00 00 00 00 00 00 
   373)      1532.7  Rx     18EFCD1C  4  01 4C FC 00 
   374)      1533.3  Rx     18EF1CCD  8  A0 00 00 00 01 00 00 00 
   375)      1533.6  Rx     18EF1CCD  4  01 FD 4C 00 
   376)      1542.4  Rx     18EF1C8F  8  0D 60 00 77 84 4C 87 FC 
   377)      1543.3  Rx     18EF1C8F  8  0D 61 17 00 21 00 85 03 
   378)      1544.3  Rx     18EF1C8F  8  0D 62 14 00 0C 00 0D 00 
   379)      1547.4  Rx     18EF1CCD  8  A1 40 FA FF FF FF 00 00 
   380)      1562.3  Rx     18EF1C8F  8  0D 70 00 94 D2 4C 87 FC 
   381)      1563.3  Rx     18EF1C8F  8  0D 71 17 00 23 00 84 03 
   382)      1564.3  Rx     18EF1C8F  8  0D 72 14 00 0D 00 0D 00 
   383)      1582.4  Rx     18EF1C8F  8  0D 80 00 B4 20 4D 87 FC 
   384)      1583.3  Rx     18EF1C8F  8  0D 81 17 00 21 00 83 03 
   385)      1584.3  Rx     18EF1C8F  8  0D 82 15 00 08 00 0F 00 
   386)      1602.4  Rx     18EF1C8F  8  0D 90 00 D4 6E 4D 87 FC 
   387)      1603.3  Rx     18EF1C8F  8  0D 91 17 00 21 00 85 03 
   388)      1604.3  Rx     18EF1C8F  8  0D 92 13 00 0A 00 0E 00 
   389)      1607.5  Rx     18EF1CCD  8  A2 00 00 00 00 00 00 00 
   390)      1615.8  Rx     18EF8F1C  4  01 90 E9 00 
   391)      1616.4  Rx     18EF1C8F  4  01 EA 90 00 
   392)      1622.4  Rx     18EF1C8F  8  0D A0 00 F7 BC 4D 87 FC 
   393)      1623.3  Rx     18EF1C8F  8  0D A1 17 00 21 00 82 03 
   394)      1624.3  Rx     18EF1C8F  8  0D A2 14 00 0C 00 0F 00 
   395)      1627.6  Rx     18EF1CCD  8  A3 00 00 00 00 FA FF FA 
   396)      1642.4  Rx     18EF1C8F  8  0D B0 00 14 0B 4E 87 FC 
   397)      1643.3  Rx     18EF1C8F  8  0D B1 16 00 22 00 84 03 
   398)      1644.3  Rx     18EF1C8F  8  0D B2 13 00 0B 00 0F 00 
   399)      1647.6  Rx     18EF1CCD  8  A1 40 FA FF FF FF 00 00 
   400)      1652.3  Rx     18EFCD1C  8  A1 01 00 00 FA FF FF FF 
   401)      1662.4  Rx     18EF1C8F  8  0D C0 00 37 59 4E 87 FC 
   402)      1663.3  Rx     18EF1C8F  8  0D C1 17 00 21 00 82 03 
   403)      1664.3  Rx     18EF1C8F  8  0D C2 15 00 09 00 0F 00 
   404)      1672.2  Rx     18EFCD1C  8  A0 00 14 00 00 00 00 00 
   405)      1672.9  Rx     18EF1CCD  8  A0 00 14 00 7A 07 00 00 
   406)      1682.4  Rx     18EF1C8F  8  0D D0 00 54 A7 4E 87 FC 
   407)      1683.3  Rx     18EF1C8F  8  0D D1 17 00 22 00 82 03 
   408)      1684.3  Rx     18EF1C8F  8  0D D2 13 00 09 00 0E 00 
   409)      1692.3  Rx     18EFCD1C  8  A0 00 2A 00 00 00 00 00 
   410)      1692.9  Rx     18EF1CCD  8  A0 00 2A 00 74 05 00 00 
   411)      1702.4  Rx     18EF1C8F  8  0D E0 00 74 F5 4E 87 FC 
   412)      1703.3  Rx     18EF1C8F  8  0D E1 17 00 22 00 82 03 
   413)      1704.3  Rx     18EF1C8F  8  0D E2 15 00 0A 00 0C 00 
   414)      1707.8  Rx     18EF1CCD  8  A2 00 00 00 00 00 00 00 
   415)      1712.3  Rx     18EFCD1C  8  A0 00 1B 00 00 00 00 00 
   416)      1713.0  Rx     18EF1CCD  8  A0 00 1B 00 00 00 00 00 
   417)      1722.4  Rx     18EF1C8F  8  0D F0 00 97 43 4F 87 FC 
   418)      1723.3  Rx     18EF1C8F  8  0D F1 15 00 21 00 82 03 
   419)      1724.3  Rx     18EF1C8F  8  0D F2 14 00 0A 00 0D 00 
   420)      1727.8  Rx     18EF1CCD  8  A3 00 00 00 00 FA FF FA 
   421)      1732.3  Rx     18EFCD1C  8  A0 00 00 00 00 00 00 00 
   422)      1732.9  Rx     18EF1CCD  8  A0 00 00 00 01 00 00 00 
   423)      1742.4  Rx     18EF1C8F  8  0D 00 00 B4 91 4F 87 FC 
   424)      1743.3  Rx     18EF1C8F  8  0D 01 16 00 22 00 83 03 
   425)      1744.3  Rx     18EF1C8F  8  0D 02 15 00 0A 00 10 00 
   426)      1747.8  Rx     18EF1CCD  8  A1 40 FA FF FF FF 00 00 
   427)      1762.4  Rx     18EF1C8F  8  0D 10 00 D4 DF 4F 87 FC 
   428)      1763.3  Rx     18EF1C8F  8  0D 11 15 00 23 00 83 03 
   429)      1764.3  Rx     18EF1C8F  8  0D 12 14 00 09 00 0E 00 
   430)      1782.4  Rx     18EF1C8F  8  0D 20 00 F4 2D 50 86 FC 
   431)      1783.3  Rx     18EF1C8F  8  0D 21 17 00 23 00 83 03 
   432)      1784.3  Rx     18EF1C8F  8  0D 22 15 00 07 00 10 00 
   433)      1802.4  Rx     18EF1C8F  8  0D 30 00 14 7C 50 87 FC 
   434)      1803.3  Rx     18EF1C8F  8  0D 31 16 00 22 00 83 03 
   435)      1804.3  Rx     18EF1C8F  8  0D 32 14 00 09 00 0E 00 
   436)      1807.9  Rx     18EF1CCD  8  A2 00 00 00 00 00 00 00 
   437)      1822.4  Rx     18EF1C8F  8  0D 40 00 34 CA 50 87 FC 
   438)      1823.3  Rx     18EF1C8F  8  0D 41 15 00 21 00 84 03 
   439)      1824.3  Rx     18EF1C8F  8  0D 42 14 00 0D 00 0F 00 
   440)      1828.0  Rx     18EF1CCD  8  A3 00 00 00 00 FA FF FA 
   441)      1842.4  Rx     18EF1C8F  8  0D 50 00 54 18 51 87 FC 
   442)      1843.3  Rx     18EF1C8F  8  0D 51 17 00 21 00 84 03 
   443)      1844.3  Rx     18EF1C8F  8  0D 52 14 00 0C 00 0F 00 
   444)      1848.1  Rx     18EF1CCD  8  A1 40 FA FF FF FF 00 00 
   445)      1852.5  Rx     18EFCD1C  8  A1 01 00 00 FA FF FF FF 
   446)      1862.4  Rx     18EF1C8F  8  0D 60 00 74 66 51 87 FC 
   447)      1863.3  Rx     18EF1C8F  8  0D 61 15 00 23 00 84 03 
   448)      1864.3  Rx     18EF1C8F  8  0D 62 15 00 0B 00 0C 00 
   449)      1872.3  Rx     18EFCD1C  8  A0 00 14 00 00 00 00 00 
   450)      1872.9  Rx     18EF1CCD  8  A0 00 14 00 7A 07 00 00 
   451)      1882.4  Rx     18EF1C8F  8  0D 70 00 97 B4 51 87 FC 
   452)      1883.3  Rx     18EF1C8F  8  0D 71 18 00 20 00 84 03 
   453)      1884.4  Rx     18EF1C8F  8  0D 72 16 00 0A 00 0D 00 
   454)      1892.3  Rx     18EFCD1C  8  A0 00 2A 00 00 00 00 00 
   455)      1892.9  Rx     18EF1CCD  8  A0 00 2A 00 74 05 00 00 
   456)      1902.4  Rx     18EF1C8F  8  0D 80 00 B4 02 52 87 FC 
   457)      1903.4  Rx     18EF1C8F  8  0D 81 16 00 23 00 83 03 
   458)      1904.3  Rx     18EF1C8F  8  0D 82 13 00 0B 00 0D 00 
   459)      1908.2  Rx     18EF1CCD  8  A2 00 00 00 00 00 00 00 
   460)      1912.3  Rx     18EFCD1C  8  A0 00 1B 00 00 00 00 00 
   461)      1912.9  Rx     18EF1CCD  8  A0 00 1B 00 00 00 00 00 
   462)      1922.4  Rx     18EF1C8F  8  0D 90 00 D7 50 52 87 FC 
   463)      1923.3  Rx     18EF1C8F  8  0D 91 17 00 21 00 84 03 
   464)      1924.4  Rx     18EF1C8F  8  0D 92 13 00 09 00 0D 00 
   465)      1928.3  Rx     18EF1CCD  8  A3 00 00 00 00 FA FF FA 
   466)      1932.3  Rx     18EFCD1C  8  A0 00 00 00 00 00 00 00 
   467)      1932.9  Rx     18EF1CCD  8  A0 00 00 00 01 00 00 00 
   468)      1942.4  Rx     18EF1C8F  8  0D A0 00 F4 9E 52 87 FC 
   469)      1943.3  Rx     18EF1C8F  8  0D A1 16 00 22 00 84 03 
   470)      1944.3  Rx     18EF1C8F  8  0D A2 13 00 0C 00 0D 00 
   471)      1948.3  Rx     18EF1CCD  8  A1 40 FA FF FF FF 00 00 
   472)      1962.4  Rx     18EF1C8F  8  0D B0 00 14 ED 52 87 FC 
   473)      1963.4  Rx     18EF1C8F  8  0D B1 16 00 22 00 82 03 
   474)      1964.3  Rx     18EF1C8F  8  0D B2 16 00 08 00 0E 00 
   475)      1982.5  Rx     18EF1C8F  8  0D C0 00 34 3B 53 87 FC 
   476)      1983.3  Rx     18EF1C8F  8  0D C1 15 00 21 00 82 03 
   477)      1984.4  Rx     18EF1C8F  8  0D C2 15 00 09 00 0D 00 
   478)      2002.4  Rx     18EF1C8F  8  0D D0 00 54 89 53 87 FC 
   479)      2003.4  Rx     18EF1C8F  8  0D D1 15 00 22 00 83 03 
   480)      2004.3  Rx     18EF1C8F  8  0D D2 16 00 0A 00 0D 00 
   481)      2008.4  Rx     18EF1CCD  8  A2 00 00 00 00 00 00 00 
   482)      2022.4  Rx     18EF1C8F  8  0D E0 00 77 D7 53 87 FC 
   483)      2023.4  Rx     18EF1C8F  8  0D E1 16 00 21 00 83 03 
   484)      2024.4  Rx     18EF1C8F  8  0D E2 15 00 0A 00 0E 00 
   485)      2028.5  Rx     18EF1CCD  8  A3 00 00 00 00 FA FF FA 
   486)      2042.5  Rx     18EF1C8F  8  0D F0 00 94 25 54 87 FC 
   487)      2043.4  Rx     18EF1C8F  8  0D F1 17 00 23 00 85 03 
   488)      2044.4  Rx     18EF1C8F  8  0D F2 14 00 0B 00 0E 00 
   489)      2048.6  Rx     18EF1CCD  8  A1 40 FA FF FF FF 00 00 
   490)      2052.4  Rx     18EFCD1C  8  A1 01 00 00 FA FF FF FF 
   491)      2062.4  Rx     18EF1C8F  8  0D 00 00 B7 73 54 87 FC 
   492)      2063.4  Rx     18EF1C8F  8  0D 01 16 00 21 00 83 03 
   493)      2064.4  Rx     18EF1C8F  8  0D 02 16 00 0A 00 0F 00 
   494)      2072.3  Rx     18EFCD1C  8  A0 00 14 00 00 00 00 00 
   495)      2073.0  Rx     18EF1CCD  8  A0 00 14 00 79 07 00 00 
   496)      2082.5  Rx     18EF1C8F  8  0D 10 00 D4 C1 54 87 FC 
   497)      2083.4  Rx     18EF1C8F  8  0D 11 15 00 23 00 84 03 
   498)      2084.4  Rx     18EF1C8F  8  0D 12 13 00 09 00 0F 00 
   499)      2092.3  Rx     18EFCD1C  8  A0 00 2A 00 00 00 00 00 
   500)      2092.9  Rx     18EF1CCD  8  A0 00 2A 00 75 05 00 00 
   501)      2102.4  Rx     18EF1C8F  8  0D 20 00 F7 0F 55 87 FC 
   502)      2103.4  Rx     18EF1C8F  8  0D 21 16 00 22 00 83 03 
   503)      2104.4  Rx     18EF1C8F  8  0D 22 14 00 06 00 0E 00 
   504)      2108.7  Rx     18EF1CCD  8  A2 00 00 00 00 00 00 00 
   505)      2112.3  Rx     18EFCD1C  8  A0 00 1B 00 00 00 00 00 
   506)      2113.0  Rx     18EF1CCD  8  A0 00 1B 00 00 00 00 00 
   507)      2122.5  Rx     18EF1C8F  8  0D 30 00 14 5E 55 87 FC 
   508)      2123.4  Rx     18EF1C8F  8  0D 31 16 00 22 00 84 03 
   509)      2124.4  Rx     18EF1C8F  8  0D 32 14 00 07 00 0F 00 
   510)      2128.7  Rx     18EF1CCD  8  A3 00 00 00 00 FA FF FA 
   511)      2132.3  Rx     18EFCD1C  8  A0 00 00 00 00 00 00 00 
   512)      2133.0  Rx     18EF1CCD  8  A0 00 00 00 01 00 00 00 
   513)      2142.5  Rx     18EF1C8F  8  0D 40 00 37 AC 55 87 FC 
   514)      2143.4  Rx     18EF1C8F  8  0D 41 16 00 22 00 81 03 
   515)      2144.4  Rx     18EF1C8F  8  0D 42 15 00 0A 00 0D 00 
   516)      2148.8  Rx     18EF1CCD  8  A1 40 FA FF FF FF 00 00 
   517)      2162.5  Rx     18EF1C8F  8  0D 50 00 54 FA 55 87 FC 
   518)      2163.4  Rx     18EF1C8F  8  0D 51 15 00 22 00 83 03 
   519)      2164.4  Rx     18EF1C8F  8  0D 52 16 00 0B 00 10 00 
   520)      2182.5  Rx     18EF1C8F  8  0D 60 00 74 48 56 87 FC 
   521)      2183.4  Rx     18EF1C8F  8  0D 61 16 00 21 00 83 03 
   522)      2184.4  Rx     18EF1C8F  8  0D 62 14 00 0A 00 0D 00 
   523)      2193.6  Rx     18FEF31C  8  5E 29 80 99 AC CE 2C 89 
   524)      2194.2  Rx     18FEE81C  8  97 4F 00 00 00 00 10 52 
   525)      2194.8  Rx     18FEE61C  8  1C 0D 0E 09 57 29 00 00 
   526)      2195.3  Rx     19F8021C  8  1A FC 86 6C 00 00 FF FF 
   527)      2202.5  Rx     18EF1C8F  8  0D 70 00 99 96 56 87 FC 
   528)      2203.4  Rx     18EF1C8F  8  0D 71 17 00 22 00 84 03 
   529)      2204.4  Rx     18EF1C8F  8  0D 72 15 00 0B 00 0E 00 
   530)      2208.9  Rx     18EF1CCD  8  A2 00 00 00 00 00 00 00 
   531)      2222.5  Rx     18EF1C8F  8  0D 80 00 B4 E4 56 87 FC 
   532)      2223.4  Rx     18EF1C8F  8  0D 81 16 00 22 00 83 03 
   533)      2224.4  Rx     18EF1C8F  8  0D 82 14 00 09 00 0E 00 
   534)      2229.0  Rx     18EF1CCD  8  A3 00 00 00 00 FA FF FA 
   535)      2239.3  Rx     19F8051C  8  C0 2F 1A EE 50 F3 84 82 
   536)      2239.8  Rx     19F8051C  8  C1 1E 80 CE 24 2F E1 A6 
   537)      2240.4  Rx     19F8051C  8  C2 98 06 E0 65 4B B4 F3 
   538)      2241.0  Rx     19F8051C  8  C3 91 CB 02 41 40 68 08 
   539)      2241.5  Rx     19F8051C  8  C4 00 00 00 00 20 00 0A 
   540)      2242.1  Rx     19F8051C  8  C5 64 00 64 00 DC 05 00 
   541)      2242.6  Rx     18EF1C8F  8  0D 90 00 D7 32 57 87 FC 
   542)      2243.2  Rx     19F8051C  8  C6 00 01 0F 00 00 00 FF 
   543)      2243.8  Rx     18EF1C8F  8  0D 91 15 00 22 00 83 03 
   544)      2244.4  Rx     18EF1C8F  8  0D 92 17 00 0A 00 0F 00 
   545)      2249.0  Rx     18EF1CCD  8  A1 40 FA FF FF FF 00 00 
   546)      2252.4  Rx     18EFCD1C  8  A1 01 00 00 FA FF FF FF 
   547)      2262.5  Rx     18EF1C8F  8  0D A0 00 F4 80 57 87 FC 
   548)      2263.4  Rx     18EF1C8F  8  0D A1 16 00 23 00 82 03 
   549)      2264.4  Rx     18EF1C8F  8  0D A2 15 00 0A 00 0D 00 
   550)      2272.3  Rx     18EFCD1C  8  A0 00 14 00 00 00 00 00 
   551)      2272.9  Rx     18EF1CCD  8  A0 00 14 00 7A 07 00 00 
   552)      2282.5  Rx     18EF1C8F  8  0D B0 00 14 CF 57 87 FC 
   553)      2283.4  Rx     18EF1C8F  8  0D B1 16 00 21 00 82 03 
   554)      2284.4  Rx     18EF1C8F  8  0D B2 14 00 0A 00 0D 00 
   555)      2292.3  Rx     18EFCD1C  8  A0 00 2A 00 00 00 00 00 
   556)      2293.0  Rx     18EF1CCD  8  A0 00 2A 00 76 05 00 00 
   557)      2302.5  Rx     18EF1C8F  8  0D C0 00 37 1D 58 87 FC 
   558)      2303.4  Rx     18EF1C8F  8  0D C1 17 00 22 00 83 03 
   559)      2304.4  Rx     18EF1C8F  8  0D C2 13 00 0C 00 0D 00 
   560)      2309.1  Rx     18EF1CCD  8  A2 00 00 00 00 00 00 00 
   561)      2312.3  Rx     18EFCD1C  8  A0 00 1B 00 00 00 00 00 
   562)      2313.0  Rx     18EF1CCD  8  A0 00 1B 00 00 00 00 00 
   563)      2322.5  Rx     18EF1C8F  8  0D D0 00 54 6B 58 87 FC 
   564)      2323.4  Rx     18EF1C8F  8  0D D1 17 00 23 00 83 03 
   565)      2324.4  Rx     18EF1C8F  8  0D D2 16 00 0A 00 0D 00 
   566)      2329.2  Rx     18EF1CCD  8  A3 00 00 00 00 FA FF FA 
   567)      2332.3  Rx     18EFCD1C  8  A0 00 00 00 00 00 00 00 
   568)      2333.0  Rx     18EF1CCD  8  A0 00 00 00 01 00 00 00 
   569)      2342.5  Rx     18EF1C8F  8  0D E0 00 77 B9 58 87 FC 
   570)      2343.4  Rx     18EF1C8F  8  0D E1 15 00 22 00 82 03 
   571)      2344.4  Rx     18EF1C8F  8  0D E2 16 00 08 00 0F 00 
   572)      2349.2  Rx     18EF1CCD  8  A1 40 FA FF FF FF 00 00 
   573)      2362.5  Rx     18EF1C8F  8  0D F0 00 94 07 59 87 FC 
   574)      2363.4  Rx     18EF1C8F  8  0D F1 17 00 22 00 85 03 
   575)      2364.4  Rx     18EF1C8F  8  0D F2 15 00 0B 00 0C 00 
   576)      2382.5  Rx     18EF1C8F  8  0D 00 00 B4 55 59 87 FC 
   577)      2383.4  Rx     18EF1C8F  8  0D 01 16 00 22 00 83 03 
   578)      2384.4  Rx     18EF1C8F  8  0D 02 14 00 0D 00 0E 00 
   579)      2402.5  Rx     18EF1C8F  8  0D 10 00 D4 A3 59 87 FC 
   580)      2403.4  Rx     18EF1C8F  8  0D 11 16 00 23 00 83 03 
   581)      2404.4  Rx     18EF1C8F  8  0D 12 15 00 0A 00 0E 00 
   582)      2409.4  Rx     18EF1CCD  8  A2 00 00 00 00 00 00 00 
   583)      2422.5  Rx     18EF1C8F  8  0D 20 00 F4 F1 59 87 FC 
   584)      2423.4  Rx     18EF1C8F  8  0D 21 16 00 23 00 82 03 
   585)      2424.4  Rx     18EF1C8F  8  0D 22 15 00 0A 00 11 00 
   586)      2429.4  Rx     18EF1CCD  8  A3 00 00 00 00 FA FF FA 
   587)      2442.5  Rx     18EF1C8F  8  0D 30 00 17 40 5A 87 FC 
   588)      2443.4  Rx     18EF1C8F  8  0D 31 15 00 22 00 82 03 
   589)      2444.4  Rx     18EF1C8F  8  0D 32 14 00 0A 00 0D 00 
   590)      2449.5  Rx     18EF1CCD  8  A1 40 FA FF FF FF 00 00 
   591)      2452.4  Rx     18EFCD1C  8  A1 01 00 00 FA FF FF FF 
   592)      2462.5  Rx     18EF1C8F  8  0D 40 00 34 8E 5A 87 FC 
   593)      2463.4  Rx     18EF1C8F  8  0D 41 15 00 22 00 83 03 
   594)      2464.4  Rx     18EF1C8F  8  0D 42 11 00 0D 00 0F 00 
   595)      2472.3  Rx     18EFCD1C  8  A0 00 14 00 00 00 00 00 
   596)      2472.9  Rx     18EF1CCD  8  A0 00 14 00 7A 07 00 00 
   597)      2482.5  Rx     18EF1C8F  8  0D 50 00 57 DC 5A 87 FC 
   598)      2483.4  Rx     18EF1C8F  8  0D 51 15 00 21 00 84 03 
   599)      2484.4  Rx     18EF1C8F  8  0D 52 14 00 0A 00 0C 00 
   600)      2492.3  Rx     18EFCD1C  8  A0 00 2A 00 00 00 00 00 
   601)      2493.0  Rx     18EF1CCD  8  A0 00 2A 00 76 05 00 00 
   602)      2502.5  Rx     18EF1C8F  8  0D 60 00 74 2A 5B 87 FC 
   603)      2503.4  Rx     18EF1C8F  8  0D 61 16 00 21 00 83 03 
   604)      2504.4  Rx     18EF1C8F  8  0D 62 14 00 0A 00 0D 00 
   605)      2509.6  Rx     18EF1CCD  8  A2 00 00 00 00 00 00 00 
   606)      2512.3  Rx     18EFCD1C  8  A0 00 1B 00 00 00 00 00 
   607)      2513.0  Rx     18EF1CCD  8  A0 00 1B 00 00 00 00 00 
   608)      2522.5  Rx     18EF1C8F  8  0D 70 00 94 78 5B 87 FC 
   609)      2523.4  Rx     18EF1C8F  8  0D 71 17 00 22 00 83 03 
   610)      2524.4  Rx     18EF1C8F  8  0D 72 14 00 0C 00 11 00 
   611)      2529.7  Rx     18EF1CCD  8  A3 00 00 00 00 FA FF FA 
   612)      2532.3  Rx     18EFCD1C  8  A0 00 00 00 00 00 00 00 
   613)      2532.9  Rx     18EF1CCD  8  A0 00 00 00 01 00 00 00 
   614)      2542.5  Rx     18EF1C8F  8  0D 80 00 B7 C6 5B 87 FC 
   615)      2543.4  Rx     18EF1C8F  8  0D 81 17 00 24 00 83 03 
   616)      2544.4  Rx     18EF1C8F  8  0D 82 14 00 0B 00 0F 00 
   617)      2549.7  Rx     18EF1CCD  8  A1 40 FA FF FF FF 00 00 
   618)      2562.5  Rx     18EF1C8F  8  0D 90 00 D4 14 5C 87 FC 
   619)      2563.4  Rx     18EF1C8F  8  0D 91 16 00 23 00 84 03 
   620)      2564.4  Rx     18EF1C8F  8  0D 92 13 00 0A 00 0C 00 
   621)      2582.5  Rx     18EF1C8F  8  0D A0 00 F4 62 5C 87 FC 
   622)      2583.4  Rx     18EF1C8F  8  0D A1 17 00 22 00 83 03 
   623)      2584.4  Rx     18EF1C8F  8  0D A2 15 00 0B 00 0D 00 
   624)      2602.5  Rx     18EF1C8F  8  0D B0 00 14 B1 5C 87 FC 
   625)      2603.4  Rx     18EF1C8F  8  0D B1 15 00 21 00 83 03 
   626)      2604.4  Rx     18EF1C8F  8  0D B2 15 00 0A 00 0F 00 
   627)      2609.8  Rx     18EF1CCD  8  A2 00 00 00 00 00 00 00 
   628)      2622.5  Rx     18EF1C8F  8  0D C0 00 34 FF 5C 87 FC 
   629)      2623.4  Rx     18EF1C8F  8  0D C1 15 00 22 00 83 03 
   630)      2624.4  Rx     18EF1C8F  8  0D C2 14 00 08 00 0E 00 
   631)      2629.9  Rx     18EF1CCD  8  A3 00 00 00 00 FA FF FA 
   632)      2642.5  Rx     18EF1C8F  8  0D D0 00 54 4D 5D 87 FC 
   633)      2643.4  Rx     18EF1C8F  8  0D D1 15 00 23 00 82 03 
   634)      2644.4  Rx     18EF1C8F  8  0D D2 15 00 05 00 0F 00 
   635)      2649.9  Rx     18EF1CCD  8  A1 40 FA FF FF FF 00 00 
   636)      2652.4  Rx     18EFCD1C  8  A1 01 00 00 FA FF FF FF 
   637)      2662.5  Rx     18EF1C8F  8  0D E0 00 77 9B 5D 87 FC 
   638)      2663.4  Rx     18EF1C8F  8  0D E1 17 00 23 00 84 03 
   639)      2664.4  Rx     18EF1C8F  8  0D E2 14 00 07 00 0E 00 
   640)      2672.3  Rx     18EFCD1C  8  A0 00 14 00 00 00 00 00 
   641)      2673.0  Rx     18EF1CCD  8  A0 00 14 00 7A 07 00 00 
   642)      2682.5  Rx     18EF1C8F  8  0D F0 00 94 E9 5D 87 FC 
   643)      2683.4  Rx     18EF1C8F  8  0D F1 16 00 21 00 84 03 
   644)      2684.4  Rx     18EF1C8F  8  0D F2 14 00 0B 00 0B 00 
   645)      2692.3  Rx     18EFCD1C  8  A0 00 2A 00 00 00 00 00 
   646)      2693.0  Rx     18EF1CCD  8  A0 00 2A 00 75 05 00 00 
   647)      2702.5  Rx     18EF1C8F  8  0D 00 00 B4 37 5E 87 FC 
   648)      2703.4  Rx     18EF1C8F  8  0D 01 15 00 23 00 84 03 
   649)      2704.4  Rx     18EF1C8F  8  0D 02 15 00 0D 00 0D 00 
   650)      2710.0  Rx     18EF1CCD  8  A2 00 00 00 00 00 00 00 
   651)      2712.3  Rx     18EFCD1C  8  A0 00 1B 00 00 00 00 00 
   652)      2713.1  Rx     18EF1CCD  8  A0 00 1B 00 00 00 00 00 
   653)      2722.5  Rx     18EF1C8F  8  0D 10 00 D7 85 5E 87 FC 
   654)      2723.4  Rx     18EF1C8F  8  0D 11 17 00 22 00 84 03 
   655)      2724.4  Rx     18EF1C8F  8  0D 12 16 00 0B 00 0F 00 
   656)      2730.1  Rx     18EF1CCD  8  A3 00 00 00 00 FA FF FA 
   657)      2732.6  Rx     18EFCD1C  8  A0 00 00 00 00 00 00 00 
   658)      2733.2  Rx     18EF1CCD  8  A0 00 00 00 01 00 00 00 
   659)      2742.5  Rx     18EF1C8F  8  0D 20 00 F4 D3 5E 87 FC 
   660)      2743.4  Rx     18EF1C8F  8  0D 21 18 00 21 00 84 03 
   661)      2744.4  Rx     18EF1C8F  8  0D 22 13 00 07 00 10 00 
   662)      2750.1  Rx     18EF1CCD  8  A1 40 FA FF FF FF 00 00 
   663)      2762.5  Rx     18EF1C8F  8  0D 30 00 17 22 5F 87 FC 
   664)      2763.4  Rx     18EF1C8F  8  0D 31 17 00 21 00 83 03 
   665)      2764.4  Rx     18EF1C8F  8  0D 32 15 00 07 00 0E 00 
   666)      2782.5  Rx     18EF1C8F  8  0D 40 00 34 70 5F 87 FC 
   667)      2783.4  Rx     18EF1C8F  8  0D 41 17 00 22 00 84 03 
   668)      2784.4  Rx     18EF1C8F  8  0D 42 13 00 08 00 0B 00 
   669)      2802.5  Rx     18EF1C8F  8  0D 50 00 52 BE 5F 87 FC 
   670)      2803.4  Rx     18EF1C8F  8  0D 51 17 00 23 00 82 03 
   671)      2804.4  Rx     18EF1C8F  8  0D 52 15 00 0D 00 0E 00 
   672)      2810.3  Rx     18EF1CCD  8  A2 00 00 00 00 00 00 00 
   673)      2822.5  Rx     18EF1C8F  8  0D 60 00 77 0C 60 87 FC 
   674)      2823.4  Rx     18EF1C8F  8  0D 61 15 00 23 00 83 03 
   675)      2824.4  Rx     18EF1C8F  8  0D 62 17 00 0B 00 0F 00 
   676)      2830.3  Rx     18EF1CCD  8  A3 00 00 00 00 FA FF FA 
   677)      2842.5  Rx     18EF1C8F  8  0D 70 00 94 5A 60 87 FC 
   678)      2843.4  Rx     18EF1C8F  8  0D 71 16 00 21 00 84 03 
   679)      2844.4  Rx     18EF1C8F  8  0D 72 13 00 09 00 0D 00 
   680)      2850.3  Rx     18EF1CCD  8  A1 40 FA FF FF FF 00 00 
   681)      2852.7  Rx     18EFCD1C  8  A1 01 00 00 FA FF FF FF 
   682)      2862.5  Rx     18EF1C8F  8  0D 80 00 B4 A8 60 87 FC 
   683)      2863.4  Rx     18EF1C8F  8  0D 81 17 00 22 00 83 03 
   684)      2864.4  Rx     18EF1C8F  8  0D 82 13 00 0A 00 0D 00 
   685)      2872.3  Rx     18EFCD1C  8  A0 00 14 00 00 00 00 00 
   686)      2872.9  Rx     18EF1CCD  8  A0 00 14 00 79 07 00 00 
   687)      2882.5  Rx     18EF1C8F  8  0D 90 00 D7 F6 60 87 FC 
   688)      2883.4  Rx     18EF1C8F  8  0D 91 15 00 21 00 83 03 
   689)      2884.4  Rx     18EF1C8F  8  0D 92 16 00 0A 00 10 00 
   690)      2892.3  Rx     18EFCD1C  8  A0 00 2A 00 00 00 00 00 
   691)      2892.9  Rx     18EF1CCD  8  A0 00 2A 00 75 05 00 00 
   692)      2902.5  Rx     18EF1C8F  8  0D A0 00 F4 44 61 87 FC 
   693)      2903.4  Rx     18EF1C8F  8  0D A1 15 00 21 00 84 03 
   694)      2904.4  Rx     18EF1C8F  8  0D A2 17 00 0C 00 0E 00 
   695)      2910.5  Rx     18EF1CCD  8  A2 00 00 00 00 00 00 00 
   696)      2912.4  Rx     18EFCD1C  8  A0 00 1B 00 00 00 00 00 
   697)      2913.0  Rx     18EF1CCD  8  A0 00 1B 00 00 00 00 00 
   698)      2922.5  Rx     18EF1C8F  8  0D B0 00 17 93 61 87 FC 
   699)      2923.4  Rx     18EF1C8F  8  0D B1 16 00 21 00 82 03 
   700)      2924.4  Rx     18EF1C8F  8  0D B2 15 00 09 00 0F 00 
   701)      2930.6  Rx     18EF1CCD  8  A3 00 00 00 00 FA FF FA 
   702)      2932.6  Rx     18EFCD1C  8  A0 00 00 00 00 00 00 00 
   703)      2933.2  Rx     18EF1CCD  8  A0 00 00 00 01 00 00 00 
   704)      2942.5  Rx     18EF1C8F  8  0D C0 00 37 E1 61 87 FC 
   705)      2943.5  Rx     18EF1C8F  8  0D C1 17 00 22 00 82 03 
   706)      2944.4  Rx     18EF1C8F  8  0D C2 16 00 0A 00 0F 00 
   707)      2950.6  Rx     18EF1CCD  8  A1 40 FA FF FF FF 00 00 
   708)      2962.5  Rx     18EF1C8F  8  0D D0 00 54 2F 62 87 FC 
   709)      2963.4  Rx     18EF1C8F  8  0D D1 16 00 22 00 84 03 
   710)      2964.5  Rx     18EF1C8F  8  0D D2 16 00 0B 00 0E 00 
   711)      2982.6  Rx     18EF1C8F  8  0D E0 00 74 7D 62 87 FC 
   712)      2983.5  Rx     18EF1C8F  8  0D E1 16 00 22 00 84 03 
   713)      2984.5  Rx     18EF1C8F  8  0D E2 15 00 08 00 0E 00 
   714)      3002.5  Rx     18EF1C8F  8  0D F0 00 94 CB 62 87 FC 
   715)      3003.4  Rx     18EF1C8F  8  0D F1 16 00 23 00 84 03 
   716)      3004.5  Rx     18EF1C8F  8  0D F2 14 00 05 00 0F 00 
   717)      3010.7  Rx     18EF1CCD  8  A2 00 00 00 00 00 00 00 
   718)      3022.6  Rx     18EF1C8F  8  0D 00 00 B4 19 63 87 FC 
   719)      3023.4  Rx     18EF1C8F  8  0D 01 15 00 22 00 83 03 
   720)      3024.5  Rx     18EF1C8F  8  0D 02 14 00 0B 00 11 00 
   721)      3030.8  Rx     18EF1CCD  8  A3 00 00 00 00 FA FF FA 
   722)      3042.5  Rx     18EF1C8F  8  0D 10 00 D4 67 63 87 FC 
   723)      3043.5  Rx     18EF1C8F  8  0D 11 17 00 22 00 84 03 
   724)      3044.4  Rx     18EF1C8F  8  0D 12 15 00 0C 00 0D 00 
   725)      3050.8  Rx     18EF1CCD  8  A1 40 FA FF FF FF 00 00 
   726)      3052.8  Rx     18EFCD1C  8  A1 01 00 00 FA FF FF FF 
   727)      3062.5  Rx     18EF1C8F  8  0D 20 00 F7 B5 63 86 FC 
   728)      3063.4  Rx     18EF1C8F  8  0D 21 15 00 23 00 86 03 
   729)      3064.5  Rx     18EF1C8F  8  0D 22 15 00 0E 00 0E 00 
   730)      3072.3  Rx     18EFCD1C  8  A0 00 14 00 00 00 00 00 
   731)      3072.9  Rx     18EF1CCD  8  A0 00 14 00 7B 07 00 00 
   732)      3082.6  Rx     18EF1C8F  8  0D 30 00 14 04 64 87 FC 
   733)      3083.5  Rx     18EF1C8F  8  0D 31 16 00 23 00 83 03 
   734)      3084.5  Rx     18EF1C8F  8  0D 32 13 00 0A 00 0E 00 
   735)      3092.4  Rx     18EFCD1C  8  A0 00 2A 00 00 00 00 00 
   736)      3093.0  Rx     18EF1CCD  8  A0 00 2A 00 75 05 00 00 
   737)      3102.5  Rx     18EF1C8F  8  0D 40 00 37 52 64 87 FC 
   738)      3103.5  Rx     18EF1C8F  8  0D 41 14 00 24 00 83 03 
   739)      3104.5  Rx     18EF1C8F  8  0D 42 14 00 0A 00 0E 00 
   740)      3111.0  Rx     18EF1CCD  8  A2 00 00 00 00 00 00 00 
   741)      3112.5  Rx     18EFCD1C  8  A0 00 1B 00 00 00 00 00 
   742)      3113.1  Rx     18EF1CCD  8  A0 00 1B 00 00 00 00 00 
   743)      3122.6  Rx     18EF1C8F  8  0D 50 00 54 A0 64 87 FC 
   744)      3123.5  Rx     18EF1C8F  8  0D 51 15 00 22 00 83 03 
   745)      3124.5  Rx     18EF1C8F  8  0D 52 14 00 08 00 0F 00 
   746)      3131.0  Rx     18EF1CCD  8  A3 00 00 00 00 FA FF FA 
   747)      3132.4  Rx     18EFCD1C  8  A0 00 00 00 00 00 00 00 
   748)      3133.1  Rx     18EF1CCD  8  A0 00 00 00 01 00 00 00 
   749)      3142.5  Rx     18EF1C8F  8  0D 60 00 74 EE 64 87 FC 
   750)      3143.5  Rx     18EF1C8F  8  0D 61 14 00 21 00 83 03 
   751)      3144.5  Rx     18EF1C8F  8  0D 62 15 00 0A 00 0C 00 
   752)      3151.1  Rx     18EF1CCD  8  A1 40 FA FF FF FF 00 00 
   753)      3162.6  Rx     18EF1C8F  8  0D 70 00 94 3C 65 87 FC 
   754)      3163.5  Rx     18EF1C8F  8  0D 71 15 00 21 00 84 03 
   755)      3164.5  Rx     18EF1C8F  8  0D 72 14 00 0A 00 0D 00 
   756)      3182.6  Rx     18EF1C8F  8  0D 80 00 B4 8A 65 87 FC 
   757)      3183.5  Rx     18EF1C8F  8  0D 81 15 00 23 00 84 03 
   758)      3184.5  Rx     18EF1C8F  8  0D 82 16 00 07 00 0E 00 
   759)      3193.7  Rx     18FEF31C  8  5E 29 80 99 AC CE 2C 89 
   760)      3194.3  Rx     18FEE81C  8  97 4F 00 00 00 00 10 52 
   761)      3194.8  Rx     18FEE61C  8  20 0D 0E 09 57 29 00 00 
   762)      3195.4  Rx     19F8021C  8  1F FC 86 6C 00 00 FF FF 
   763)      3202.6  Rx     18EF1C8F  8  0D 90 00 D9 D8 65 87 FC 
   764)      3203.5  Rx     18EF1C8F  8  0D 91 15 00 23 00 84 03 
   765)      3204.5  Rx     18EF1C8F  8  0D 92 15 00 0A 00 0E 00 
   766)      3211.2  Rx     18EF1CCD  8  A2 00 00 00 00 00 00 00 
   767)      3222.6  Rx     18EF1C8F  8  0D A0 00 F4 26 66 87 FC 
   768)      3223.5  Rx     18EF1C8F  8  0D A1 15 00 23 00 84 03 
   769)      3224.5  Rx     18EF1C8F  8  0D A2 14 00 0B 00 0C 00 
   770)      3231.3  Rx     18EF1CCD  8  A3 00 00 00 00 FA FF FA 
   771)      3239.4  Rx     19F8051C  8  E0 2F 1F EE 50 03 AC 82 
   772)      3239.9  Rx     19F8051C  8  E1 1E 80 CE 24 2F E1 A6 
   773)      3240.4  Rx     19F8051C  8  E2 98 06 E0 65 4B B4 F3 
   774)      3241.0  Rx     19F8051C  8  E3 91 CB 02 41 40 68 08 
   775)      3241.6  Rx     19F8051C  8  E4 00 00 00 00 20 00 0A 
   776)      3242.1  Rx     19F8051C  8  E5 64 00 64 00 DC 05 00 
   777)      3242.7  Rx     18EF1C8F  8  0D B0 00 17 75 66 87 FC 
   778)      3243.3  Rx     19F8051C  8  E6 00 01 0F 00 00 00 FF 
   779)      3243.8  Rx     18EF1C8F  8  0D B1 18 00 21 00 84 03 
   780)      3244.5  Rx     18EF1C8F  8  0D B2 14 00 09 00 0C 00 
   781)      3251.3  Rx     18EF1CCD  8  A1 40 FA FF FF FF 00 00 
   782)      3252.8  Rx     18EFCD1C  8  A1 01 00 00 FA FF FF FF 
   783)      3262.6  Rx     18EF1C8F  8  0D C0 00 34 C3 66 87 FC 
   784)      3263.5  Rx     18EF1C8F  8  0D C1 14 00 23 00 83 03 
   785)      3264.5  Rx     18EF1C8F  8  0D C2 15 00 0A 00 0D 00 
   786)      3272.4  Rx     18EFCD1C  8  A0 00 14 00 00 00 00 00 
   787)      3273.0  Rx     18EF1CCD  8  A0 00 14 00 7A 07 00 00 
   788)      3282.6  Rx     18EF1C8F  8  0D D0 00 57 11 67 87 FC 
   789)      3283.5  Rx     18EF1C8F  8  0D D1 17 00 22 00 81 03 
   790)      3284.5  Rx     18EF1C8F  8  0D D2 14 00 09 00 10 00 
   791)      3292.4  Rx     18EFCD1C  8  A0 00 2A 00 00 00 00 00 
   792)      3293.0  Rx     18EF1CCD  8  A0 00 2A 00 75 05 00 00 
   793)      3302.6  Rx     18EF1C8F  8  0D E0 00 74 5F 67 87 FC 
   794)      3303.5  Rx     18EF1C8F  8  0D E1 16 00 22 00 83 03 
   795)      3304.5  Rx     18EF1C8F  8  0D E2 14 00 0A 00 0E 00 
   796)      3311.4  Rx     18EF1CCD  8  A2 00 00 00 00 00 00 00 
   797)      3312.5  Rx     18EFCD1C  8  A0 00 1B 00 00 00 00 00 
   798)      3313.1  Rx     18EF1CCD  8  A0 00 1B 00 00 00 00 00 
   799)      3322.6  Rx     18EF1C8F  8  0D F0 00 97 AD 67 87 FC 
   800)      3323.5  Rx     18EF1C8F  8  0D F1 17 00 21 00 81 03 
   801)      3324.5  Rx     18EF1C8F  8  0D F2 14 00 09 00 0E 00 
   802)      3331.5  Rx     18EF1CCD  8  A3 00 00 00 00 FA FF FA 
   803)      3332.5  Rx     18EFCD1C  8  A0 00 00 00 00 00 00 00 
   804)      3333.1  Rx     18EF1CCD  8  A0 00 00 00 01 00 00 00 
   805)      3342.6  Rx     18EF1C8F  8  0D 00 00 B4 FB 67 87 FC 
   806)      3343.5  Rx     18EF1C8F  8  0D 01 15 00 22 00 83 03 
   807)      3344.5  Rx     18EF1C8F  8  0D 02 14 00 0A 00 0E 00 
   808)      3351.5  Rx     18EF1CCD  8  A1 40 FA FF FF FF 00 00 
   809)      3362.6  Rx     18EF1C8F  8  0D 10 00 D7 49 68 87 FC 
   810)      3363.5  Rx     18EF1C8F  8  0D 11 17 00 22 00 83 03 
   811)      3364.5  Rx     18EF1C8F  8  0D 12 16 00 0A 00 0D 00 
   812)      3382.6  Rx     18EF1C8F  8  0D 20 00 F2 97 68 87 FC 
   813)      3383.5  Rx     18EF1C8F  8  0D 21 16 00 23 00 82 03 
   814)      3384.5  Rx     18EF1C8F  8  0D 22 13 00 0A 00 0C 00 
   815)      3402.6  Rx     18EF1C8F  8  0D 30 00 14 E6 68 87 FC 
   816)      3403.5  Rx     18EF1C8F  8  0D 31 19 00 22 00 83 03 
   817)      3404.5  Rx     18EF1C8F  8  0D 32 16 00 08 00 0D 00 
   818)      3411.6  Rx     18EF1CCD  8  A2 00 00 00 00 00 00 00 
   819)      3422.6  Rx     18EF1C8F  8  0D 40 00 37 34 69 87 FC 
   820)      3423.5  Rx     18EF1C8F  8  0D 41 17 00 21 00 84 03 
   821)      3424.5  Rx     18EF1C8F  8  0D 42 12 00 08 00 0E 00 
   822)      3431.7  Rx     18EF1CCD  8  A3 00 00 00 00 FA FF FA 
   823)      3442.6  Rx     18EF1C8F  8  0D 50 00 54 82 69 87 FC 
   824)      3443.5  Rx     18EF1C8F  8  0D 51 16 00 1F 00 84 03 
   825)      3444.5  Rx     18EF1C8F  8  0D 52 14 00 09 00 0F 00 
   826)      3451.7  Rx     18EF1CCD  8  A1 40 FA FF FF FF 00 00 
   827)      3452.8  Rx     18EFCD1C  8  A1 01 00 00 FA FF FF FF 
   828)      3462.5  Rx     18EF1C8F  8  0D 60 00 74 D0 69 87 FC 
   829)      3463.5  Rx     18EF1C8F  8  0D 61 16 00 22 00 83 03 
   830)      3464.5  Rx     18EF1C8F  8  0D 62 14 00 0D 00 0E 00 
   831)      3472.3  Rx     18EFCD1C  8  A0 00 14 00 00 00 00 00 
   832)      3473.0  Rx     18EF1CCD  8  A0 00 14 00 7A 07 00 00 
   833)      3482.5  Rx     18EF1C8F  8  0D 70 00 97 1E 6A 87 FC 
   834)      3483.5  Rx     18EF1C8F  8  0D 71 14 00 22 00 83 03 
   835)      3484.5  Rx     18EF1C8F  8  0D 72 14 00 0F 00 0F 00 
   836)      3492.4  Rx     18EFCD1C  8  A0 00 2A 00 00 00 00 00 
   837)      3493.0  Rx     18EF1CCD  8  A0 00 2A 00 74 05 00 00 
   838)      3502.5  Rx     18EF1C8F  8  0D 80 00 B4 6C 6A 87 FC 
   839)      3503.5  Rx     18EF1C8F  8  0D 81 16 00 22 00 84 03 
   840)      3504.5  Rx     18EF1C8F  8  0D 82 16 00 0A 00 0E 00 
   841)      3511.8  Rx     18EF1CCD  8  A2 00 00 00 00 00 00 00 
   842)      3512.4  Rx     18EFCD1C  8  A0 00 1B 00 00 00 00 00 
   843)      3513.1  Rx     18EF1CCD  8  A0 00 1B 00 00 00 00 00 
   844)      3522.5  Rx     18EF1C8F  8  0D 90 00 D7 BA 6A 87 FC 
   845)      3523.5  Rx     18EF1C8F  8  0D 91 16 00 22 00 85 03 
   846)      3524.5  Rx     18EF1C8F  8  0D 92 16 00 0A 00 0E 00 
   847)      3531.9  Rx     18EF1CCD  8  A3 00 00 00 00 FA FF FA 
   848)      3532.4  Rx     18EFCD1C  8  A0 00 00 00 00 00 00 00 
   849)      3533.1  Rx     18EF1CCD  8  A0 00 00 00 01 00 00 00 
   850)      3542.5  Rx     18EF1C8F  8  0D A0 00 F4 08 6B 87 FC 
   851)      3543.4  Rx     18EF1C8F  8  0D A1 15 00 22 00 84 03 
   852)      3544.5  Rx     18EF1C8F  8  0D A2 16 00 07 00 0D 00 
   853)      3551.9  Rx     18EF1CCD  8  A1 40 FA FF FF FF 00 00 
   854)      3552.3  Rx     18EFCD1C  4  01 4D FD 00 
   855)      3552.8  Rx     18EF1CCD  4  01 FE 4D 00 
   856)      3562.5  Rx     18EF1C8F  8  0D B0 00 17 57 6B 87 FC 
   857)      3563.5  Rx     18EF1C8F  8  0D B1 14 00 24 00 84 03 
   858)      3564.4  Rx     18EF1C8F  8  0D B2 16 00 0A 00 0F 00 
   859)      3582.5  Rx     18EF1C8F  8  0D C0 00 34 A5 6B 87 FC 
   860)      3583.5  Rx     18EF1C8F  8  0D C1 15 00 22 00 81 03 
   861)      3584.5  Rx     18EF1C8F  8  0D C2 16 00 0B 00 0F 00 
   862)      3602.5  Rx     18EF1C8F  8  0D D0 00 54 F3 6B 87 FC 
   863)      3603.5  Rx     18EF1C8F  8  0D D1 15 00 22 00 83 03 
   864)      3604.4  Rx     18EF1C8F  8  0D D2 15 00 0A 00 0D 00 
   865)      3612.1  Rx     18EF1CCD  8  A2 00 00 00 00 00 00 00 
   866)      3622.5  Rx     18EF1C8F  8  0D E0 00 74 41 6C 87 FC 
   867)      3623.4  Rx     18EF1C8F  8  0D E1 15 00 21 00 85 03 
   868)      3624.4  Rx     18EF1C8F  8  0D E2 14 00 0C 00 10 00 
   869)      3632.1  Rx     18EF1CCD  8  A3 00 00 00 00 FA FF FA 
   870)      3642.5  Rx     18EF1C8F  8  0D F0 00 94 8F 6C 87 FC 
   871)      3643.4  Rx     18EF1C8F  8  0D F1 16 00 23 00 82 03 
   872)      3644.4  Rx     18EF1C8F  8  0D F2 15 00 0A 00 0E 00 
   873)      3652.1  Rx     18EF1CCD  8  A1 40 FA FF FF FF 00 00 
   874)      3652.6  Rx     18EFCD1C  8  A1 01 00 00 FA FF FF FF 
   875)      3662.5  Rx     18EF1C8F  8  0D 00 00 B4 DD 6C 87 FC 
   876)      3663.4  Rx     18EF1C8F  8  0D 01 14 00 23 00 84 03 
   877)      3664.4  Rx     18EF1C8F  8  0D 02 12 00 09 00 0E 00 
   878)      3672.3  Rx     18EFCD1C  8  A0 00 14 00 00 00 00 00 
   879)      3672.9  Rx     18EF1CCD  8  A0 00 14 00 7A 07 00 00 
   880)      3682.5  Rx     18EF1C8F  8  0D 10 00 D7 2B 6D 87 FC 
   881)      3683.4  Rx     18EF1C8F  8  0D 11 16 00 22 00 81 03 
   882)      3684.4  Rx     18EF1C8F  8  0D 12 12 00 0A 00 0E 00 
   883)      3692.3  Rx     18EFCD1C  8  A0 00 2A 00 00 00 00 00 
   884)      3692.9  Rx     18EF1CCD  8  A0 00 2A 00 74 05 00 00 
   885)      3702.5  Rx     18EF1C8F  8  0D 20 00 F4 79 6D 87 FC 
   886)      3703.4  Rx     18EF1C8F  8  0D 21 17 00 20 00 85 03 
   887)      3704.4  Rx     18EF1C8F  8  0D 22 10 00 0A 00 0F 00 
   888)      3712.2  Rx     18EF1CCD  8  A2 00 00 00 00 00 00 00 
   889)      3712.8  Rx     18EFCD1C  8  A0 00 1B 00 00 00 00 00 
   890)      3713.5  Rx     18EF1CCD  8  A0 00 1B 00 00 00 00 00 
   891)      3722.5  Rx     18EF1C8F  8  0D 30 00 17 C8 6D 87 FC 
   892)      3723.4  Rx     18EF1C8F  8  0D 31 16 00 23 00 84 03 
   893)      3724.4  Rx     18EF1C8F  8  0D 32 13 00 09 00 0F 00 
   894)      3732.3  Rx     18EF1CCD  8  A3 00 00 00 00 FA FF FA 
   895)      3732.9  Rx     18EFCD1C  8  A0 00 00 00 00 00 00 00 
   896)      3733.5  Rx     18EF1CCD  8  A0 00 00 00 01 00 00 00 
   897)      3742.5  Rx     18EF1C8F  8  0D 40 00 37 16 6E 87 FC 
   898)      3743.4  Rx     18EF1C8F  8  0D 41 16 00 23 00 84 03 
   899)      3744.4  Rx     18EF1C8F  8  0D 42 13 00 09 00 0F 00 
   900)      3752.3  Rx     18EF1CCD  8  A1 40 FA FF FF FF 00 00 
   901)      3762.5  Rx     18EF1C8F  8  0D 50 00 54 64 6E 87 FC 
   902)      3763.4  Rx     18EF1C8F  8  0D 51 17 00 20 00 83 03 
   903)      3764.4  Rx     18EF1C8F  8  0D 52 12 00 0B 00 0F 00 
   904)      3782.5  Rx     18EF1C8F  8  0D 60 00 74 B2 6E 87 FC 
   905)      3783.4  Rx     18EF1C8F  8  0D 61 16 00 24 00 82 03 
   906)      3784.4  Rx     18EF1C8F  8  0D 62 12 00 0A 00 09 00 
   907)      3802.5  Rx     18EF1C8F  8  0D 70 00 94 00 6F 87 FC 
   908)      3803.4  Rx     18EF1C8F  8  0D 71 17 00 22 00 85 03 
   909)      3804.4  Rx     18EF1C8F  8  0D 72 0F 00 09 00 0C 00 
   910)      3812.4  Rx     18EF1CCD  8  A2 00 00 00 00 00 00 00 
   911)      3815.9  Rx     18EF8F1C  4  01 91 EA 00 
   912)      3816.4  Rx     18EF1C8F  4  01 EB 91 00 
   913)      3822.5  Rx     18EF1C8F  8  0D 80 00 B4 4E 6F 87 FC 
   914)      3823.4  Rx     18EF1C8F  8  0D 81 16 00 22 00 83 03 
   915)      3824.4  Rx     18EF1C8F  8  0D 82 0F 00 09 00 0E 00 
   916)      3832.5  Rx     18EF1CCD  8  A3 00 00 00 00 FA FF FA 
   917)      3842.5  Rx     18EF1C8F  8  0D 90 00 D7 9C 6F 87 FC 
   918)      3843.4  Rx     18EF1C8F  8  0D 91 18 00 22 00 83 03 
   919)      3844.4  Rx     18EF1C8F  8  0D 92 0E 00 0A 00 0D 00 
   920)      3852.5  Rx     18EFCD1C  8  A1 01 00 00 FA FF FF FF 
   921)      3853.1  Rx     18EF1CCD  8  A1 40 FA FF FF FF 00 00 
   922)      3862.5  Rx     18EF1C8F  8  0D A0 00 F4 EA 6F 87 FC 
   923)      3863.4  Rx     18EF1C8F  8  0D A1 18 00 20 00 84 03 
   924)      3864.4  Rx     18EF1C8F  8  0D A2 10 00 0B 00 0E 00 
   925)      3872.3  Rx     18EFCD1C  8  A0 00 14 00 00 00 00 00 
   926)      3872.9  Rx     18EF1CCD  8  A0 00 14 00 7A 07 00 00 
   927)      3882.5  Rx     18EF1C8F  8  0D B0 00 14 39 70 87 FC 
   928)      3883.4  Rx     18EF1C8F  8  0D B1 18 00 23 00 84 03 
   929)      3884.4  Rx     18EF1C8F  8  0D B2 0D 00 09 00 0D 00 
   930)      3892.3  Rx     18EFCD1C  8  A0 00 2A 00 00 00 00 00 
   931)      3892.9  Rx     18EF1CCD  8  A0 00 2A 00 75 05 00 00 
   932)      3902.5  Rx     18EF1C8F  8  0D C0 00 37 87 70 87 FC 
   933)      3903.4  Rx     18EF1C8F  8  0D C1 17 00 23 00 83 03 
   934)      3904.4  Rx     18EF1C8F  8  0D C2 0E 00 0B 00 0E 00 
   935)      3912.3  Rx     18EFCD1C  8  A0 00 1B 00 00 00 00 00 
   936)      3912.8  Rx     18EF1CCD  8  A2 00 00 00 00 00 00 00 
   937)      3913.7  Rx     18EF1CCD  8  A0 00 1B 00 00 00 00 00 
   938)      3922.5  Rx     18EF1C8F  8  0D D0 00 57 D5 70 87 FC 
   939)      3923.4  Rx     18EF1C8F  8  0D D1 18 00 22 00 83 03 
   940)      3924.4  Rx     18EF1C8F  8  0D D2 0C 00 0A 00 0F 00 
   941)      3932.3  Rx     18EFCD1C  8  A0 00 00 00 00 00 00 00 
   942)      3932.8  Rx     18EF1CCD  8  A3 00 00 00 00 FA FF FA 
   943)      3933.7  Rx     18EF1CCD  8  A0 00 00 00 01 00 00 00 
   944)      3942.5  Rx     18EF1C8F  8  0D E0 00 74 23 71 87 FC 
   945)      3943.4  Rx     18EF1C8F  8  0D E1 17 00 22 00 83 03 
   946)      3944.4  Rx     18EF1C8F  8  0D E2 0E 00 0B 00 0F 00 
   947)      3952.7  Rx     18EF1CCD  8  A1 40 FA FF FF FF 00 00 
   948)      3962.5  Rx     18EF1C8F  8  0D F0 00 97 71 71 87 FC 
   949)      3963.4  Rx     18EF1C8F  8  0D F1 17 00 21 00 83 03 
   950)      3964.4  Rx     18EF1C8F  8  0D F2 0E 00 0D 00 11 00 
   951)      3982.5  Rx     18EF1C8F  8  0D 00 00 B4 BF 71 87 FC 
   952)      3983.4  Rx     18EF1C8F  8  0D 01 17 00 23 00 82 03 
   953)      3984.4  Rx     18EF1C8F  8  0D 02 0E 00 0C 00 0E 00 
   954)      4002.5  Rx     18EF1C8F  8  0D 10 00 D2 0D 72 87 FC 
   955)      4003.4  Rx     18EF1C8F  8  0D 11 15 00 22 00 86 03 
   956)      4004.4  Rx     18EF1C8F  8  0D 12 0F 00 0D 00 0D 00 
   957)      4012.8  Rx     18EF1CCD  8  A2 00 00 00 00 00 00 00 
   958)      4022.4  Rx     18EF1C8F  8  0D 20 00 F7 5B 72 87 FC 
   959)      4023.4  Rx     18EF1C8F  8  0D 21 17 00 23 00 84 03 
   960)      4024.4  Rx     18EF1C8F  8  0D 22 0E 00 0C 00 0B 00 
   961)      4032.9  Rx     18EF1CCD  8  A3 00 00 00 00 FA FF FA 
   962)      4042.5  Rx     18EF1C8F  8  0D 30 00 14 AA 72 87 FC 
   963)      4043.4  Rx     18EF1C8F  8  0D 31 16 00 22 00 85 03 
   964)      4044.4  Rx     18EF1C8F  8  0D 32 10 00 0A 00 0F 00 
   965)      4052.3  Rx     18EFCD1C  8  A1 01 00 00 FA FF FF FF 
   966)      4052.9  Rx     18EF1CCD  8  A1 40 FA FF FF FF 00 00 
   967)      4062.4  Rx     18EF1C8F  8  0D 40 00 34 F8 72 87 FC 
   968)      4063.4  Rx     18EF1C8F  8  0D 41 16 00 20 00 85 03 
   969)      4064.4  Rx     18EF1C8F  8  0D 42 0F 00 0D 00 0E 00 
   970)      4072.2  Rx     18EFCD1C  8  A0 00 14 00 00 00 00 00 
   971)      4072.9  Rx     18EF1CCD  8  A0 00 14 00 7B 07 00 00 
   972)      4082.5  Rx     18EF1C8F  8  0D 50 00 54 46 73 87 FC 
   973)      4083.4  Rx     18EF1C8F  8  0D 51 16 00 20 00 84 03 
   974)      4084.4  Rx     18EF1C8F  8  0D 52 0F 00 0C 00 0E 00 
   975)      4092.3  Rx     18EFCD1C  8  A0 00 2A 00 00 00 00 00 
   976)      4092.9  Rx     18EF1CCD  8  A0 00 2A 00 76 05 00 00 
   977)      4102.4  Rx     18EF1C8F  8  0D 60 00 74 94 73 87 FC 
   978)      4103.4  Rx     18EF1C8F  8  0D 61 15 00 21 00 83 03 
   979)      4104.4  Rx     18EF1C8F  8  0D 62 0F 00 0D 00 0D 00 
   980)      4112.2  Rx     18EFCD1C  8  A0 00 1B 00 00 00 00 00 
   981)      4112.9  Rx     18EF1CCD  8  A0 00 1B 00 00 00 00 00 
   982)      4113.5  Rx     18EF1CCD  8  A2 00 00 00 00 00 00 00 
   983)      4122.5  Rx     18EF1C8F  8  0D 70 00 97 E2 73 87 FC 
   984)      4123.4  Rx     18EF1C8F  8  0D 71 15 00 21 00 84 03 
   985)      4124.4  Rx     18EF1C8F  8  0D 72 10 00 0D 00 0D 00 
   986)      4132.3  Rx     18EFCD1C  8  A0 00 00 00 00 00 00 00 
   987)      4132.9  Rx     18EF1CCD  8  A0 00 00 00 01 00 00 00 
   988)      4133.4  Rx     18EF1CCD  8  A3 00 00 00 00 FA FF FA 
   989)      4142.5  Rx     18EF1C8F  8  0D 80 00 B7 30 74 87 FC 
   990)      4143.4  Rx     18EF1C8F  8  0D 81 16 00 1F 00 82 03 
   991)      4144.4  Rx     18EF1C8F  8  0D 82 12 00 0B 00 0F 00 
   992)      4153.1  Rx     18EF1CCD  8  A1 40 FA FF FF FF 00 00 
   993)      4162.5  Rx     18EF1C8F  8  0D 90 00 D4 7E 74 87 FC 
   994)      4163.4  Rx     18EF1C8F  8  0D 91 15 00 20 00 83 03 
   995)      4164.4  Rx     18EF1C8F  8  0D 92 13 00 0C 00 10 00 
   996)      4182.5  Rx     18EF1C8F  8  0D A0 00 F4 CC 74 87 FC 
   997)      4183.4  Rx     18EF1C8F  8  0D A1 17 00 22 00 84 03 
   998)      4184.4  Rx     18EF1C8F  8  0D A2 12 00 0D 00 12 00 
   999)      4193.6  Rx     18FEF31C  8  5E 29 80 99 AC CE 2C 89 
  1000)      4194.1  Rx     18FEE81C  8  97 4F 00 00 00 00 10 52 
  1001)      4194.7  Rx     18FEE61C  8  24 0D 0E 09 57 29 00 00 
  1002)      4195.3  Rx     19F8021C  8  24 FC 86 6C 00 00 FF FF 
  1003)      4202.5  Rx     18EF1C8F  8  0D B0 00 14 1B 75 87 FC 
  1004)      4203.4  Rx     18EF1C8F  8  0D B1 14 00 21 00 81 03 
  1005)      4204.4  Rx     18EF1C8F  8  0D B2 12 00 0B 00 0B 00 
  1006)      4213.3  Rx     18EF1CCD  8  A2 00 00 00 00 00 00 00 
  1007)      4222.5  Rx     18EF1C8F  8  0D C0 00 37 69 75 87 FC 
  1008)      4223.4  Rx     18EF1C8F  8  0D C1 15 00 22 00 82 03 
  1009)      4224.4  Rx     18EF1C8F  8  0D C2 0D 00 0A 00 0B 00 
  1010)      4233.4  Rx     18EF1CCD  8  A3 00 00 00 00 FA FF FA 
  1011)      4240.8  Rx     19F8051C  8  00 2F 24 EE 50 13 D3 82 
  1012)      4241.3  Rx     19F8051C  8  01 1E 80 CE 24 2F E1 A6 
  1013)      4241.9  Rx     19F8051C  8  02 98 06 E0 65 4B B4 F3 
  1014)      4242.4  Rx     19F8051C  8  03 91 CB 02 41 40 68 08 
  1015)      4243.0  Rx     18EF1C8F  8  0D D0 00 57 B7 75 87 FC 
  1016)      4243.6  Rx     18EF1C8F  8  0D D1 16 00 21 00 86 03 
  1017)      4244.1  Rx     19F8051C  8  04 00 00 00 00 20 00 0A 
  1018)      4244.7  Rx     18EF1C8F  8  0D D2 12 00 0A 00 0D 00 
  1019)      4245.3  Rx     19F8051C  8  05 64 00 64 00 DC 05 00 
  1020)      4245.8  Rx     19F8051C  8  06 00 01 0F 00 00 00 FF 
  1021)      4252.4  Rx     18EFCD1C  8  A1 01 00 00 FA FF FF FF 
  1022)      4253.4  Rx     18EF1CCD  8  A1 40 FA FF FF FF 00 00 
  1023)      4262.5  Rx     18EF1C8F  8  0D E0 00 77 05 76 87 FC 
  1024)      4263.4  Rx     18EF1C8F  8  0D E1 15 00 21 00 85 03 
