;$FILEVERSION=1.1
;$STARTTIME=46287.6159479282
;
;   Start time: 9/22/2026 14:46:57.901.0
;   Generated by PCAN-View v5.3.3.958
;
;   Message Number
;   |         Time Offset (ms)
;   |         |        Type
;   |         |        |        ID (hex)
;   |         |        |        |     Data Length
;   |         |        |        |     |   Data Bytes (hex) ...
;   |         |        |        |     |   |
;---+--   ----+----  --+--  ----+---  +  -+ -- -- -- -- -- -- --
     1)         4.9  Rx     18EF1CCD  8  A1 40 00 00 00 00 00 00 
     2)        13.6  Rx     18EFCD1C  8  A0 00 2A 00 00 00 00 00 
     3)        14.2  Rx     18EF1CCD  8  A0 00 2A 00 47 06 00 00 
     4)        14.9  Rx     18EF1C8F  8  0D 40 00 17 A4 80 72 FB 
     5)        15.8  Rx     18EF1C8F  8  0D 41 FE FF 20 00 87 03 
     6)        16.8  Rx     18EF1C8F  8  0D 42 17 00 10 00 0D 00 
     7)        33.5  Rx     18EFCD1C  8  A0 00 1B 00 00 00 00 00 
     8)        34.2  Rx     18EF1CCD  8  A0 00 1B 00 00 00 00 00 
     9)        34.9  Rx     18EF1C8F  8  0D 50 00 35 F2 80 72 FB 
    10)        35.8  Rx     18EF1C8F  8  0D 51 FE FF 1F 00 82 03 
    11)        36.8  Rx     18EF1C8F  8  0D 52 17 00 08 00 11 00 
    12)        53.5  Rx     18EFCD1C  8  A0 00 00 00 00 00 00 00 
    13)        54.1  Rx     18EF1CCD  8  A0 00 00 00 01 00 00 00 
    14)        54.9  Rx     18EF1C8F  8  0D 60 00 55 40 81 72 FB 
    15)        55.8  Rx     18EF1C8F  8  0D 61 FC FF 22 00 87 03 
    16)        56.8  Rx     18EF1C8F  8  0D 62 17 00 0E 00 0F 00 
    17)        65.0  Rx     18EF1CCD  8  A2 00 00 00 00 00 00 00 
    18)        74.9  Rx     18EF1C8F  8  0D 70 00 75 8E 81 72 FB 
    19)        75.8  Rx     18EF1C8F  8  0D 71 00 00 1E 00 81 03 
    20)        76.8  Rx     18EF1C8F  8  0D 72 1B 00 0D 00 11 00 
    21)        85.0  Rx     18EF1CCD  8  A3 00 00 00 00 00 00 00 
    22)        93.3  Rx     18EFCD1C  4  01 3E 3E 00 
    23)        93.9  Rx     18EFCD1C  8  A1 01 00 00 00 00 00 00 
    24)        94.3  Rx     18EF1CCD  4  01 3F 3E 00 
    25)        94.9  Rx     18EF1C8F  8  0D 80 00 97 DC 81 72 FB 
    26)        95.8  Rx     18EF1C8F  8  0D 81 F8 FF 22 00 8A 03 
    27)        96.8  Rx     18EF1C8F  8  0D 82 18 00 0B 00 0E 00 
    28)       105.1  Rx     18EF1CCD  8  A1 40 00 00 00 00 00 00 
    29)       114.8  Rx     18EF1C8F  8  0D 90 00 B5 2A 82 72 FB 
    30)       115.8  Rx     18EF1C8F  8  0D 91 07 00 1A 00 80 03 
    31)       116.7  Rx     18EF1C8F  8  0D 92 19 00 0F 00 11 00 
    32)       134.9  Rx     18EF1C8F  8  0D A0 00 D2 78 82 72 FB 
    33)       135.8  Rx     18EF1C8F  8  0D A1 F5 FF 24 00 86 03 
    34)       136.7  Rx     18EF1C8F  8  0D A2 13 00 01 00 0B 00 
    35)       154.8  Rx     18EF1C8F  8  0D B0 00 F5 C6 82 71 FB 
    36)       155.7  Rx     18EF1C8F  8  0D B1 0A 00 1B 00 80 03 
    37)       156.8  Rx     18EF1C8F  8  0D B2 17 00 14 00 0E 00 
    38)       165.2  Rx     18EF1CCD  8  A2 00 00 00 00 00 00 00 
    39)       174.8  Rx     18EF1C8F  8  0D C0 00 15 15 83 71 FB 
    40)       175.7  Rx     18EF1C8F  8  0D C1 F2 FF 25 00 88 03 
    41)       176.7  Rx     18EF1C8F  8  0D C2 16 00 06 00 0D 00 
    42)       185.3  Rx     18EF1CCD  8  A3 00 00 00 00 00 00 00 
    43)       194.8  Rx     18EF1C8F  8  0D D0 00 35 63 83 71 FB 
    44)       195.7  Rx     18EF1C8F  8  0D D1 0E 00 1D 00 83 03 
    45)       196.7  Rx     18EF1C8F  8  0D D2 16 00 19 00 0E 00 
    46)       199.0  Rx     18EFCD1C  8  A0 00 14 00 00 00 00 00 
    47)       199.6  Rx     18EF1CCD  8  A0 00 14 00 B4 07 00 00 
    48)       205.3  Rx     18EF1CCD  8  A1 40 00 00 00 00 00 00 
    49)       213.8  Rx     18EFCD1C  8  A0 00 2A 00 00 00 00 00 
    50)       214.5  Rx     18EF1CCD  8  A0 00 2A 00 48 06 00 00 
    51)       215.0  Rx     18EF1C8F  8  0D E0 00 55 B1 83 72 FB 
    52)       215.7  Rx     18EF1C8F  8  0D E1 F3 FF 23 00 81 03 
    53)       216.8  Rx     18EF1C8F  8  0D E2 14 00 03 00 0E 00 
    54)       233.4  Rx     18EFCD1C  8  A0 00 1B 00 00 00 00 00 
    55)       234.1  Rx     18EF1CCD  8  A0 00 1B 00 00 00 00 00 
    56)       234.9  Rx     18EF1C8F  8  0D F0 00 77 FF 83 72 FB 
    57)       235.8  Rx     18EF1C8F  8  0D F1 0C 00 1F 00 87 03 
    58)       236.7  Rx     18EF1C8F  8  0D F2 16 00 1B 00 0E 00 
    59)       253.5  Rx     18EFCD1C  8  A0 00 00 00 00 00 00 00 
    60)       254.1  Rx     18EF1CCD  8  A0 00 00 00 01 00 00 00 
    61)       254.9  Rx     18EF1C8F  8  0D 00 00 95 4D 84 72 FB 
    62)       255.7  Rx     18EF1C8F  8  0D 01 F4 FF 22 00 80 03 
    63)       256.8  Rx     18EF1C8F  8  0D 02 16 00 09 00 10 00 
    64)       265.5  Rx     18EF1CCD  8  A2 00 00 00 00 00 00 00 
    65)       274.8  Rx     18EF1C8F  8  0D 10 00 B2 9B 84 72 FB 
    66)       275.8  Rx     18EF1C8F  8  0D 11 06 00 22 00 86 03 
    67)       276.7  Rx     18EF1C8F  8  0D 12 18 00 17 00 0D 00 
    68)       285.5  Rx     18EF1CCD  8  A3 00 00 00 00 00 00 00 
    69)       293.5  Rx     18EFCD1C  8  A1 01 00 00 00 00 00 00 
    70)       294.9  Rx     18EF1C8F  8  0D 20 00 D7 E9 84 72 FB 
    71)       295.8  Rx     18EF1C8F  8  0D 21 F9 FF 1F 00 81 03 
    72)       296.8  Rx     18EF1C8F  8  0D 22 18 00 0B 00 11 00 
    73)       305.6  Rx     18EF1CCD  8  A1 40 00 00 00 00 00 00 
    74)       314.8  Rx     18EF1C8F  8  0D 30 00 F5 37 85 72 FB 
    75)       315.8  Rx     18EF1C8F  8  0D 31 FD FF 21 00 86 03 
    76)       316.8  Rx     18EF1C8F  8  0D 32 17 00 11 00 0F 00 
    77)       334.9  Rx     18EF1C8F  8  0D 40 00 15 86 85 72 FB 
    78)       335.8  Rx     18EF1C8F  8  0D 41 FF FF 1D 00 81 03 
    79)       336.7  Rx     18EF1C8F  8  0D 42 17 00 0C 00 13 00 
    80)       354.9  Rx     18EF1C8F  8  0D 50 00 35 D4 85 72 FB 
    81)       355.7  Rx     18EF1C8F  8  0D 51 F6 FF 21 00 82 03 
    82)       356.8  Rx     18EF1C8F  8  0D 52 16 00 0D 00 0F 00 
    83)       365.7  Rx     18EF1CCD  8  A2 00 00 00 00 00 00 00 
    84)       374.8  Rx     18EF1C8F  8  0D 60 00 55 22 86 72 FB 
    85)       375.8  Rx     18EF1C8F  8  0D 61 02 00 1D 00 7F 03 
    86)       376.8  Rx     18EF1C8F  8  0D 62 19 00 0D 00 11 00 
    87)       385.7  Rx     18EF1CCD  8  A3 00 00 00 00 00 00 00 
    88)       394.9  Rx     18EF1C8F  8  0D 70 00 75 70 86 72 FB 
    89)       395.8  Rx     18EF1C8F  8  0D 71 F2 FF 21 00 84 03 
    90)       396.8  Rx     18EF1C8F  8  0D 72 17 00 05 00 0F 00 
    91)       399.0  Rx     18EFCD1C  8  A0 00 14 00 00 00 00 00 
    92)       399.6  Rx     18EF1CCD  8  A0 00 14 00 B3 07 00 00 
    93)       405.8  Rx     18EF1CCD  8  A1 40 00 00 00 00 00 00 
    94)       413.5  Rx     18EFCD1C  8  A0 00 2A 00 00 00 00 00 
    95)       414.2  Rx     18EF1CCD  8  A0 00 2A 00 46 06 00 00 
    96)       414.9  Rx     18EF1C8F  8  0D 80 00 97 BE 86 72 FB 
    97)       415.8  Rx     18EF1C8F  8  0D 81 05 00 1C 00 82 03 
    98)       416.8  Rx     18EF1C8F  8  0D 82 18 00 16 00 11 00 
    99)       433.6  Rx     18EFCD1C  8  A0 00 1B 00 00 00 00 00 
   100)       434.1  Rx     18EF1CCD  8  A0 00 1B 00 00 00 00 00 
   101)       434.9  Rx     18EF1C8F  8  0D 90 00 B5 0C 87 72 FB 
   102)       435.8  Rx     18EF1C8F  8  0D 91 F1 FF 22 00 86 03 
   103)       436.8  Rx     18EF1C8F  8  0D 92 13 00 07 00 0D 00 
   104)       453.5  Rx     18EFCD1C  8  A0 00 00 00 00 00 00 00 
   105)       454.1  Rx     18EF1CCD  8  A0 00 00 00 01 00 00 00 
   106)       454.9  Rx     18EF1C8F  8  0D A0 00 D5 5A 87 72 FB 
   107)       455.8  Rx     18EF1C8F  8  0D A1 08 00 1C 00 81 03 
   108)       456.8  Rx     18EF1C8F  8  0D A2 15 00 16 00 10 00 
   109)       465.9  Rx     18EF1CCD  8  A2 00 00 00 00 00 00 00 
   110)       474.9  Rx     18EF1C8F  8  0D B0 00 F7 A8 87 72 FB 
   111)       475.8  Rx     18EF1C8F  8  0D B1 F1 FF 26 00 85 03 
   112)       476.8  Rx     18EF1C8F  8  0D B2 15 00 03 00 0E 00 
   113)       486.0  Rx     18EF1CCD  8  A3 00 00 00 00 00 00 00 
   114)       494.5  Rx     18FEF31C  8  B6 2B 80 99 13 C7 2C 89 
   115)       495.1  Rx     18EF1C8F  8  0D C0 00 15 F7 87 72 FB 
   116)       495.6  Rx     18FEE81C  8  33 8A 06 00 00 00 2C 51 
   117)       496.2  Rx     18EF1C8F  8  0D C1 07 00 1C 00 83 03 
   118)       496.8  Rx     18FEE61C  8  E7 2E 0C 09 57 29 00 00 
   119)       497.3  Rx     18EF1C8F  8  0D C2 17 00 15 00 0E 00 
   120)       497.9  Rx     19F8021C  8  21 FC 70 BC 00 00 FF FF 
   121)       498.4  Rx     18EFCD1C  8  A1 01 00 00 00 00 00 00 
   122)       501.9  Rx     19F8051C  8  A0 2F 21 EE 50 69 C3 6D 
   123)       502.4  Rx     19F8051C  8  A1 1B 40 E0 76 BB 6C A7 
   124)       503.0  Rx     19F8051C  8  A2 98 06 C0 49 43 E1 2E 
   125)       503.5  Rx     19F8051C  8  A3 90 CB 02 26 68 41 08 
   126)       504.1  Rx     19F8051C  8  A4 00 00 00 00 40 00 0C 
   127)       504.7  Rx     19F8051C  8  A5 5E 00 BF 00 FC 0F 00 
   128)       505.2  Rx     19F8051C  8  A6 00 01 AF 02 BC 02 FF 
   129)       506.0  Rx     18EF1CCD  8  A1 40 00 00 00 00 00 00 
   130)       514.9  Rx     18EF1C8F  8  0D D0 00 3A 45 88 72 FB 
   131)       515.8  Rx     18EF1C8F  8  0D D1 F4 FF 24 00 85 03 
   132)       516.8  Rx     18EF1C8F  8  0D D2 15 00 03 00 0F 00 
   133)       534.9  Rx     18EF1C8F  8  0D E0 00 55 93 88 72 FB 
   134)       535.8  Rx     18EF1C8F  8  0D E1 03 00 1E 00 87 03 
   135)       536.8  Rx     18EF1C8F  8  0D E2 19 00 15 00 0C 00 
   136)       554.9  Rx     18EF1C8F  8  0D F0 00 75 E1 88 72 FB 
   137)       555.8  Rx     18EF1C8F  8  0D F1 F6 FF 23 00 83 03 
   138)       556.8  Rx     18EF1C8F  8  0D F2 18 00 01 00 11 00 
   139)       566.2  Rx     18EF1CCD  8  A2 00 00 00 00 00 00 00 
   140)       574.9  Rx     18EF1C8F  8  0D 00 00 95 2F 89 72 FB 
   141)       575.8  Rx     18EF1C8F  8  0D 01 00 00 20 00 88 03 
   142)       576.8  Rx     18EF1C8F  8  0D 02 17 00 0C 00 0C 00 
   143)       586.2  Rx     18EF1CCD  8  A3 00 00 00 00 00 00 00 
   144)       594.9  Rx     18EF1C8F  8  0D 10 00 B5 7D 89 72 FB 
   145)       595.8  Rx     18EF1C8F  8  0D 11 F7 FF 1E 00 7E 03 
   146)       596.8  Rx     18EF1C8F  8  0D 12 1A 00 04 00 11 00 
   147)       600.5  Rx     18EFCD1C  8  A0 00 14 00 00 00 00 00 
   148)       601.1  Rx     18EF1CCD  8  A0 00 14 00 B3 07 00 00 
   149)       606.3  Rx     18EF1CCD  8  A1 40 00 00 00 00 00 00 
   150)       614.9  Rx     18EF1C8F  8  0D 20 00 D7 CB 89 72 FB 
   151)       615.8  Rx     18EF1C8F  8  0D 21 FB FF 24 00 8B 03 
   152)       616.8  Rx     18EF1C8F  8  0D 22 18 00 09 00 0C 00 
   153)       618.8  Rx     18EFCD1C  8  A0 00 2A 00 00 00 00 00 
   154)       619.5  Rx     18EF1CCD  8  A0 00 2A 00 3F 06 00 00 
   155)       633.5  Rx     18EFCD1C  8  A0 00 1B 00 00 00 00 00 
   156)       634.2  Rx     18EF1CCD  8  A0 00 1B 00 00 00 00 00 
   157)       634.9  Rx     18EF1C8F  8  0D 30 00 F5 19 8A 72 FB 
   158)       635.8  Rx     18EF1C8F  8  0D 31 00 00 1D 00 7D 03 
   159)       636.8  Rx     18EF1C8F  8  0D 32 1A 00 0B 00 11 00 
   160)       653.5  Rx     18EFCD1C  8  A0 00 00 00 00 00 00 00 
   161)       654.1  Rx     18EF1CCD  8  A0 00 00 00 01 00 00 00 
   162)       654.9  Rx     18EF1C8F  8  0D 40 00 15 68 8A 72 FB 
   163)       655.8  Rx     18EF1C8F  8  0D 41 F8 FF 24 00 88 03 
   164)       656.8  Rx     18EF1C8F  8  0D 42 15 00 05 00 0E 00 
   165)       666.4  Rx     18EF1CCD  8  A2 00 00 00 00 00 00 00 
   166)       674.9  Rx     18EF1C8F  8  0D 50 00 35 B6 8A 72 FB 
   167)       675.8  Rx     18EF1C8F  8  0D 51 06 00 1A 00 7F 03 
   168)       676.8  Rx     18EF1C8F  8  0D 52 18 00 10 00 0F 00 
   169)       686.5  Rx     18EF1CCD  8  A3 00 00 00 00 00 00 00 
   170)       693.5  Rx     18EFCD1C  8  A1 01 00 00 00 00 00 00 
   171)       694.9  Rx     18EF1C8F  8  0D 60 00 55 04 8B 72 FB 
   172)       695.8  Rx     18EF1C8F  8  0D 61 F3 FF 23 00 87 03 
   173)       696.8  Rx     18EF1C8F  8  0D 62 17 00 07 00 0D 00 
   174)       706.6  Rx     18EF1CCD  8  A1 40 00 00 00 00 00 00 
   175)       714.9  Rx     18EF1C8F  8  0D 70 00 75 52 8B 72 FB 
   176)       715.8  Rx     18EF1C8F  8  0D 71 0B 00 1C 00 80 03 
   177)       716.8  Rx     18EF1C8F  8  0D 72 18 00 13 00 0F 00 
   178)       734.9  Rx     18EF1C8F  8  0D 80 00 92 A0 8B 72 FB 
   179)       735.8  Rx     18EF1C8F  8  0D 81 F4 FF 23 00 83 03 
   180)       736.9  Rx     18EF1C8F  8  0D 82 16 00 04 00 0E 00 
   181)       754.9  Rx     18EF1C8F  8  0D 90 00 B5 EE 8B 72 FB 
   182)       755.9  Rx     18EF1C8F  8  0D 91 0B 00 1D 00 83 03 
   183)       756.8  Rx     18EF1C8F  8  0D 92 18 00 15 00 10 00 
   184)       766.6  Rx     18EF1CCD  8  A2 00 00 00 00 00 00 00 
   185)       774.9  Rx     18EF1C8F  8  0D A0 00 D5 3C 8C 72 FB 
   186)       775.8  Rx     18EF1C8F  8  0D A1 F3 FF 23 00 84 03 
   187)       776.9  Rx     18EF1C8F  8  0D A2 16 00 FC FF 0C 00 
   188)       786.7  Rx     18EF1CCD  8  A3 00 00 00 00 00 00 00 
   189)       794.9  Rx     18EF1C8F  8  0D B0 00 F7 8A 8C 72 FB 
   190)       795.9  Rx     18EF1C8F  8  0D B1 09 00 20 00 84 03 
   191)       796.8  Rx     18EF1C8F  8  0D B2 17 00 10 00 10 00 
   192)       799.1  Rx     18EFCD1C  8  A0 00 14 00 00 00 00 00 
   193)       799.7  Rx     18EF1CCD  8  A0 00 14 00 B3 07 00 00 
   194)       806.8  Rx     18EF1CCD  8  A1 40 00 00 00 00 00 00 
   195)       813.7  Rx     18EFCD1C  8  A0 00 2A 00 00 00 00 00 
   196)       814.4  Rx     18EF1CCD  8  A0 00 2A 00 44 06 00 00 
   197)       815.0  Rx     18EF1C8F  8  0D C0 00 17 D9 8C 72 FB 
   198)       815.8  Rx     18EF1C8F  8  0D C1 F6 FF 23 00 84 03 
   199)       816.8  Rx     18EF1C8F  8  0D C2 15 00 00 00 16 00 
   200)       833.5  Rx     18EFCD1C  8  A0 00 1B 00 00 00 00 00 
   201)       834.1  Rx     18EF1CCD  8  A0 00 1B 00 00 00 00 00 
   202)       835.0  Rx     18EF1C8F  8  0D D0 00 35 27 8D 72 FB 
   203)       835.9  Rx     18EF1C8F  8  0D D1 02 00 20 00 86 03 
   204)       836.9  Rx     18EF1C8F  8  0D D2 17 00 12 00 0F 00 
   205)       853.5  Rx     18EFCD1C  8  A0 00 00 00 00 00 00 00 
   206)       854.2  Rx     18EF1CCD  8  A0 00 00 00 01 00 00 00 
   207)       855.0  Rx     18EF1C8F  8  0D E0 00 55 75 8D 73 FB 
   208)       855.9  Rx     18EF1C8F  8  0D E1 F9 FF 1F 00 83 03 
   209)       856.9  Rx     18EF1C8F  8  0D E2 19 00 03 00 11 00 
   210)       866.9  Rx     18EF1CCD  8  A2 00 00 00 00 00 00 00 
   211)       875.0  Rx     18EF1C8F  8  0D F0 00 75 C3 8D 72 FB 
   212)       875.9  Rx     18EF1C8F  8  0D F1 FF FF 22 00 86 03 
   213)       876.9  Rx     18EF1C8F  8  0D F2 18 00 13 00 0F 00 
   214)       887.0  Rx     18EF1CCD  8  A3 00 00 00 00 00 00 00 
   215)       893.6  Rx     18EFCD1C  8  A1 01 00 00 00 00 00 00 
   216)       895.0  Rx     18EF1C8F  8  0D 00 00 97 11 8E 72 FB 
   217)       895.9  Rx     18EF1C8F  8  0D 01 FF FF 1F 00 84 03 
   218)       896.9  Rx     18EF1C8F  8  0D 02 19 00 0B 00 10 00 
   219)       907.0  Rx     18EF1CCD  8  A1 40 00 00 00 00 00 00 
   220)       915.0  Rx     18EF1C8F  8  0D 10 00 B5 5F 8E 72 FB 
   221)       915.9  Rx     18EF1C8F  8  0D 11 F8 FF 21 00 87 03 
   222)       916.9  Rx     18EF1C8F  8  0D 12 17 00 0F 00 0E 00 
   223)       935.0  Rx     18EF1C8F  8  0D 20 00 D5 AD 8E 72 FB 
   224)       935.9  Rx     18EF1C8F  8  0D 21 01 00 1D 00 82 03 
   225)       936.9  Rx     18EF1C8F  8  0D 22 19 00 0D 00 10 00 
   226)       955.0  Rx     18EF1C8F  8  0D 30 00 F5 FB 8E 72 FB 
   227)       955.9  Rx     18EF1C8F  8  0D 31 F5 FF 22 00 88 03 
   228)       956.9  Rx     18EF1C8F  8  0D 32 16 00 09 00 0E 00 
   229)       967.2  Rx     18EF1CCD  8  A2 00 00 00 00 00 00 00 
   230)       975.0  Rx     18EF1C8F  8  0D 40 00 15 4A 8F 72 FB 
   231)       975.9  Rx     18EF1C8F  8  0D 41 06 00 1A 00 81 03 
   232)       976.9  Rx     18EF1C8F  8  0D 42 16 00 10 00 0F 00 
   233)       987.2  Rx     18EF1CCD  8  A3 00 00 00 00 00 00 00 
   234)       995.0  Rx     18EF1C8F  8  0D 50 00 35 98 8F 72 FB 
   235)       995.9  Rx     18EF1C8F  8  0D 51 F2 FF 24 00 84 03 
   236)       996.9  Rx     18EF1C8F  8  0D 52 13 00 04 00 0E 00 
   237)       998.3  Rx     18EFCD1C  8  A0 00 14 00 00 00 00 00 
   238)       998.9  Rx     18EF1CCD  8  A0 00 14 00 B4 07 00 00 
   239)      1007.3  Rx     18EF1CCD  8  A1 40 00 00 00 00 00 00 
   240)      1014.5  Rx     18EFCD1C  8  A0 00 2A 00 00 00 00 00 
   241)      1015.1  Rx     18EF1C8F  8  0D 60 00 57 E6 8F 72 FB 
   242)      1015.6  Rx     18EF1CCD  8  A0 00 2A 00 4A 06 00 00 
   243)      1016.2  Rx     18EF1C8F  8  0D 61 08 00 1A 00 7F 03 
   244)      1016.9  Rx     18EF1C8F  8  0D 62 15 00 14 00 11 00 
   245)      1033.6  Rx     18EFCD1C  8  A0 00 1B 00 00 00 00 00 
   246)      1034.3  Rx     18EF1CCD  8  A0 00 1B 00 00 00 00 00 
   247)      1035.0  Rx     18EF1C8F  8  0D 70 00 75 34 90 72 FB 
   248)      1035.9  Rx     18EF1C8F  8  0D 71 F0 FF 26 00 85 03 
   249)      1036.9  Rx     18EF1C8F  8  0D 72 17 00 03 00 0C 00 
   250)      1053.6  Rx     18EFCD1C  8  A0 00 00 00 00 00 00 00 
   251)      1054.2  Rx     18EF1CCD  8  A0 00 00 00 01 00 00 00 
   252)      1055.0  Rx     18EF1C8F  8  0D 80 00 95 82 90 72 FB 
   253)      1055.9  Rx     18EF1C8F  8  0D 81 0B 00 1D 00 82 03 
   254)      1056.9  Rx     18EF1C8F  8  0D 82 18 00 17 00 0C 00 
   255)      1067.4  Rx     18EF1CCD  8  A2 00 00 00 00 00 00 00 
   256)      1075.0  Rx     18EF1C8F  8  0D 90 00 B5 D0 90 72 FB 
   257)      1075.9  Rx     18EF1C8F  8  0D 91 F1 FF 23 00 82 03 
   258)      1076.9  Rx     18EF1C8F  8  0D 92 16 00 02 00 10 00 
   259)      1087.5  Rx     18EF1CCD  8  A3 00 00 00 00 00 00 00 
   260)      1093.6  Rx     18EFCD1C  8  A1 01 00 00 00 00 00 00 
   261)      1095.0  Rx     18EF1C8F  8  0D A0 00 D5 1E 91 73 FB 
   262)      1095.9  Rx     18EF1C8F  8  0D A1 0A 00 1E 00 85 03 
   263)      1096.9  Rx     18EF1C8F  8  0D A2 18 00 16 00 0F 00 
   264)      1107.5  Rx     18EF1CCD  8  A1 40 00 00 00 00 00 00 
   265)      1115.0  Rx     18EF1C8F  8  0D B0 00 F5 6C 91 72 FB 
   266)      1115.9  Rx     18EF1C8F  8  0D B1 F1 FF 21 00 7F 03 
   267)      1116.9  Rx     18EF1C8F  8  0D B2 17 00 01 00 11 00 
   268)      1135.0  Rx     18EF1C8F  8  0D C0 00 15 BB 91 72 FB 
   269)      1135.9  Rx     18EF1C8F  8  0D C1 02 00 22 00 89 03 
   270)      1136.9  Rx     18EF1C8F  8  0D C2 16 00 10 00 0D 00 
   271)      1155.0  Rx     18EF1C8F  8  0D D0 00 35 09 92 72 FB 
   272)      1155.9  Rx     18EF1C8F  8  0D D1 FA FF 22 00 82 03 
   273)      1156.9  Rx     18EF1C8F  8  0D D2 17 00 02 00 12 00 
   274)      1167.6  Rx     18EF1CCD  8  A2 00 00 00 00 00 00 00 
   275)      1175.0  Rx     18EF1C8F  8  0D E0 00 55 57 92 72 FB 
   276)      1175.9  Rx     18EF1C8F  8  0D E1 FC FF 22 00 89 03 
   277)      1176.9  Rx     18EF1C8F  8  0D E2 16 00 0B 00 0D 00 
   278)      1187.7  Rx     18EF1CCD  8  A3 00 00 00 00 00 00 00 
   279)      1195.0  Rx     18EF1C8F  8  0D F0 00 75 A5 92 72 FB 
   280)      1195.9  Rx     18EF1C8F  8  0D F1 FC FF 1C 00 81 03 
   281)      1196.9  Rx     18EF1C8F  8  0D F2 18 00 06 00 12 00 
   282)      1199.1  Rx     18EFCD1C  8  A0 00 14 00 00 00 00 00 
   283)      1199.7  Rx     18EF1CCD  8  A0 00 14 00 B3 07 00 00 
   284)      1207.7  Rx     18EF1CCD  8  A1 40 00 00 00 00 00 00 
   285)      1214.5  Rx     18EFCD1C  8  A0 00 2A 00 00 00 00 00 
   286)      1215.0  Rx     18EF1C8F  8  0D 00 00 97 F3 92 72 FB 
   287)      1215.6  Rx     18EF1CCD  8  A0 00 2A 00 46 06 00 00 
   288)      1216.2  Rx     18EF1C8F  8  0D 01 F5 FF 23 00 87 03 
   289)      1216.9  Rx     18EF1C8F  8  0D 02 14 00 0A 00 0E 00 
   290)      1234.4  Rx     18EFCD1C  8  A0 00 1B 00 00 00 00 00 
   291)      1235.0  Rx     18EF1C8F  8  0D 10 00 B5 41 93 73 FB 
   292)      1235.5  Rx     18EF1CCD  8  A0 00 1B 00 00 00 00 00 
   293)      1236.1  Rx     18EF1C8F  8  0D 11 06 00 1D 00 81 03 
   294)      1236.9  Rx     18EF1C8F  8  0D 12 1A 00 0F 00 0F 00 
   295)      1253.5  Rx     18EFCD1C  8  A0 00 00 00 00 00 00 00 
   296)      1254.2  Rx     18EF1CCD  8  A0 00 00 00 01 00 00 00 
   297)      1255.0  Rx     18EF1C8F  8  0D 20 00 D5 8F 93 72 FB 
   298)      1255.9  Rx     18EF1C8F  8  0D 21 F4 FF 23 00 86 03 
   299)      1256.9  Rx     18EF1C8F  8  0D 22 16 00 08 00 0A 00 
   300)      1267.8  Rx     18EF1CCD  8  A2 00 00 00 00 00 00 00 
   301)      1275.0  Rx     18EF1C8F  8  0D 30 00 F5 DD 93 72 FB 
   302)      1275.9  Rx     18EF1C8F  8  0D 31 06 00 1E 00 82 03 
   303)      1276.9  Rx     18EF1C8F  8  0D 32 18 00 11 00 0E 00 
   304)      1287.9  Rx     18EF1CCD  8  A3 00 00 00 00 00 00 00 
   305)      1293.6  Rx     18EFCD1C  8  A1 01 00 00 00 00 00 00 
   306)      1294.9  Rx     18EF1C8F  8  0D 40 00 15 2C 94 73 FB 
   307)      1295.9  Rx     18EF1C8F  8  0D 41 F3 FF 23 00 86 03 
   308)      1296.9  Rx     18EF1C8F  8  0D 42 15 00 06 00 0F 00 
   309)      1307.9  Rx     18EF1CCD  8  A1 40 00 00 00 00 00 00 
   310)      1314.9  Rx     18EF1C8F  8  0D 50 00 35 7A 94 73 FB 
   311)      1315.9  Rx     18EF1C8F  8  0D 51 0B 00 1B 00 81 03 
   312)      1316.9  Rx     18EF1C8F  8  0D 52 15 00 14 00 0F 00 
   313)      1335.0  Rx     18EF1C8F  8  0D 60 00 55 C8 94 73 FB 
   314)      1335.8  Rx     18EF1C8F  8  0D 61 F3 FF 25 00 82 03 
   315)      1336.9  Rx     18EF1C8F  8  0D 62 15 00 01 00 0E 00 
   316)      1354.9  Rx     18EF1C8F  8  0D 70 00 75 16 95 72 FB 
   317)      1355.8  Rx     18EF1C8F  8  0D 71 0A 00 1B 00 80 03 
   318)      1356.9  Rx     18EF1C8F  8  0D 72 16 00 15 00 0F 00 
   319)      1368.0  Rx     18EF1CCD  8  A2 00 00 00 00 00 00 00 
   320)      1374.9  Rx     18EF1C8F  8  0D 80 00 95 64 95 72 FB 
   321)      1375.9  Rx     18EF1C8F  8  0D 81 F4 FF 25 00 85 03 
   322)      1376.8  Rx     18EF1C8F  8  0D 82 15 00 FF FF 10 00 
   323)      1388.1  Rx     18EF1CCD  8  A3 00 00 00 00 00 00 00 
   324)      1394.9  Rx     18EF1C8F  8  0D 90 00 B5 B2 95 72 FB 
   325)      1395.8  Rx     18EF1C8F  8  0D 91 09 00 1D 00 87 03 
   326)      1396.8  Rx     18EF1C8F  8  0D 92 17 00 12 00 0E 00 
   327)      1397.8  Rx     18EF8F1C  4  01 3A 3A 00 
   328)      1398.8  Rx     18EF1C8F  4  01 3B 3A 00 
   329)      1399.4  Rx     18EFCD1C  8  A0 00 14 00 00 00 00 00 
   330)      1400.1  Rx     18EF1CCD  8  A0 00 14 00 B3 07 00 00 
   331)      1408.1  Rx     18EF1CCD  8  A1 40 00 00 00 00 00 00 
   332)      1414.9  Rx     18EF1C8F  8  0D A0 00 D7 00 96 72 FB 
   333)      1415.8  Rx     18EF1C8F  8  0D A1 F9 FF 21 00 82 03 
   334)      1416.4  Rx     18EFCD1C  8  A0 00 2A 00 00 00 00 00 
   335)      1417.0  Rx     18EF1C8F  8  0D A2 16 00 01 00 0F 00 
   336)      1417.5  Rx     18EF1CCD  8  A0 00 2A 00 49 06 00 00 
   337)      1434.5  Rx     18EFCD1C  8  A0 00 1B 00 00 00 00 00 
   338)      1435.0  Rx     18EF1C8F  8  0D B0 00 F2 4E 96 73 FB 
   339)      1435.6  Rx     18EF1CCD  8  A0 00 1B 00 00 00 00 00 
   340)      1436.2  Rx     18EF1C8F  8  0D B1 02 00 20 00 87 03 
   341)      1436.8  Rx     18EF1C8F  8  0D B2 19 00 10 00 0E 00 
   342)      1453.5  Rx     18EFCD1C  8  A0 00 00 00 00 00 00 00 
   343)      1454.2  Rx     18EF1CCD  8  A0 00 00 00 01 00 00 00 
   344)      1454.9  Rx     18EF1C8F  8  0D C0 00 17 9D 96 73 FB 
   345)      1455.8  Rx     18EF1C8F  8  0D C1 F9 FF 1F 00 7C 03 
   346)      1456.8  Rx     18EF1C8F  8  0D C2 19 00 06 00 11 00 
   347)      1468.2  Rx     18EF1CCD  8  A2 00 00 00 00 00 00 00 
   348)      1474.9  Rx     18EF1C8F  8  0D D0 00 35 EB 96 73 FB 
   349)      1475.8  Rx     18EF1C8F  8  0D D1 00 00 25 00 89 03 
   350)      1476.8  Rx     18EF1C8F  8  0D D2 16 00 0D 00 0E 00 
   351)      1488.3  Rx     18EF1CCD  8  A3 00 00 00 00 00 00 00 
   352)      1494.5  Rx     18FEF31C  8  B6 2B 80 99 12 C7 2C 89 
   353)      1495.0  Rx     18EF1C8F  8  0D E0 00 55 39 97 73 FB 
   354)      1495.6  Rx     18FEE81C  8  33 8A 02 00 00 00 2C 51 
   355)      1496.1  Rx     18EF1C8F  8  0D E1 00 00 1D 00 80 03 
   356)      1496.7  Rx     18FEE61C  8  EB 2E 0C 09 57 29 00 00 
   357)      1497.3  Rx     18EF1C8F  8  0D E2 18 00 0A 00 14 00 
   358)      1497.9  Rx     19F8021C  8  26 FC 70 BC 00 00 FF FF 
   359)      1498.4  Rx     18EFCD1C  8  A1 01 00 00 00 00 00 00 
   360)      1501.0  Rx     19F8051C  8  C0 2F 26 EE 50 EE EA 6D 
   361)      1501.6  Rx     19F8051C  8  C1 1B 80 9B 06 B4 6C A7 
   362)      1502.1  Rx     19F8051C  8  C2 98 06 C0 8B 8D C2 2E 
   363)      1502.7  Rx     19F8051C  8  C3 90 CB 02 CF 43 41 08 
   364)      1503.3  Rx     19F8051C  8  C4 00 00 00 00 40 00 0C 
   365)      1503.8  Rx     19F8051C  8  C5 5E 00 BF 00 FC 0F 00 
   366)      1504.4  Rx     19F8051C  8  C6 00 01 AF 02 20 03 FF 
   367)      1508.3  Rx     18EF1CCD  8  A1 40 00 00 00 00 00 00 
   368)      1514.9  Rx     18EF1C8F  8  0D F0 00 7A 87 97 73 FB 
   369)      1515.8  Rx     18EF1C8F  8  0D F1 F8 FF 23 00 87 03 
   370)      1516.8  Rx     18EF1C8F  8  0D F2 17 00 0B 00 0D 00 
   371)      1534.9  Rx     18EF1C8F  8  0D 00 00 95 D5 97 73 FB 
   372)      1535.8  Rx     18EF1C8F  8  0D 01 06 00 1C 00 83 03 
   373)      1536.8  Rx     18EF1C8F  8  0D 02 1A 00 0F 00 11 00 
   374)      1554.9  Rx     18EF1C8F  8  0D 10 00 B2 23 98 73 FB 
   375)      1555.8  Rx     18EF1C8F  8  0D 11 F6 FF 23 00 88 03 
   376)      1556.8  Rx     18EF1C8F  8  0D 12 18 00 0A 00 0F 00 
   377)      1568.5  Rx     18EF1CCD  8  A2 00 00 00 00 00 00 00 
   378)      1574.8  Rx     18EF1C8F  8  0D 20 00 D5 71 98 73 FB 
   379)      1575.8  Rx     18EF1C8F  8  0D 21 0A 00 1D 00 81 03 
   380)      1576.8  Rx     18EF1C8F  8  0D 22 17 00 14 00 0D 00 
   381)      1588.5  Rx     18EF1CCD  8  A3 00 00 00 00 00 00 00 
   382)      1594.9  Rx     18EF1C8F  8  0D 30 00 F5 BF 98 73 FB 
   383)      1595.8  Rx     18EF1C8F  8  0D 31 F2 FF 22 00 86 03 
   384)      1596.8  Rx     18EF1C8F  8  0D 32 15 00 04 00 0F 00 
   385)      1600.2  Rx     18EFCD1C  8  A0 00 14 00 00 00 00 00 
   386)      1600.8  Rx     18EF1CCD  8  A0 00 14 00 B4 07 00 00 
   387)      1608.5  Rx     18EF1CCD  8  A1 40 00 00 00 00 00 00 
   388)      1614.9  Rx     18EF1C8F  8  0D 40 00 17 0E 99 72 FB 
   389)      1615.8  Rx     18EF1C8F  8  0D 41 0A 00 1F 00 81 03 
   390)      1616.8  Rx     18EF1C8F  8  0D 42 18 00 17 00 0F 00 
   391)      1618.2  Rx     18EFCD1C  8  A0 00 2A 00 00 00 00 00 
   392)      1618.8  Rx     18EF1CCD  8  A0 00 2A 00 44 06 00 00 
   393)      1634.0  Rx     18EFCD1C  8  A0 00 1B 00 00 00 00 00 
   394)      1634.7  Rx     18EF1CCD  8  A0 00 1B 00 00 00 00 00 
   395)      1635.2  Rx     18EF1C8F  8  0D 50 00 35 5C 99 73 FB 
   396)      1635.8  Rx     18EF1C8F  8  0D 51 F0 FF 22 00 84 03 
   397)      1636.8  Rx     18EF1C8F  8  0D 52 17 00 02 00 0F 00 
   398)      1654.5  Rx     18EFCD1C  8  A0 00 00 00 00 00 00 00 
   399)      1655.1  Rx     18EF1C8F  8  0D 60 00 57 AA 99 73 FB 
   400)      1655.6  Rx     18EF1CCD  8  A0 00 00 00 01 00 00 00 
   401)      1656.2  Rx     18EF1C8F  8  0D 61 08 00 1F 00 83 03 
   402)      1656.8  Rx     18EF1C8F  8  0D 62 19 00 18 00 0F 00 
   403)      1668.7  Rx     18EF1CCD  8  A2 00 00 00 00 00 00 00 
   404)      1674.9  Rx     18EF1C8F  8  0D 70 00 75 F8 99 73 FB 
   405)      1675.8  Rx     18EF1C8F  8  0D 71 F4 FF 24 00 84 03 
   406)      1676.8  Rx     18EF1C8F  8  0D 72 18 00 01 00 11 00 
   407)      1688.7  Rx     18EF1CCD  8  A3 00 00 00 00 00 00 00 
   408)      1693.4  Rx     18EFCD1C  8  A1 01 00 00 00 00 00 00 
   409)      1694.9  Rx     18EF1C8F  8  0D 80 00 95 46 9A 73 FB 
   410)      1695.8  Rx     18EF1C8F  8  0D 81 04 00 1F 00 84 03 
   411)      1696.8  Rx     18EF1C8F  8  0D 82 19 00 13 00 0F 00 
   412)      1708.8  Rx     18EF1CCD  8  A1 40 00 00 00 00 00 00 
   413)      1714.9  Rx     18EF1C8F  8  0D 90 00 B5 94 9A 73 FB 
   414)      1715.8  Rx     18EF1C8F  8  0D 91 F6 FF 22 00 82 03 
   415)      1716.8  Rx     18EF1C8F  8  0D 92 15 00 00 00 11 00 
   416)      1734.9  Rx     18EF1C8F  8  0D A0 00 D5 E2 9A 73 FB 
   417)      1735.8  Rx     18EF1C8F  8  0D A1 00 00 21 00 88 03 
   418)      1736.8  Rx     18EF1C8F  8  0D A2 16 00 12 00 0E 00 
   419)      1754.9  Rx     18EF1C8F  8  0D B0 00 F5 30 9B 73 FB 
   420)      1755.8  Rx     18EF1C8F  8  0D B1 FD FF 21 00 81 03 
   421)      1756.8  Rx     18EF1C8F  8  0D B2 17 00 08 00 11 00 
   422)      1768.9  Rx     18EF1CCD  8  A2 00 00 00 00 00 00 00 
   423)      1774.9  Rx     18EF1C8F  8  0D C0 00 15 7F 9B 73 FB 
   424)      1775.8  Rx     18EF1C8F  8  0D C1 F8 FF 21 00 87 03 
   425)      1776.8  Rx     18EF1C8F  8  0D C2 16 00 0D 00 0F 00 
   426)      1789.0  Rx     18EF1CCD  8  A3 00 00 00 00 00 00 00 
   427)      1794.9  Rx     18EF1C8F  8  0D D0 00 35 CD 9B 73 FB 
   428)      1795.8  Rx     18EF1C8F  8  0D D1 FF FF 1E 00 82 03 
   429)      1796.8  Rx     18EF1C8F  8  0D D2 17 00 0B 00 0F 00 
   430)      1798.5  Rx     18EFCD1C  8  A0 00 14 00 00 00 00 00 
   431)      1799.1  Rx     18EF1CCD  8  A0 00 14 00 B3 07 00 00 
   432)      1809.0  Rx     18EF1CCD  8  A1 40 00 00 00 00 00 00 
   433)      1814.0  Rx     18EFCD1C  8  A0 00 2A 00 00 00 00 00 
   434)      1814.6  Rx     18EF1CCD  8  A0 00 2A 00 40 06 00 00 
   435)      1815.2  Rx     18EF1C8F  8  0D E0 00 57 1B 9C 73 FB 
   436)      1815.9  Rx     18EF1C8F  8  0D E1 F8 FF 24 00 8A 03 
   437)      1816.8  Rx     18EF1C8F  8  0D E2 15 00 09 00 0C 00 
   438)      1833.5  Rx     18EFCD1C  8  A0 00 1B 00 00 00 00 00 
   439)      1834.2  Rx     18EF1CCD  8  A0 00 1B 00 00 00 00 00 
   440)      1835.0  Rx     18EF1C8F  8  0D F0 00 77 69 9C 73 FB 
   441)      1835.9  Rx     18EF1C8F  8  0D F1 06 00 1B 00 82 03 
   442)      1836.8  Rx     18EF1C8F  8  0D F2 17 00 11 00 10 00 
   443)      1854.4  Rx     18EFCD1C  8  A0 00 00 00 00 00 00 00 
   444)      1855.0  Rx     18EF1C8F  8  0D 00 00 95 B7 9C 73 FB 
   445)      1855.6  Rx     18EF1CCD  8  A0 00 00 00 01 00 00 00 
   446)      1856.1  Rx     18EF1C8F  8  0D 01 F4 FF 23 00 88 03 
   447)      1856.9  Rx     18EF1C8F  8  0D 02 15 00 05 00 0E 00 
   448)      1869.2  Rx     18EF1CCD  8  A2 00 00 00 00 00 00 00 
   449)      1875.0  Rx     18EF1C8F  8  0D 10 00 B5 05 9D 73 FB 
   450)      1875.9  Rx     18EF1C8F  8  0D 11 0C 00 1A 00 83 03 
   451)      1876.9  Rx     18EF1C8F  8  0D 12 18 00 14 00 11 00 
   452)      1889.3  Rx     18EF1CCD  8  A3 00 00 00 00 00 00 00 
   453)      1893.5  Rx     18EFCD1C  8  A1 01 00 00 00 00 00 00 
   454)      1895.0  Rx     18EF1C8F  8  0D 20 00 D5 53 9D 73 FB 
   455)      1895.9  Rx     18EF1C8F  8  0D 21 F1 FF 24 00 86 03 
   456)      1896.9  Rx     18EF1C8F  8  0D 22 17 00 07 00 0E 00 
   457)      1909.3  Rx     18EF1CCD  8  A1 40 00 00 00 00 00 00 
   458)      1914.9  Rx     18EF1C8F  8  0D 30 00 F5 A1 9D 73 FB 
   459)      1915.9  Rx     18EF1C8F  8  0D 31 0C 00 1B 00 82 03 
   460)      1916.9  Rx     18EF1C8F  8  0D 32 18 00 17 00 10 00 
   461)      1935.0  Rx     18EF1C8F  8  0D 40 00 15 F0 9D 73 FB 
   462)      1935.9  Rx     18EF1C8F  8  0D 41 F1 FF 23 00 83 03 
   463)      1936.9  Rx     18EF1C8F  8  0D 42 17 00 02 00 10 00 
   464)      1955.0  Rx     18EF1C8F  8  0D 50 00 35 3E 9E 73 FB 
   465)      1955.9  Rx     18EF1C8F  8  0D 51 0D 00 1D 00 85 03 
   466)      1956.9  Rx     18EF1C8F  8  0D 52 1A 00 15 00 12 00 
   467)      1969.4  Rx     18EF1CCD  8  A2 00 00 00 00 00 00 00 
   468)      1975.0  Rx     18EF1C8F  8  0D 60 00 55 8C 9E 73 FB 
   469)      1975.9  Rx     18EF1C8F  8  0D 61 F2 FF 20 00 7E 03 
   470)      1976.9  Rx     18EF1C8F  8  0D 62 14 00 02 00 11 00 
   471)      1989.5  Rx     18EF1CCD  8  A3 00 00 00 00 00 00 00 
   472)      1995.0  Rx     18EF1C8F  8  0D 70 00 75 DA 9E 73 FB 
   473)      1995.9  Rx     18EF1C8F  8  0D 71 05 00 20 00 86 03 
   474)      1996.9  Rx     18EF1C8F  8  0D 72 18 00 13 00 10 00 
   475)      1998.3  Rx     18EFCD1C  8  A0 00 14 00 00 00 00 00 
   476)      1998.9  Rx     18EF1CCD  8  A0 00 14 00 B3 07 00 00 
   477)      2009.5  Rx     18EF1CCD  8  A1 40 00 00 00 00 00 00 
   478)      2013.9  Rx     18EFCD1C  8  A0 00 2A 00 00 00 00 00 
   479)      2014.6  Rx     18EF1CCD  8  A0 00 2A 00 49 06 00 00 
   480)      2015.1  Rx     18EF1C8F  8  0D 80 00 97 28 9F 73 FB 
   481)      2015.9  Rx     18EF1C8F  8  0D 81 F5 FF 20 00 82 03 
   482)      2016.9  Rx     18EF1C8F  8  0D 82 18 00 03 00 12 00 
   483)      2033.5  Rx     18EFCD1C  8  A0 00 1B 00 00 00 00 00 
   484)      2034.1  Rx     18EF1CCD  8  A0 00 1B 00 00 00 00 00 
   485)      2035.0  Rx     18EF1C8F  8  0D 90 00 B5 76 9F 74 FB 
   486)      2035.9  Rx     18EF1C8F  8  0D 91 FD FF 22 00 88 03 
   487)      2036.9  Rx     18EF1C8F  8  0D 92 16 00 0D 00 10 00 
   488)      2053.6  Rx     18EFCD1C  8  A0 00 00 00 00 00 00 00 
   489)      2054.3  Rx     18EF1CCD  8  A0 00 00 00 01 00 00 00 
   490)      2055.0  Rx     18EF1C8F  8  0D A0 00 D5 C4 9F 74 FB 
   491)      2055.9  Rx     18EF1C8F  8  0D A1 FB FF 1D 00 84 03 
   492)      2056.9  Rx     18EF1C8F  8  0D A2 17 00 09 00 10 00 
   493)      2069.7  Rx     18EF1CCD  8  A2 00 00 00 00 00 00 00 
   494)      2075.0  Rx     18EF1C8F  8  0D B0 00 F5 12 A0 74 FB 
   495)      2075.9  Rx     18EF1C8F  8  0D B1 F6 FF 20 00 86 03 
   496)      2076.9  Rx     18EF1C8F  8  0D B2 16 00 0D 00 0E 00 
   497)      2089.7  Rx     18EF1CCD  8  A3 00 00 00 00 00 00 00 
   498)      2094.4  Rx     18EFCD1C  4  01 3F 3F 00 
   499)      2095.0  Rx     18EFCD1C  8  A1 01 00 00 00 00 00 00 
   500)      2095.6  Rx     18EF1C8F  8  0D C0 00 15 61 A0 74 FB 
   501)      2096.1  Rx     18EF1C8F  8  0D C1 00 00 1E 00 83 03 
   502)      2096.6  Rx     18EF1CCD  4  01 40 3F 00 
   503)      2097.1  Rx     18EF1C8F  8  0D C2 1A 00 0E 00 0E 00 
   504)      2109.8  Rx     18EF1CCD  8  A1 40 00 00 00 00 00 00 
   505)      2115.0  Rx     18EF1C8F  8  0D D0 00 37 AF A0 74 FB 
   506)      2115.9  Rx     18EF1C8F  8  0D D1 F2 FF 22 00 88 03 
   507)      2117.0  Rx     18EF1C8F  8  0D D2 16 00 08 00 0D 00 
   508)      2135.0  Rx     18EF1C8F  8  0D E0 00 55 FD A0 73 FB 
   509)      2135.9  Rx     18EF1C8F  8  0D E1 05 00 1E 00 83 03 
   510)      2136.9  Rx     18EF1C8F  8  0D E2 16 00 13 00 0F 00 
   511)      2155.0  Rx     18EF1C8F  8  0D F0 00 75 4B A1 74 FB 
   512)      2156.0  Rx     18EF1C8F  8  0D F1 F1 FF 23 00 85 03 
   513)      2156.9  Rx     18EF1C8F  8  0D F2 11 00 02 00 0D 00 
   514)      2169.9  Rx     18EF1CCD  8  A2 00 00 00 00 00 00 00 
   515)      2175.0  Rx     18EF1C8F  8  0D 00 00 95 99 A1 73 FB 
   516)      2175.9  Rx     18EF1C8F  8  0D 01 09 00 1C 00 81 03 
   517)      2177.0  Rx     18EF1C8F  8  0D 02 17 00 13 00 0F 00 
   518)      2190.0  Rx     18EF1CCD  8  A3 00 00 00 00 00 00 00 
   519)      2195.0  Rx     18EF1C8F  8  0D 10 00 B5 E7 A1 73 FB 
   520)      2195.9  Rx     18EF1C8F  8  0D 11 EF FF 25 00 83 03 
   521)      2196.9  Rx     18EF1C8F  8  0D 12 1A 00 FF FF 0B 00 
   522)      2197.5  Rx     18EFCD1C  8  A0 00 14 00 00 00 00 00 
   523)      2198.1  Rx     18EF1CCD  8  A0 00 14 00 B3 07 00 00 
   524)      2210.0  Rx     18EF1CCD  8  A1 40 00 00 00 00 00 00 
   525)      2213.6  Rx     18EFCD1C  8  A0 00 2A 00 00 00 00 00 
   526)      2214.3  Rx     18EF1CCD  8  A0 00 2A 00 48 06 00 00 
   527)      2215.1  Rx     18EF1C8F  8  0D 20 00 D7 35 A2 74 FB 
   528)      2215.9  Rx     18EF1C8F  8  0D 21 09 00 1A 00 81 03 
   529)      2216.9  Rx     18EF1C8F  8  0D 22 1A 00 12 00 0A 00 
   530)      2233.6  Rx     18EFCD1C  8  A0 00 1B 00 00 00 00 00 
   531)      2234.3  Rx     18EF1CCD  8  A0 00 1B 00 00 00 00 00 
   532)      2235.0  Rx     18EF1C8F  8  0D 30 00 F5 83 A2 74 FB 
   533)      2235.9  Rx     18EF1C8F  8  0D 31 F3 FF 27 00 82 03 
   534)      2237.0  Rx     18EF1C8F  8  0D 32 19 00 00 00 0C 00 
   535)      2253.6  Rx     18EFCD1C  8  A0 00 00 00 00 00 00 00 
   536)      2254.2  Rx     18EF1CCD  8  A0 00 00 00 01 00 00 00 
   537)      2255.0  Rx     18EF1C8F  8  0D 40 00 15 D2 A2 74 FB 
   538)      2255.9  Rx     18EF1C8F  8  0D 41 09 00 1D 00 86 03 
   539)      2256.9  Rx     18EF1C8F  8  0D 42 17 00 11 00 0C 00 
   540)      2270.1  Rx     18EF1CCD  8  A2 00 00 00 00 00 00 00 
   541)      2275.0  Rx     18EF1C8F  8  0D 50 00 35 20 A3 73 FB 
   542)      2275.9  Rx     18EF1C8F  8  0D 51 F5 FF 23 00 7F 03 
   543)      2276.9  Rx     18EF1C8F  8  0D 52 16 00 01 00 0E 00 
   544)      2290.2  Rx     18EF1CCD  8  A3 00 00 00 00 00 00 00 
   545)      2294.8  Rx     18EFCD1C  8  A1 01 00 00 00 00 00 00 
   546)      2295.4  Rx     18EF1C8F  8  0D 60 00 55 6E A3 73 FB 
   547)      2295.9  Rx     18EF1C8F  8  0D 61 02 00 20 00 87 03 
   548)      2296.9  Rx     18EF1C8F  8  0D 62 15 00 0F 00 10 00 
   549)      2310.2  Rx     18EF1CCD  8  A1 40 00 00 00 00 00 00 
   550)      2315.0  Rx     18EF1C8F  8  0D 70 00 75 BC A3 73 FB 
   551)      2316.0  Rx     18EF1C8F  8  0D 71 F7 FF 20 00 7D 03 
   552)      2316.9  Rx     18EF1C8F  8  0D 72 17 00 02 00 12 00 
   553)      2335.0  Rx     18EF1C8F  8  0D 80 00 95 0A A4 73 FB 
   554)      2335.9  Rx     18EF1C8F  8  0D 81 00 00 24 00 8A 03 
   555)      2336.9  Rx     18EF1C8F  8  0D 82 16 00 08 00 11 00 
   556)      2355.0  Rx     18EF1C8F  8  0D 90 00 B5 58 A4 73 FB 
   557)      2355.9  Rx     18EF1C8F  8  0D 91 00 00 1F 00 7F 03 
   558)      2356.9  Rx     18EF1C8F  8  0D 92 19 00 06 00 11 00 
   559)      2370.4  Rx     18EF1CCD  8  A2 00 00 00 00 00 00 00 
   560)      2375.0  Rx     18EF1C8F  8  0D A0 00 D5 A6 A4 74 FB 
   561)      2375.9  Rx     18EF1C8F  8  0D A1 F8 FF 25 00 87 03 
   562)      2376.9  Rx     18EF1C8F  8  0D A2 16 00 07 00 10 00 
   563)      2390.4  Rx     18EF1CCD  8  A3 00 00 00 00 00 00 00 
   564)      2395.0  Rx     18EF1C8F  8  0D B0 00 F5 F4 A4 73 FB 
   565)      2395.9  Rx     18EF1C8F  8  0D B1 07 00 1E 00 84 03 
   566)      2396.9  Rx     18EF1C8F  8  0D B2 15 00 0D 00 11 00 
   567)      2399.3  Rx     18EFCD1C  8  A0 00 14 00 00 00 00 00 
   568)      2399.9  Rx     18EF1CCD  8  A0 00 14 00 B4 07 00 00 
   569)      2410.5  Rx     18EF1CCD  8  A1 40 00 00 00 00 00 00 
   570)      2413.6  Rx     18EFCD1C  8  A0 00 2A 00 00 00 00 00 
   571)      2414.2  Rx     18EF1CCD  8  A0 00 2A 00 47 06 00 00 
   572)      2415.0  Rx     18EF1C8F  8  0D C0 00 17 43 A5 74 FB 
   573)      2415.9  Rx     18EF1C8F  8  0D C1 F3 FF 24 00 87 03 
   574)      2416.9  Rx     18EF1C8F  8  0D C2 14 00 07 00 0F 00 
   575)      2433.5  Rx     18EFCD1C  8  A0 00 1B 00 00 00 00 00 
   576)      2434.2  Rx     18EF1CCD  8  A0 00 1B 00 00 00 00 00 
   577)      2435.0  Rx     18EF1C8F  8  0D D0 00 35 91 A5 73 FB 
   578)      2435.9  Rx     18EF1C8F  8  0D D1 09 00 1E 00 84 03 
   579)      2436.9  Rx     18EF1C8F  8  0D D2 1B 00 14 00 0B 00 
   580)      2453.6  Rx     18EFCD1C  8  A0 00 00 00 00 00 00 00 
   581)      2454.2  Rx     18EF1CCD  8  A0 00 00 00 01 00 00 00 
   582)      2455.0  Rx     18EF1C8F  8  0D E0 00 55 DF A5 74 FB 
   583)      2455.9  Rx     18EF1C8F  8  0D E1 F0 FF 21 00 82 03 
   584)      2456.9  Rx     18EF1C8F  8  0D E2 15 00 05 00 10 00 
   585)      2470.6  Rx     18EF1CCD  8  A2 00 00 00 00 00 00 00 
   586)      2475.0  Rx     18EF1C8F  8  0D F0 00 75 2D A6 74 FB 
   587)      2476.0  Rx     18EF1C8F  8  0D F1 0D 00 1F 00 84 03 
   588)      2476.9  Rx     18EF1C8F  8  0D F2 14 00 17 00 13 00 
   589)      2490.7  Rx     18EF1CCD  8  A3 00 00 00 00 00 00 00 
   590)      2494.8  Rx     18FEF31C  8  B4 2B 80 99 13 C7 2C 89 
   591)      2495.4  Rx     18EF1C8F  8  0D 00 00 95 7B A6 74 FB 
   592)      2495.9  Rx     18FEE81C  8  33 8A 07 00 00 00 2C 51 
   593)      2496.5  Rx     18EF1C8F  8  0D 01 F1 FF 23 00 85 03 
   594)      2497.0  Rx     18EF1C8F  8  0D 02 14 00 02 00 0E 00 
   595)      2497.6  Rx     18FEE61C  8  EF 2E 0C 09 57 29 00 00 
   596)      2498.2  Rx     19F0101C  8  2B 00 EE 50 89 11 6E 1B 
   597)      2498.7  Rx     19F8021C  8  2B FC 70 BC 00 00 FF FF 
   598)      2499.3  Rx     18EFCD1C  8  A1 01 00 00 00 00 00 00 
   599)      2501.0  Rx     19F8051C  8  E0 2F 2B EE 50 89 11 6E 
   600)      2501.5  Rx     19F8051C  8  E1 1B 00 19 D7 69 6C A7 
   601)      2502.1  Rx     19F8051C  8  E2 98 06 A0 31 BA E9 2E 
   602)      2502.6  Rx     19F8051C  8  E3 90 CB 02 41 84 41 08 
   603)      2503.2  Rx     19F8051C  8  E4 00 00 00 00 40 00 0C 
   604)      2503.8  Rx     19F8051C  8  E5 5E 00 BF 00 FC 0F 00 
   605)      2504.3  Rx     19F8051C  8  E6 00 01 AF 02 F4 01 FF 
   606)      2510.7  Rx     18EF1CCD  8  A1 40 00 00 00 00 00 00 
   607)      2515.0  Rx     18EF1C8F  8  0D 10 00 BC C9 A6 74 FB 
   608)      2515.9  Rx     18EF1C8F  8  0D 11 0B 00 1E 00 82 03 
   609)      2516.9  Rx     18EF1C8F  8  0D 12 17 00 17 00 0F 00 
   610)      2535.0  Rx     18EF1C8F  8  0D 20 00 D5 17 A7 74 FB 
   611)      2535.9  Rx     18EF1C8F  8  0D 21 F3 FF 24 00 83 03 
   612)      2536.9  Rx     18EF1C8F  8  0D 22 16 00 01 00 0E 00 
   613)      2555.0  Rx     18EF1C8F  8  0D 30 00 F5 65 A7 74 FB 
   614)      2555.9  Rx     18EF1C8F  8  0D 31 06 00 1F 00 84 03 
   615)      2556.9  Rx     18EF1C8F  8  0D 32 17 00 12 00 0C 00 
   616)      2570.8  Rx     18EF1CCD  8  A2 00 00 00 00 00 00 00 
   617)      2575.0  Rx     18EF1C8F  8  0D 40 00 15 B4 A7 74 FB 
   618)      2575.9  Rx     18EF1C8F  8  0D 41 F7 FF 21 00 7F 03 
   619)      2576.9  Rx     18EF1C8F  8  0D 42 18 00 03 00 12 00 
   620)      2590.9  Rx     18EF1CCD  8  A3 00 00 00 00 00 00 00 
   621)      2595.0  Rx     18EF1C8F  8  0D 50 00 35 02 A8 74 FB 
   622)      2595.9  Rx     18EF1C8F  8  0D 51 00 00 20 00 83 03 
   623)      2596.9  Rx     18EF1C8F  8  0D 52 19 00 10 00 0E 00 
   624)      2600.0  Rx     18EFCD1C  8  A0 00 14 00 00 00 00 00 
   625)      2600.6  Rx     18EF1CCD  8  A0 00 14 00 B4 07 00 00 
   626)      2610.9  Rx     18EF1CCD  8  A1 40 00 00 00 00 00 00 
   627)      2615.0  Rx     18EF1C8F  8  0D 60 00 57 50 A8 74 FB 
   628)      2615.9  Rx     18EF1C8F  8  0D 61 FB FF 20 00 82 03 
   629)      2616.9  Rx     18EF1C8F  8  0D 62 19 00 08 00 10 00 
   630)      2619.0  Rx     18EFCD1C  8  A0 00 2A 00 00 00 00 00 
   631)      2619.6  Rx     18EF1CCD  8  A0 00 2A 00 48 06 00 00 
   632)      2633.5  Rx     18EFCD1C  8  A0 00 1B 00 00 00 00 00 
   633)      2634.1  Rx     18EF1CCD  8  A0 00 1B 00 00 00 00 00 
   634)      2635.0  Rx     18EF1C8F  8  0D 70 00 75 9E A8 74 FB 
   635)      2635.9  Rx     18EF1C8F  8  0D 71 FB FF 22 00 87 03 
   636)      2636.9  Rx     18EF1C8F  8  0D 72 13 00 0E 00 0E 00 
   637)      2653.6  Rx     18EFCD1C  8  A0 00 00 00 00 00 00 00 
   638)      2654.2  Rx     18EF1CCD  8  A0 00 00 00 01 00 00 00 
   639)      2655.0  Rx     18EF1C8F  8  0D 80 00 95 EC A8 74 FB 
   640)      2655.9  Rx     18EF1C8F  8  0D 81 FD FF 1D 00 82 03 
   641)      2656.9  Rx     18EF1C8F  8  0D 82 16 00 0B 00 0F 00 
   642)      2671.0  Rx     18EF1CCD  8  A2 00 00 00 00 00 00 00 
   643)      2675.0  Rx     18EF1C8F  8  0D 90 00 B7 3A A9 74 FB 
   644)      2675.9  Rx     18EF1C8F  8  0D 91 F6 FF 23 00 89 03 
   645)      2676.9  Rx     18EF1C8F  8  0D 92 14 00 05 00 0D 00 
   646)      2691.1  Rx     18EF1CCD  8  A3 00 00 00 00 00 00 00 
   647)      2693.9  Rx     18EFCD1C  8  A1 01 00 00 00 00 00 00 
   648)      2695.0  Rx     18EF1C8F  8  0D A0 00 D5 88 A9 74 FB 
   649)      2695.9  Rx     18EF1C8F  8  0D A1 03 00 1B 00 82 03 
   650)      2696.9  Rx     18EF1C8F  8  0D A2 17 00 10 00 11 00 
   651)      2711.1  Rx     18EF1CCD  8  A1 40 00 00 00 00 00 00 
   652)      2715.0  Rx     18EF1C8F  8  0D B0 00 F5 D6 A9 74 FB 
   653)      2715.9  Rx     18EF1C8F  8  0D B1 F2 FF 24 00 84 03 
   654)      2716.9  Rx     18EF1C8F  8  0D B2 14 00 04 00 08 00 
   655)      2735.0  Rx     18EF1C8F  8  0D C0 00 12 25 AA 74 FB 
   656)      2735.9  Rx     18EF1C8F  8  0D C1 07 00 18 00 83 03 
   657)      2736.9  Rx     18EF1C8F  8  0D C2 14 00 15 00 0D 00 
   658)      2755.0  Rx     18EF1C8F  8  0D D0 00 35 73 AA 74 FB 
   659)      2755.9  Rx     18EF1C8F  8  0D D1 F1 FF 24 00 86 03 
   660)      2756.9  Rx     18EF1C8F  8  0D D2 17 00 04 00 0E 00 
   661)      2771.2  Rx     18EF1CCD  8  A2 00 00 00 00 00 00 00 
   662)      2774.9  Rx     18EF1C8F  8  0D E0 00 55 C1 AA 74 FB 
   663)      2775.9  Rx     18EF1C8F  8  0D E1 0A 00 1D 00 80 03 
   664)      2776.9  Rx     18EF1C8F  8  0D E2 18 00 13 00 11 00 
   665)      2791.3  Rx     18EF1CCD  8  A3 00 00 00 00 00 00 00 
   666)      2795.0  Rx     18EF1C8F  8  0D F0 00 75 0F AB 74 FB 
   667)      2795.9  Rx     18EF1C8F  8  0D F1 F3 FF 24 00 81 03 
   668)      2796.9  Rx     18EF1C8F  8  0D F2 16 00 00 00 10 00 
   669)      2799.0  Rx     18EFCD1C  8  A0 00 14 00 00 00 00 00 
   670)      2799.6  Rx     18EF1CCD  8  A0 00 14 00 B3 07 00 00 
   671)      2811.3  Rx     18EF1CCD  8  A1 40 00 00 00 00 00 00 
   672)      2813.5  Rx     18EFCD1C  8  A0 00 2A 00 00 00 00 00 
   673)      2814.1  Rx     18EF1CCD  8  A0 00 2A 00 41 06 00 00 
   674)      2815.0  Rx     18EF1C8F  8  0D 00 00 95 5D AB 74 FB 
   675)      2815.9  Rx     18EF1C8F  8  0D 01 0A 00 1E 00 84 03 
   676)      2816.9  Rx     18EF1C8F  8  0D 02 18 00 12 00 0E 00 
   677)      2833.5  Rx     18EFCD1C  8  A0 00 1B 00 00 00 00 00 
   678)      2834.2  Rx     18EF1CCD  8  A0 00 1B 00 00 00 00 00 
   679)      2835.0  Rx     18EF1C8F  8  0D 10 00 B7 AB AB 74 FB 
   680)      2835.9  Rx     18EF1C8F  8  0D 11 F1 FF 21 00 7E 03 
   681)      2836.9  Rx     18EF1C8F  8  0D 12 19 00 02 00 10 00 
   682)      2853.5  Rx     18EFCD1C  8  A0 00 00 00 00 00 00 00 
   683)      2854.1  Rx     18EF1CCD  8  A0 00 00 00 01 00 00 00 
   684)      2855.0  Rx     18EF1C8F  8  0D 20 00 D5 F9 AB 74 FB 
   685)      2855.9  Rx     18EF1C8F  8  0D 21 06 00 21 00 87 03 
   686)      2856.9  Rx     18EF1C8F  8  0D 22 1C 00 12 00 0F 00 
   687)      2871.5  Rx     18EF1CCD  8  A2 00 00 00 00 00 00 00 
   688)      2875.0  Rx     18EF1C8F  8  0D 30 00 F5 47 AC 74 FB 
   689)      2875.9  Rx     18EF1C8F  8  0D 31 F8 FF 20 00 80 03 
   690)      2876.9  Rx     18EF1C8F  8  0D 32 17 00 03 00 15 00 
   691)      2891.5  Rx     18EF1CCD  8  A3 00 00 00 00 00 00 00 
   692)      2893.5  Rx     18EFCD1C  8  A1 01 00 00 00 00 00 00 
   693)      2895.0  Rx     18EF1C8F  8  0D 40 00 12 96 AC 74 FB 
   694)      2895.9  Rx     18EF1C8F  8  0D 41 00 00 21 00 86 03 
   695)      2896.9  Rx     18EF1C8F  8  0D 42 19 00 0C 00 10 00 
   696)      2911.6  Rx     18EF1CCD  8  A1 40 00 00 00 00 00 00 
   697)      2915.0  Rx     18EF1C8F  8  0D 50 00 35 E4 AC 74 FB 
   698)      2915.9  Rx     18EF1C8F  8  0D 51 FD FF 1D 00 81 03 
   699)      2916.9  Rx     18EF1C8F  8  0D 52 1A 00 04 00 10 00 
   700)      2934.9  Rx     18EF1C8F  8  0D 60 00 55 32 AD 74 FB 
   701)      2935.9  Rx     18EF1C8F  8  0D 61 FA FF 24 00 86 03 
   702)      2936.9  Rx     18EF1C8F  8  0D 62 17 00 08 00 0F 00 
   703)      2955.0  Rx     18EF1C8F  8  0D 70 00 75 80 AD 74 FB 
   704)      2955.9  Rx     18EF1C8F  8  0D 71 04 00 1F 00 83 03 
   705)      2956.9  Rx     18EF1C8F  8  0D 72 17 00 0B 00 10 00 
   706)      2971.7  Rx     18EF1CCD  8  A2 00 00 00 00 00 00 00 
   707)      2975.0  Rx     18EF1C8F  8  0D 80 00 95 CE AD 74 FB 
   708)      2975.9  Rx     18EF1C8F  8  0D 81 F7 FF 22 00 86 03 
   709)      2976.9  Rx     18EF1C8F  8  0D 82 15 00 09 00 0E 00 
   710)      2991.7  Rx     18EF1CCD  8  A3 00 00 00 00 00 00 00 
   711)      2995.0  Rx     18EF1C8F  8  0D 90 00 B5 1C AE 74 FB 
   712)      2995.9  Rx     18EF1C8F  8  0D 91 06 00 1F 00 86 03 
   713)      2996.9  Rx     18EF1C8F  8  0D 92 19 00 10 00 0F 00 
   714)      2998.5  Rx     18EFCD1C  8  A0 00 14 00 00 00 00 00 
   715)      2999.2  Rx     18EF1CCD  8  A0 00 14 00 B3 07 00 00 
   716)      3011.8  Rx     18EF1CCD  8  A1 40 00 00 00 00 00 00 
   717)      3013.6  Rx     18EFCD1C  8  A0 00 2A 00 00 00 00 00 
   718)      3014.2  Rx     18EF1CCD  8  A0 00 2A 00 41 06 00 00 
   719)      3015.0  Rx     18EF1C8F  8  0D A0 00 D7 6A AE 74 FB 
   720)      3015.9  Rx     18EF1C8F  8  0D A1 F5 FF 24 00 86 03 
   721)      3016.9  Rx     18EF1C8F  8  0D A2 17 00 03 00 0D 00 
   722)      3033.5  Rx     18EFCD1C  8  A0 00 1B 00 00 00 00 00 
   723)      3034.1  Rx     18EF1CCD  8  A0 00 1B 00 00 00 00 00 
   724)      3035.0  Rx     18EF1C8F  8  0D B0 00 F5 B8 AE 74 FB 
   725)      3035.9  Rx     18EF1C8F  8  0D B1 0B 00 1B 00 84 03 
   726)      3036.9  Rx     18EF1C8F  8  0D B2 16 00 15 00 10 00 
   727)      3053.5  Rx     18EFCD1C  8  A0 00 00 00 00 00 00 00 
   728)      3054.2  Rx     18EF1CCD  8  A0 00 00 00 01 00 00 00 
   729)      3055.0  Rx     18EF1C8F  8  0D C0 00 17 07 AF 74 FB 
   730)      3055.9  Rx     18EF1C8F  8  0D C1 F4 FF 24 00 84 03 
   731)      3056.9  Rx     18EF1C8F  8  0D C2 11 00 03 00 0E 00 
   732)      3071.9  Rx     18EF1CCD  8  A2 00 00 00 00 00 00 00 
   733)      3075.0  Rx     18EF1C8F  8  0D D0 00 35 55 AF 74 FB 
   734)      3075.9  Rx     18EF1C8F  8  0D D1 0A 00 1A 00 81 03 
   735)      3076.9  Rx     18EF1C8F  8  0D D2 10 00 14 00 12 00 
   736)      3092.0  Rx     18EF1CCD  8  A3 00 00 00 00 00 00 00 
   737)      3093.9  Rx     18EFCD1C  8  A1 01 00 00 00 00 00 00 
   738)      3095.0  Rx     18EF1C8F  8  0D E0 00 55 A3 AF 74 FB 
   739)      3095.9  Rx     18EF1C8F  8  0D E1 F5 FF 29 00 85 03 
   740)      3096.9  Rx     18EF1C8F  8  0D E2 16 00 00 00 12 00 
   741)      3112.0  Rx     18EF1CCD  8  A1 40 00 00 00 00 00 00 
   742)      3115.0  Rx     18EF1C8F  8  0D F0 00 75 F1 AF 74 FB 
   743)      3115.9  Rx     18EF1C8F  8  0D F1 09 00 1E 00 88 03 
   744)      3116.9  Rx     18EF1C8F  8  0D F2 17 00 16 00 0F 00 
   745)      3135.0  Rx     18EF1C8F  8  0D 00 00 95 3F B0 74 FB 
   746)      3135.9  Rx     18EF1C8F  8  0D 01 F6 FF 24 00 7F 03 
   747)      3136.9  Rx     18EF1C8F  8  0D 02 17 00 06 00 0F 00 
   748)      3154.9  Rx     18EF1C8F  8  0D 10 00 B5 8D B0 74 FB 
   749)      3155.9  Rx     18EF1C8F  8  0D 11 05 00 1E 00 87 03 
   750)      3156.9  Rx     18EF1C8F  8  0D 12 16 00 14 00 0F 00 
   751)      3172.1  Rx     18EF1CCD  8  A2 00 00 00 00 00 00 00 
   752)      3175.0  Rx     18EF1C8F  8  0D 20 00 D5 DB B0 74 FB 
   753)      3175.9  Rx     18EF1C8F  8  0D 21 F6 FF 1F 00 7D 03 
   754)      3176.9  Rx     18EF1C8F  8  0D 22 18 00 03 00 12 00 
   755)      3192.2  Rx     18EF1CCD  8  A3 00 00 00 00 00 00 00 
   756)      3195.0  Rx     18EF1C8F  8  0D 30 00 F7 29 B1 74 FB 
   757)      3195.9  Rx     18EF1C8F  8  0D 31 FE FF 22 00 88 03 
   758)      3196.9  Rx     18EF1C8F  8  0D 32 18 00 10 00 0E 00 
   759)      3198.4  Rx     18EFCD1C  8  A0 00 14 00 00 00 00 00 
   760)      3199.0  Rx     18EF1CCD  8  A0 00 14 00 B4 07 00 00 
   761)      3212.2  Rx     18EF1CCD  8  A1 40 00 00 00 00 00 00 
   762)      3213.7  Rx     18EFCD1C  8  A0 00 2A 00 00 00 00 00 
   763)      3214.3  Rx     18EF1CCD  8  A0 00 2A 00 49 06 00 00 
   764)      3215.0  Rx     18EF1C8F  8  0D 40 00 17 78 B1 74 FB 
   765)      3215.9  Rx     18EF1C8F  8  0D 41 FD FF 1C 00 81 03 
   766)      3216.9  Rx     18EF1C8F  8  0D 42 17 00 0A 00 0F 00 
   767)      3233.4  Rx     18EFCD1C  8  A0 00 1B 00 00 00 00 00 
   768)      3234.1  Rx     18EF1CCD  8  A0 00 1B 00 00 00 00 00 
   769)      3235.0  Rx     18EF1C8F  8  0D 50 00 35 C6 B1 74 FB 
   770)      3235.9  Rx     18EF1C8F  8  0D 51 F8 FF 23 00 8A 03 
   771)      3236.8  Rx     18EF1C8F  8  0D 52 16 00 08 00 0B 00 
   772)      3253.5  Rx     18EFCD1C  8  A0 00 00 00 00 00 00 00 
   773)      3254.1  Rx     18EF1CCD  8  A0 00 00 00 01 00 00 00 
   774)      3255.0  Rx     18EF1C8F  8  0D 60 00 55 14 B2 74 FB 
   775)      3255.8  Rx     18EF1C8F  8  0D 61 01 00 1D 00 83 03 
   776)      3256.9  Rx     18EF1C8F  8  0D 62 1C 00 0B 00 0D 00 
   777)      3272.3  Rx     18EF1CCD  8  A2 00 00 00 00 00 00 00 
   778)      3274.9  Rx     18EF1C8F  8  0D 70 00 75 62 B2 74 FB 
   779)      3275.8  Rx     18EF1C8F  8  0D 71 F2 FF 23 00 85 03 
   780)      3276.9  Rx     18EF1C8F  8  0D 72 18 00 0A 00 0C 00 
   781)      3292.4  Rx     18EF1CCD  8  A3 00 00 00 00 00 00 00 
   782)      3293.8  Rx     18EFCD1C  8  A1 01 00 00 00 00 00 00 
   783)      3294.9  Rx     18EF1C8F  8  0D 80 00 95 B0 B2 74 FB 
   784)      3295.9  Rx     18EF1C8F  8  0D 81 06 00 1B 00 81 03 
   785)      3296.8  Rx     18EF1C8F  8  0D 82 16 00 12 00 11 00 
   786)      3312.4  Rx     18EF1CCD  8  A1 40 00 00 00 00 00 00 
   787)      3314.9  Rx     18EF1C8F  8  0D 90 00 B5 FE B2 74 FB 
   788)      3315.8  Rx     18EF1C8F  8  0D 91 F1 FF 22 00 84 03 
   789)      3316.8  Rx     18EF1C8F  8  0D 92 15 00 05 00 0C 00 
   790)      3334.9  Rx     18EF1C8F  8  0D A0 00 D5 4C B3 74 FB 
   791)      3335.8  Rx     18EF1C8F  8  0D A1 06 00 1E 00 83 03 
   792)      3336.8  Rx     18EF1C8F  8  0D A2 18 00 16 00 0E 00 
   793)      3354.9  Rx     18EF1C8F  8  0D B0 00 F5 9A B3 75 FB 
   794)      3355.8  Rx     18EF1C8F  8  0D B1 F1 FF 22 00 84 03 
   795)      3356.8  Rx     18EF1C8F  8  0D B2 17 00 00 00 11 00 
   796)      3372.6  Rx     18EF1CCD  8  A2 00 00 00 00 00 00 00 
   797)      3374.9  Rx     18EF1C8F  8  0D C0 00 15 E9 B3 74 FB 
   798)      3375.8  Rx     18EF1C8F  8  0D C1 0B 00 1E 00 83 03 
   799)      3376.8  Rx     18EF1C8F  8  0D C2 1A 00 14 00 0F 00 
   800)      3392.6  Rx     18EF1CCD  8  A3 00 00 00 00 00 00 00 
   801)      3394.9  Rx     18EF1C8F  8  0D D0 00 35 37 B4 75 FB 
   802)      3395.8  Rx     18EF1C8F  8  0D D1 F2 FF 22 00 83 03 
   803)      3396.8  Rx     18EF1C8F  8  0D D2 1A 00 FD FF 0E 00 
   804)      3398.5  Rx     18EFCD1C  8  A0 00 14 00 00 00 00 00 
   805)      3399.1  Rx     18EF1CCD  8  A0 00 14 00 B3 07 00 00 
   806)      3412.6  Rx     18EF1CCD  8  A1 40 00 00 00 00 00 00 
   807)      3413.6  Rx     18EFCD1C  8  A0 00 2A 00 00 00 00 00 
   808)      3414.2  Rx     18EF1CCD  8  A0 00 2A 00 47 06 00 00 
   809)      3414.9  Rx     18EF1C8F  8  0D E0 00 57 85 B4 75 FB 
   810)      3415.8  Rx     18EF1C8F  8  0D E1 05 00 1F 00 84 03 
   811)      3416.8  Rx     18EF1C8F  8  0D E2 1D 00 0E 00 11 00 
   812)      3433.4  Rx     18EFCD1C  8  A0 00 1B 00 00 00 00 00 
   813)      3434.0  Rx     18EF1CCD  8  A0 00 1B 00 00 00 00 00 
   814)      3434.9  Rx     18EF1C8F  8  0D F0 00 75 D3 B4 75 FB 
   815)      3435.8  Rx     18EF1C8F  8  0D F1 F7 FF 21 00 7F 03 
   816)      3436.8  Rx     18EF1C8F  8  0D F2 19 00 FF FF 11 00 
   817)      3453.4  Rx     18EFCD1C  8  A0 00 00 00 00 00 00 00 
   818)      3454.1  Rx     18EF1CCD  8  A0 00 00 00 01 00 00 00 
   819)      3454.9  Rx     18EF1C8F  8  0D 00 00 95 21 B5 75 FB 
   820)      3455.8  Rx     18EF1C8F  8  0D 01 03 00 1F 00 86 03 
   821)      3456.8  Rx     18EF1C8F  8  0D 02 15 00 0D 00 0F 00 
   822)      3472.8  Rx     18EF1CCD  8  A2 00 00 00 00 00 00 00 
   823)      3474.9  Rx     18EF1C8F  8  0D 10 00 B5 6F B5 75 FB 
   824)      3475.8  Rx     18EF1C8F  8  0D 11 FB FF 1F 00 80 03 
   825)      3476.8  Rx     18EF1C8F  8  0D 12 16 00 03 00 11 00 
   826)      3492.8  Rx     18EF1CCD  8  A3 00 00 00 00 00 00 00 
   827)      3493.4  Rx     18EFCD1C  8  A1 01 00 00 00 00 00 00 
   828)      3494.9  Rx     18EF1C8F  8  0D 20 00 D5 BD B5 75 FB 
   829)      3495.8  Rx     18EF1C8F  8  0D 21 FC FF 1F 00 86 03 
   830)      3496.8  Rx     18EF1C8F  8  0D 22 12 00 08 00 11 00 
   831)      3512.9  Rx     18EF1CCD  8  A1 40 00 00 00 00 00 00 
   832)      3514.6  Rx     18FEF31C  8  B4 2B 80 99 13 C7 2C 89 
   833)      3515.1  Rx     18EF1C8F  8  0D 30 00 F5 0B B6 75 FB 
   834)      3515.7  Rx     18FEE81C  8  33 8A 05 00 00 00 2C 51 
   835)      3516.2  Rx     18EF1C8F  8  0D 31 FE FF 1E 00 80 03 
   836)      3516.8  Rx     18FEE61C  8  03 2F 0C 09 57 29 00 00 
   837)      3517.3  Rx     18EF1C8F  8  0D 32 17 00 09 00 15 00 
   838)      3517.9  Rx     19F8021C  8  30 FC 70 BC 00 00 FF FF 
   839)      3521.5  Rx     19F8051C  8  00 2F 30 EE 50 99 38 6E 
   840)      3522.0  Rx     19F8051C  8  01 1B 00 60 94 67 6C A7 
   841)      3522.6  Rx     19F8051C  8  02 98 06 20 66 C9 FD 2E 
   842)      3523.1  Rx     19F8051C  8  03 90 CB 02 42 70 41 08 
   843)      3523.7  Rx     19F8051C  8  04 00 00 00 00 40 00 0C 
   844)      3524.3  Rx     19F8051C  8  05 5E 00 BF 00 FC 0F 00 
   845)      3524.9  Rx     19F8051C  8  06 00 01 AF 02 58 02 FF 
   846)      3534.9  Rx     18EF1C8F  8  0D 40 00 1A 5A B6 75 FB 
   847)      3535.8  Rx     18EF1C8F  8  0D 41 FA FF 24 00 89 03 
   848)      3536.8  Rx     18EF1C8F  8  0D 42 14 00 09 00 10 00 
   849)      3554.9  Rx     18EF1C8F  8  0D 50 00 35 A8 B6 75 FB 
   850)      3555.8  Rx     18EF1C8F  8  0D 51 04 00 1C 00 82 03 
   851)      3556.8  Rx     18EF1C8F  8  0D 52 18 00 0F 00 10 00 
   852)      3573.0  Rx     18EF1CCD  8  A2 00 00 00 00 00 00 00 
   853)      3574.9  Rx     18EF1C8F  8  0D 60 00 57 F6 B6 75 FB 
   854)      3575.8  Rx     18EF1C8F  8  0D 61 F7 FF 24 00 88 03 
   855)      3576.8  Rx     18EF1C8F  8  0D 62 17 00 06 00 0D 00 
   856)      3593.1  Rx     18EF1CCD  8  A3 00 00 00 00 00 00 00 
   857)      3594.9  Rx     18EF1C8F  8  0D 70 00 75 44 B7 75 FB 
   858)      3595.8  Rx     18EF1C8F  8  0D 71 0A 00 1C 00 83 03 
   859)      3596.9  Rx     18EF1C8F  8  0D 72 18 00 14 00 12 00 
   860)      3599.5  Rx     18EF8F1C  4  01 3B 3B 00 
   861)      3600.0  Rx     18EF1C8F  4  01 3C 3B 00 
   862)      3600.6  Rx     18EFCD1C  8  A0 00 14 00 00 00 00 00 
   863)      3601.2  Rx     18EF1CCD  8  A0 00 14 00 B4 07 00 00 
   864)      3613.1  Rx     18EF1CCD  8  A1 40 00 00 00 00 00 00 
   865)      3614.9  Rx     18EF1C8F  8  0D 80 00 95 92 B7 75 FB 
   866)      3615.9  Rx     18EF1C8F  8  0D 81 F3 FF 25 00 87 03 
   867)      3616.8  Rx     18EF1C8F  8  0D 82 15 00 08 00 0B 00 
   868)      3619.3  Rx     18EFCD1C  8  A0 00 2A 00 00 00 00 00 
   869)      3619.9  Rx     18EF1CCD  8  A0 00 2A 00 46 06 00 00 
   870)      3633.4  Rx     18EFCD1C  8  A0 00 1B 00 00 00 00 00 
   871)      3634.1  Rx     18EF1CCD  8  A0 00 1B 00 00 00 00 00 
   872)      3634.9  Rx     18EF1C8F  8  0D 90 00 B5 E0 B7 75 FB 
   873)      3635.8  Rx     18EF1C8F  8  0D 91 0C 00 1E 00 82 03 
   874)      3636.9  Rx     18EF1C8F  8  0D 92 17 00 19 00 0C 00 
   875)      3653.4  Rx     18EFCD1C  8  A0 00 00 00 00 00 00 00 
   876)      3654.2  Rx     18EF1CCD  8  A0 00 00 00 01 00 00 00 
   877)      3654.9  Rx     18EF1C8F  8  0D A0 00 D5 2E B8 75 FB 
   878)      3655.8  Rx     18EF1C8F  8  0D A1 F2 FF 24 00 84 03 
   879)      3656.8  Rx     18EF1C8F  8  0D A2 14 00 03 00 0E 00 
   880)      3673.3  Rx     18EF1CCD  8  A2 00 00 00 00 00 00 00 
   881)      3674.9  Rx     18EF1C8F  8  0D B0 00 F5 7C B8 75 FB 
   882)      3675.9  Rx     18EF1C8F  8  0D B1 0A 00 21 00 84 03 
   883)      3676.8  Rx     18EF1C8F  8  0D B2 17 00 16 00 0C 00 
   884)      3693.3  Rx     18EF1CCD  8  A3 00 00 00 00 00 00 00 
   885)      3693.9  Rx     18EFCD1C  8  A1 01 00 00 00 00 00 00 
   886)      3694.9  Rx     18EF1C8F  8  0D C0 00 15 CB B8 75 FB 
   887)      3695.8  Rx     18EF1C8F  8  0D C1 F0 FF 21 00 7E 03 
   888)      3696.9  Rx     18EF1C8F  8  0D C2 15 00 00 00 0D 00 
   889)      3713.3  Rx     18EF1CCD  8  A1 40 00 00 00 00 00 00 
   890)      3714.9  Rx     18EF1C8F  8  0D D0 00 35 19 B9 75 FB 
   891)      3715.9  Rx     18EF1C8F  8  0D D1 05 00 22 00 87 03 
   892)      3716.8  Rx     18EF1C8F  8  0D D2 16 00 0F 00 0D 00 
   893)      3735.0  Rx     18EF1C8F  8  0D E0 00 55 67 B9 75 FB 
   894)      3735.8  Rx     18EF1C8F  8  0D E1 F8 FF 21 00 82 03 
   895)      3736.9  Rx     18EF1C8F  8  0D E2 16 00 03 00 11 00 
   896)      3754.9  Rx     18EF1C8F  8  0D F0 00 75 B5 B9 75 FB 
   897)      3755.9  Rx     18EF1C8F  8  0D F1 00 00 22 00 86 03 
   898)      3756.9  Rx     18EF1C8F  8  0D F2 18 00 0D 00 0E 00 
   899)      3773.5  Rx     18EF1CCD  8  A2 00 00 00 00 00 00 00 
   900)      3775.0  Rx     18EF1C8F  8  0D 00 00 95 03 BA 75 FB 
   901)      3775.9  Rx     18EF1C8F  8  0D 01 FC FF 1D 00 83 03 
   902)      3776.9  Rx     18EF1C8F  8  0D 02 1A 00 08 00 10 00 
   903)      3793.5  Rx     18EF1CCD  8  A3 00 00 00 00 00 00 00 
   904)      3794.9  Rx     18EF1C8F  8  0D 10 00 B5 51 BA 75 FB 
   905)      3795.8  Rx     18EF1C8F  8  0D 11 F7 FF 21 00 86 03 
   906)      3796.9  Rx     18EF1C8F  8  0D 12 1A 00 0E 00 0B 00 
   907)      3798.3  Rx     18EFCD1C  8  A0 00 14 00 00 00 00 00 
   908)      3798.9  Rx     18EF1CCD  8  A0 00 14 00 B4 07 00 00 
   909)      3813.6  Rx     18EF1CCD  8  A1 40 00 00 00 00 00 00 
   910)      3814.9  Rx     18EFCD1C  8  A0 00 2A 00 00 00 00 00 
   911)      3815.5  Rx     18EF1C8F  8  0D 20 00 D5 9F BA 75 FB 
   912)      3816.0  Rx     18EF1C8F  8  0D 21 02 00 1D 00 82 03 
   913)      3816.6  Rx     18EF1CCD  8  A0 00 2A 00 47 06 00 00 
   914)      3817.1  Rx     18EF1C8F  8  0D 22 18 00 0F 00 0F 00 
   915)      3833.5  Rx     18EFCD1C  8  A0 00 1B 00 00 00 00 00 
   916)      3834.1  Rx     18EF1CCD  8  A0 00 1B 00 00 00 00 00 
   917)      3835.0  Rx     18EF1C8F  8  0D 30 00 F5 ED BA 75 FB 
   918)      3835.9  Rx     18EF1C8F  8  0D 31 F3 FF 21 00 88 03 
   919)      3836.9  Rx     18EF1C8F  8  0D 32 18 00 0A 00 0D 00 
   920)      3853.5  Rx     18EFCD1C  8  A0 00 00 00 00 00 00 00 
   921)      3854.2  Rx     18EF1CCD  8  A0 00 00 00 01 00 00 00 
   922)      3855.0  Rx     18EF1C8F  8  0D 40 00 17 3C BB 75 FB 
   923)      3855.9  Rx     18EF1C8F  8  0D 41 04 00 1E 00 84 03 
   924)      3856.8  Rx     18EF1C8F  8  0D 42 18 00 14 00 11 00 
   925)      3873.7  Rx     18EF1CCD  8  A2 00 00 00 00 00 00 00 
   926)      3875.0  Rx     18EF1C8F  8  0D 50 00 35 8A BB 75 FB 
   927)      3875.9  Rx     18EF1C8F  8  0D 51 F2 FF 23 00 86 03 
   928)      3876.9  Rx     18EF1C8F  8  0D 52 16 00 06 00 0F 00 
   929)      3893.4  Rx     18EFCD1C  8  A1 01 00 00 00 00 00 00 
   930)      3894.0  Rx     18EF1CCD  8  A3 00 00 00 00 00 00 00 
   931)      3894.9  Rx     18EF1C8F  8  0D 60 00 55 D8 BB 75 FB 
   932)      3895.9  Rx     18EF1C8F  8  0D 61 08 00 1C 00 85 03 
   933)      3896.9  Rx     18EF1C8F  8  0D 62 18 00 15 00 0F 00 
   934)      3913.8  Rx     18EF1CCD  8  A1 40 00 00 00 00 00 00 
   935)      3915.0  Rx     18EF1C8F  8  0D 70 00 75 26 BC 74 FB 
   936)      3915.9  Rx     18EF1C8F  8  0D 71 EE FF 24 00 84 03 
   937)      3916.9  Rx     18EF1C8F  8  0D 72 17 00 FF FF 10 00 
   938)      3935.0  Rx     18EF1C8F  8  0D 80 00 95 74 BC 75 FB 
   939)      3935.8  Rx     18EF1C8F  8  0D 81 07 00 19 00 82 03 
   940)      3936.9  Rx     18EF1C8F  8  0D 82 1A 00 12 00 12 00 
   941)      3954.9  Rx     18EF1C8F  8  0D 90 00 B5 C2 BC 75 FB 
   942)      3955.9  Rx     18EF1C8F  8  0D 91 F3 FF 26 00 82 03 
   943)      3956.9  Rx     18EF1C8F  8  0D 92 18 00 00 00 10 00 
   944)      3973.9  Rx     18EF1CCD  8  A2 00 00 00 00 00 00 00 
   945)      3975.0  Rx     18EF1C8F  8  0D A0 00 D5 10 BD 75 FB 
   946)      3975.9  Rx     18EF1C8F  8  0D A1 06 00 1D 00 87 03 
   947)      3976.9  Rx     18EF1C8F  8  0D A2 17 00 11 00 11 00 
   948)      3994.0  Rx     18EF1CCD  8  A3 00 00 00 00 00 00 00 
   949)      3994.9  Rx     18EF1C8F  8  0D B0 00 F5 5E BD 75 FB 
   950)      3995.9  Rx     18EF1C8F  8  0D B1 F5 FF 22 00 7F 03 
   951)      3996.9  Rx     18EF1C8F  8  0D B2 18 00 00 00 10 00 
   952)      3999.1  Rx     18EFCD1C  8  A0 00 14 00 00 00 00 00 
   953)      3999.7  Rx     18EF1CCD  8  A0 00 14 00 B4 07 00 00 
   954)      4014.0  Rx     18EF1CCD  8  A1 40 00 00 00 00 00 00 
   955)      4014.6  Rx     18EFCD1C  8  A0 00 2A 00 00 00 00 00 
   956)      4015.1  Rx     18EF1C8F  8  0D C0 00 17 AD BD 75 FB 
   957)      4015.7  Rx     18EF1CCD  8  A0 00 2A 00 3E 06 00 00 
   958)      4016.3  Rx     18EF1C8F  8  0D C1 02 00 21 00 88 03 
   959)      4016.9  Rx     18EF1C8F  8  0D C2 18 00 0E 00 0F 00 
   960)      4034.6  Rx     18EFCD1C  8  A0 00 1B 00 00 00 00 00 
   961)      4035.1  Rx     18EF1C8F  8  0D D0 00 35 FB BD 75 FB 
   962)      4035.7  Rx     18EF1CCD  8  A0 00 1B 00 00 00 00 00 
   963)      4036.2  Rx     18EF1C8F  8  0D D1 F9 FF 1E 00 7D 03 
   964)      4036.9  Rx     18EF1C8F  8  0D D2 19 00 06 00 10 00 
   965)      4053.5  Rx     18EFCD1C  8  A0 00 00 00 00 00 00 00 
   966)      4054.2  Rx     18EF1CCD  8  A0 00 00 00 01 00 00 00 
   967)      4055.0  Rx     18EF1C8F  8  0D E0 00 57 49 BE 75 FB 
   968)      4055.9  Rx     18EF1C8F  8  0D E1 FE FF 22 00 88 03 
   969)      4056.9  Rx     18EF1C8F  8  0D E2 18 00 0D 00 10 00 
   970)      4074.2  Rx     18EF1CCD  8  A2 00 00 00 00 00 00 00 
   971)      4075.0  Rx     18EF1C8F  8  0D F0 00 75 97 BE 75 FB 
   972)      4075.9  Rx     18EF1C8F  8  0D F1 FF FF 1E 00 7F 03 
   973)      4076.9  Rx     18EF1C8F  8  0D F2 18 00 07 00 11 00 
   974)      4093.4  Rx     18EFCD1C  8  A1 01 00 00 00 00 00 00 
   975)      4094.2  Rx     18EF1CCD  8  A3 00 00 00 00 00 00 00 
   976)      4095.0  Rx     18EF1C8F  8  0D 00 00 95 E5 BE 75 FB 
   977)      4095.9  Rx     18EF1C8F  8  0D 01 F5 FF 24 00 89 03 
   978)      4096.9  Rx     18EF1C8F  8  0D 02 13 00 08 00 10 00 
   979)      4113.3  Rx     18EFCD1C  4  01 40 40 00 
   980)      4113.7  Rx     18EF1CCD  4  01 41 40 00 
   981)      4114.3  Rx     18EF1CCD  8  A1 40 00 00 00 00 00 00 
   982)      4115.0  Rx     18EF1C8F  8  0D 10 00 B7 33 BF 75 FB 
   983)      4115.9  Rx     18EF1C8F  8  0D 11 05 00 1D 00 80 03 
   984)      4116.9  Rx     18EF1C8F  8  0D 12 16 00 0E 00 10 00 
   985)      4135.0  Rx     18EF1C8F  8  0D 20 00 D5 81 BF 75 FB 
   986)      4135.9  Rx     18EF1C8F  8  0D 21 F5 FF 22 00 87 03 
   987)      4136.9  Rx     18EF1C8F  8  0D 22 13 00 06 00 0F 00 
   988)      4155.0  Rx     18EF1C8F  8  0D 30 00 F5 CF BF 75 FB 
   989)      4155.9  Rx     18EF1C8F  8  0D 31 0C 00 1C 00 82 03 
   990)      4156.9  Rx     18EF1C8F  8  0D 32 15 00 10 00 0E 00 
   991)      4174.4  Rx     18EF1CCD  8  A2 00 00 00 00 00 00 00 
   992)      4175.0  Rx     18EF1C8F  8  0D 40 00 15 1E C0 75 FB 
   993)      4175.9  Rx     18EF1C8F  8  0D 41 F1 FF 22 00 86 03 
   994)      4176.9  Rx     18EF1C8F  8  0D 42 13 00 05 00 0F 00 
   995)      4194.5  Rx     18EF1CCD  8  A3 00 00 00 00 00 00 00 
   996)      4195.0  Rx     18EF1C8F  8  0D 50 00 35 6C C0 75 FB 
   997)      4195.9  Rx     18EF1C8F  8  0D 51 0D 00 20 00 84 03 
   998)      4196.9  Rx     18EF1C8F  8  0D 52 14 00 1B 00 11 00 
   999)      4198.9  Rx     18EFCD1C  8  A0 00 14 00 00 00 00 00 
  1000)      4199.6  Rx     18EF1CCD  8  A0 00 14 00 B2 07 00 00 
  1001)      4213.8  Rx     18EFCD1C  8  A0 00 2A 00 00 00 00 00 
  1002)      4214.5  Rx     18EF1CCD  8  A1 40 00 00 00 00 00 00 
  1003)      4215.1  Rx     18EF1C8F  8  0D 60 00 55 BA C0 75 FB 
  1004)      4215.7  Rx     18EF1CCD  8  A0 00 2A 00 45 06 00 00 
  1005)      4216.2  Rx     18EF1C8F  8  0D 61 F3 FF 22 00 86 03 
  1006)      4216.9  Rx     18EF1C8F  8  0D 62 14 00 04 00 0E 00 
  1007)      4234.2  Rx     18EFCD1C  8  A0 00 1B 00 00 00 00 00 
  1008)      4234.8  Rx     18EF1CCD  8  A0 00 1B 00 00 00 00 00 
  1009)      4235.4  Rx     18EF1C8F  8  0D 70 00 75 08 C1 76 FB 
  1010)      4235.9  Rx     18EF1C8F  8  0D 71 0B 00 1E 00 83 03 
  1011)      4236.9  Rx     18EF1C8F  8  0D 72 18 00 18 00 0D 00 
  1012)      4254.6  Rx     18EFCD1C  8  A0 00 00 00 00 00 00 00 
  1013)      4255.1  Rx     18EF1C8F  8  0D 80 00 97 56 C1 75 FB 
  1014)      4255.7  Rx     18EF1CCD  8  A0 00 00 00 01 00 00 00 
  1015)      4256.3  Rx     18EF1C8F  8  0D 81 F3 FF 23 00 82 03 
  1016)      4256.9  Rx     18EF1C8F  8  0D 82 17 00 03 00 0E 00 
  1017)      4274.7  Rx     18EF1CCD  8  A2 00 00 00 00 00 00 00 
  1018)      4275.2  Rx     18EF1C8F  8  0D 90 00 B5 A4 C1 75 FB 
  1019)      4275.9  Rx     18EF1C8F  8  0D 91 07 00 1F 00 84 03 
  1020)      4276.9  Rx     18EF1C8F  8  0D 92 19 00 11 00 0D 00 
  1021)      4293.4  Rx     18EFCD1C  8  A1 01 00 00 00 00 00 00 
  1022)      4294.7  Rx     18EF1CCD  8  A3 00 00 00 00 00 00 00 
  1023)      4295.3  Rx     18EF1C8F  8  0D A0 00 D5 F2 C1 75 FB 
  1024)      4295.9  Rx     18EF1C8F  8  0D A1 F7 FF 21 00 80 03 
  1025)      4296.9  Rx     18EF1C8F  8  0D A2 1B 00 01 00 0E 00 
  1026)      4314.8  Rx     18EF1CCD  8  A1 40 00 00 00 00 00 00 
  1027)      4315.3  Rx     18EF1C8F  8  0D B0 00 F5 40 C2 75 FB 
  1028)      4315.9  Rx     18EF1C8F  8  0D B1 FE FF 21 00 86 03 
  1029)      4316.9  Rx     18EF1C8F  8  0D B2 1B 00 11 00 0C 00 
  1030)      4335.0  Rx     18EF1C8F  8  0D C0 00 15 8F C2 75 FB 
  1031)      4335.9  Rx     18EF1C8F  8  0D C1 FA FF 1F 00 82 03 
  1032)      4336.9  Rx     18EF1C8F  8  0D C2 1D 00 09 00 0D 00 
  1033)      4355.0  Rx     18EF1C8F  8  0D D0 00 35 DD C2 75 FB 
  1034)      4355.9  Rx     18EF1C8F  8  0D D1 FA FF 22 00 85 03 
  1035)      4356.9  Rx     18EF1C8F  8  0D D2 1D 00 0C 00 0A 00 
  1036)      4374.9  Rx     18EF1CCD  8  A2 00 00 00 00 00 00 00 
  1037)      4375.5  Rx     18EF1C8F  8  0D E0 00 55 2B C3 75 FB 
  1038)      4376.0  Rx     18EF1C8F  8  0D E1 FB FF 1E 00 81 03 
  1039)      4376.9  Rx     18EF1C8F  8  0D E2 1D 00 08 00 0E 00 
  1040)      4395.0  Rx     18EF1CCD  8  A3 00 00 00 00 00 00 00 
  1041)      4395.5  Rx     18EF1C8F  8  0D F0 00 75 79 C3 75 FB 
  1042)      4396.1  Rx     18EF1C8F  8  0D F1 F5 FF 22 00 87 03 
  1043)      4396.9  Rx     18EF1C8F  8  0D F2 14 00 08 00 10 00 
  1044)      4398.5  Rx     18EFCD1C  8  A0 00 14 00 00 00 00 00 
  1045)      4399.1  Rx     18EF1CCD  8  A0 00 14 00 B4 07 00 00 
  1046)      4413.9  Rx     18EFCD1C  8  A0 00 2A 00 00 00 00 00 
  1047)      4414.6  Rx     18EF1CCD  8  A0 00 2A 00 4B 06 00 00 
  1048)      4415.1  Rx     18EF1C8F  8  0D 00 00 97 C7 C3 75 FB 
  1049)      4415.7  Rx     18EF1CCD  8  A1 40 00 00 00 00 00 00 
  1050)      4416.3  Rx     18EF1C8F  8  0D 01 04 00 1A 00 81 03 
  1051)      4416.9  Rx     18EF1C8F  8  0D 02 17 00 10 00 14 00 
  1052)      4433.6  Rx     18EFCD1C  8  A0 00 1B 00 00 00 00 00 
  1053)      4434.2  Rx     18EF1CCD  8  A0 00 1B 00 00 00 00 00 
  1054)      4435.0  Rx     18EF1C8F  8  0D 10 00 B5 15 C4 75 FB 
  1055)      4435.9  Rx     18EF1C8F  8  0D 11 F1 FF 22 00 85 03 
  1056)      4436.9  Rx     18EF1C8F  8  0D 12 11 00 03 00 0E 00 
  1057)      4454.5  Rx     18EFCD1C  8  A0 00 00 00 00 00 00 00 
  1058)      4455.0  Rx     18EF1C8F  8  0D 20 00 D2 63 C4 75 FB 
  1059)      4455.6  Rx     18EF1CCD  8  A0 00 00 00 01 00 00 00 
  1060)      4456.2  Rx     18EF1C8F  8  0D 21 07 00 19 00 83 03 
  1061)      4456.9  Rx     18EF1C8F  8  0D 22 16 00 0E 00 11 00 
  1062)      4475.0  Rx     18EF1C8F  8  0D 30 00 F5 B1 C4 75 FB 
  1063)      4475.6  Rx     18EF1CCD  8  A2 00 00 00 00 00 00 00 
  1064)      4476.1  Rx     18EF1C8F  8  0D 31 F1 FF 23 00 88 03 
  1065)      4476.9  Rx     18EF1C8F  8  0D 32 15 00 01 00 10 00 
  1066)      4493.5  Rx     18EFCD1C  8  A1 01 00 00 00 00 00 00 
  1067)      4495.0  Rx     18EF1C8F  8  0D 40 00 15 00 C5 75 FB 
  1068)      4495.6  Rx     18EF1CCD  8  A3 00 00 00 00 00 00 00 
  1069)      4496.2  Rx     18EF1C8F  8  0D 41 0A 00 1C 00 87 03 
  1070)      4496.9  Rx     18EF1C8F  8  0D 42 19 00 14 00 12 00 
  1071)      4514.5  Rx     18FEF31C  8  B4 2B 80 99 14 C7 2C 89 
  1072)      4515.0  Rx     18EF1C8F  8  0D 50 00 35 4E C5 75 FB 
  1073)      4515.6  Rx     18EF1CCD  8  A1 40 00 00 00 00 00 00 
  1074)      4516.2  Rx     18EF1C8F  8  0D 51 F1 FF 22 00 83 03 
  1075)      4516.7  Rx     18FEE81C  8  33 8A 04 00 00 00 2C 51 
  1076)      4517.3  Rx     18EF1C8F  8  0D 52 18 00 02 00 10 00 
  1077)      4517.9  Rx     18FEE61C  8  07 2F 0C 09 57 29 00 00 
  1078)      4518.4  Rx     19F8021C  8  35 FC 70 BC 00 00 FF FF 
  1079)      4521.2  Rx     19F8051C  8  20 2F 35 EE 50 A9 5F 6E 
  1080)      4521.7  Rx     19F8051C  8  21 1B C0 38 BF 6C 6C A7 
  1081)      4522.3  Rx     19F8051C  8  22 98 06 00 CC 30 10 2F 
  1082)      4522.8  Rx     19F8051C  8  23 90 CB 02 05 78 41 08 
  1083)      4523.4  Rx     19F8051C  8  24 00 00 00 00 40 00 0C 
  1084)      4524.0  Rx     19F8051C  8  25 5E 00 BF 00 FC 0F 00 
  1085)      4524.6  Rx     19F8051C  8  26 00 01 AF 02 BC 02 FF 
  1086)      4535.0  Rx     18EF1C8F  8  0D 60 00 57 9C C5 75 FB 
  1087)      4535.9  Rx     18EF1C8F  8  0D 61 0A 00 1F 00 85 03 
  1088)      4536.9  Rx     18EF1C8F  8  0D 62 1A 00 14 00 0F 00 
  1089)      4555.0  Rx     18EF1C8F  8  0D 70 00 75 EA C5 75 FB 
  1090)      4555.9  Rx     18EF1C8F  8  0D 71 F0 FF 20 00 7F 03 
  1091)      4556.9  Rx     18EF1C8F  8  0D 72 19 00 01 00 11 00 
  1092)      4575.0  Rx     18EF1C8F  8  0D 80 00 95 38 C6 75 FB 
  1093)      4575.6  Rx     18EF1CCD  8  A2 00 00 00 00 00 00 00 
  1094)      4576.1  Rx     18EF1C8F  8  0D 81 06 00 20 00 88 03 
  1095)      4577.0  Rx     18EF1C8F  8  0D 82 1A 00 10 00 11 00 
  1096)      4595.0  Rx     18EF1C8F  8  0D 90 00 B5 86 C6 76 FB 
  1097)      4595.6  Rx     18EF1CCD  8  A3 00 00 00 00 00 00 00 
  1098)      4596.1  Rx     18EF1C8F  8  0D 91 F9 FF 21 00 81 03 
  1099)      4596.9  Rx     18EF1C8F  8  0D 92 14 00 01 00 12 00 
  1100)      4601.1  Rx     18EFCD1C  8  A0 00 14 00 00 00 00 00 
  1101)      4601.7  Rx     18EF1CCD  8  A0 00 14 00 B3 07 00 00 
  1102)      4615.0  Rx     18EF1C8F  8  0D A0 00 D5 D4 C6 75 FB 
  1103)      4615.6  Rx     18EF1CCD  8  A1 40 00 00 00 00 00 00 
  1104)      4616.1  Rx     18EF1C8F  8  0D A1 FE FF 21 00 86 03 
  1105)      4616.9  Rx     18EF1C8F  8  0D A2 17 00 0A 00 10 00 
  1106)      4617.8  Rx     18EFCD1C  8  A0 00 2A 00 00 00 00 00 
  1107)      4618.5  Rx     18EF1CCD  8  A0 00 2A 00 46 06 00 00 
  1108)      4633.5  Rx     18EFCD1C  8  A0 00 1B 00 00 00 00 00 
  1109)      4634.1  Rx     18EF1CCD  8  A0 00 1B 00 00 00 00 00 
  1110)      4635.0  Rx     18EF1C8F  8  0D B0 00 F7 22 C7 75 FB 
  1111)      4635.9  Rx     18EF1C8F  8  0D B1 00 00 1E 00 7F 03 
  1112)      4637.0  Rx     18EF1C8F  8  0D B2 18 00 07 00 10 00 
  1113)      4653.9  Rx     18EFCD1C  8  A0 00 00 00 00 00 00 00 
  1114)      4654.6  Rx     18EF1CCD  8  A0 00 00 00 01 00 00 00 
  1115)      4655.1  Rx     18EF1C8F  8  0D C0 00 15 71 C7 75 FB 
  1116)      4655.9  Rx     18EF1C8F  8  0D C1 FA FF 23 00 84 03 
  1117)      4656.9  Rx     18EF1C8F  8  0D C2 14 00 08 00 10 00 
  1118)      4675.0  Rx     18EF1C8F  8  0D D0 00 35 BF C7 75 FB 
  1119)      4675.6  Rx     18EF1CCD  8  A2 00 00 00 00 00 00 00 
  1120)      4676.2  Rx     18EF1C8F  8  0D D1 07 00 1F 00 82 03 
  1121)      4676.9  Rx     18EF1C8F  8  0D D2 17 00 0C 00 11 00 
  1122)      4693.5  Rx     18EFCD1C  8  A1 01 00 00 00 00 00 00 
  1123)      4695.0  Rx     18EF1C8F  8  0D E0 00 55 0D C8 75 FB 
  1124)      4695.7  Rx     18EF1CCD  8  A3 00 00 00 00 00 00 00 
  1125)      4696.2  Rx     18EF1C8F  8  0D E1 F8 FF 21 00 89 03 
  1126)      4696.9  Rx     18EF1C8F  8  0D E2 15 00 08 00 0D 00 
  1127)      4715.0  Rx     18EF1C8F  8  0D F0 00 75 5B C8 75 FB 
  1128)      4715.7  Rx     18EF1CCD  8  A1 40 00 00 00 00 00 00 
  1129)      4716.2  Rx     18EF1C8F  8  0D F1 0A 00 1F 00 81 03 
  1130)      4716.9  Rx     18EF1C8F  8  0D F2 18 00 15 00 0E 00 
  1131)      4735.0  Rx     18EF1C8F  8  0D 00 00 95 A9 C8 75 FB 
  1132)      4735.9  Rx     18EF1C8F  8  0D 01 F6 FF 24 00 85 03 
  1133)      4737.0  Rx     18EF1C8F  8  0D 02 15 00 06 00 0B 00 
  1134)      4755.0  Rx     18EF1C8F  8  0D 10 00 B2 F7 C8 75 FB 
  1135)      4756.0  Rx     18EF1C8F  8  0D 11 0B 00 1D 00 81 03 
  1136)      4756.9  Rx     18EF1C8F  8  0D 12 12 00 18 00 0C 00 
  1137)      4775.0  Rx     18EF1C8F  8  0D 20 00 D5 45 C9 75 FB 
  1138)      4775.8  Rx     18EF1CCD  8  A2 00 00 00 00 00 00 00 
  1139)      4776.4  Rx     18EF1C8F  8  0D 21 F2 FF 26 00 84 03 
  1140)      4777.0  Rx     18EF1C8F  8  0D 22 0E 00 04 00 0E 00 
  1141)      4795.0  Rx     18EF1C8F  8  0D 30 00 F5 93 C9 75 FB 
  1142)      4795.9  Rx     18EF1CCD  8  A3 00 00 00 00 00 00 00 
  1143)      4796.4  Rx     18EF1C8F  8  0D 31 0B 00 1B 00 84 03 
  1144)      4797.0  Rx     18EF1C8F  8  0D 32 0C 00 1A 00 0E 00 
  1145)      4798.4  Rx     18EFCD1C  8  A0 00 14 00 00 00 00 00 
  1146)      4799.0  Rx     18EF1CCD  8  A0 00 14 00 B4 07 00 00 
  1147)      4813.9  Rx     18EFCD1C  8  A0 00 2A 00 00 00 00 00 
  1148)      4814.5  Rx     18EF1CCD  8  A0 00 2A 00 49 06 00 00 
  1149)      4815.1  Rx     18EF1C8F  8  0D 40 00 17 E2 C9 75 FB 
  1150)      4815.9  Rx     18EF1CCD  8  A1 40 00 00 00 00 00 00 
  1151)      4816.5  Rx     18EF1C8F  8  0D 41 F2 FF 27 00 85 03 
  1152)      4817.0  Rx     18EF1C8F  8  0D 42 17 00 04 00 0C 00 
  1153)      4833.6  Rx     18EFCD1C  8  A0 00 1B 00 00 00 00 00 
  1154)      4834.2  Rx     18EF1CCD  8  A0 00 1B 00 00 00 00 00 
  1155)      4835.1  Rx     18EF1C8F  8  0D 50 00 35 30 CA 75 FB 
  1156)      4836.0  Rx     18EF1C8F  8  0D 51 06 00 1E 00 87 03 
  1157)      4837.0  Rx     18EF1C8F  8  0D 52 1A 00 17 00 0B 00 
  1158)      4853.6  Rx     18EFCD1C  8  A0 00 00 00 00 00 00 00 
  1159)      4854.2  Rx     18EF1CCD  8  A0 00 00 00 01 00 00 00 
  1160)      4855.1  Rx     18EF1C8F  8  0D 60 00 57 7E CA 76 FB 
  1161)      4856.0  Rx     18EF1C8F  8  0D 61 F3 FF 22 00 81 03 
  1162)      4857.0  Rx     18EF1C8F  8  0D 62 1C 00 04 00 0F 00 
  1163)      4875.0  Rx     18EF1C8F  8  0D 70 00 72 CC CA 76 FB 
  1164)      4876.0  Rx     18EF1C8F  8  0D 71 01 00 1F 00 86 03 
  1165)      4876.6  Rx     18EF1CCD  8  A2 00 00 00 00 00 00 00 
  1166)      4877.1  Rx     18EF1C8F  8  0D 72 16 00 10 00 0C 00 
  1167)      4894.4  Rx     18EFCD1C  8  A1 01 00 00 00 00 00 00 
  1168)      4895.1  Rx     18EF1C8F  8  0D 80 00 95 1A CB 75 FB 
  1169)      4896.0  Rx     18EF1C8F  8  0D 81 F6 FF 1E 00 7C 03 
  1170)      4896.6  Rx     18EF1CCD  8  A3 00 00 00 00 00 00 00 
  1171)      4897.1  Rx     18EF1C8F  8  0D 82 19 00 06 00 12 00 
  1172)      4915.1  Rx     18EF1C8F  8  0D 90 00 B5 68 CB 75 FB 
  1173)      4916.0  Rx     18EF1C8F  8  0D 91 FC FF 23 00 8A 03 
  1174)      4916.5  Rx     18EF1CCD  8  A1 40 00 00 00 00 00 00 
  1175)      4917.1  Rx     18EF1C8F  8  0D 92 15 00 0C 00 12 00 
  1176)      4935.1  Rx     18EF1C8F  8  0D A0 00 D5 B6 CB 76 FB 
  1177)      4936.0  Rx     18EF1C8F  8  0D A1 FE FF 1C 00 7D 03 
  1178)      4937.0  Rx     18EF1C8F  8  0D A2 15 00 0A 00 12 00 
  1179)      4955.1  Rx     18EF1C8F  8  0D B0 00 F5 04 CC 76 FB 
  1180)      4956.0  Rx     18EF1C8F  8  0D B1 F5 FF 23 00 87 03 
  1181)      4957.0  Rx     18EF1C8F  8  0D B2 11 00 07 00 12 00 
  1182)      4975.1  Rx     18EF1C8F  8  0D C0 00 15 53 CC 76 FB 
  1183)      4976.0  Rx     18EF1C8F  8  0D C1 01 00 1B 00 80 03 
  1184)      4976.6  Rx     18EF1CCD  8  A2 00 00 00 00 00 00 00 
  1185)      4977.1  Rx     18EF1C8F  8  0D C2 17 00 11 00 12 00 
  1186)      4995.1  Rx     18EF1C8F  8  0D D0 00 35 A1 CC 76 FB 
  1187)      4996.0  Rx     18EF1C8F  8  0D D1 F0 FF 22 00 85 03 
  1188)      4996.6  Rx     18EF1CCD  8  A3 00 00 00 00 00 00 00 
  1189)      4997.1  Rx     18EF1C8F  8  0D D2 16 00 08 00 10 00 
  1190)      4997.7  Rx     18EFCD1C  8  A0 00 14 00 00 00 00 00 
  1191)      4998.4  Rx     18EF1CCD  8  A0 00 14 00 B3 07 00 00 
  1192)      5014.2  Rx     18EFCD1C  8  A0 00 2A 00 00 00 00 00 
  1193)      5014.8  Rx     18EF1CCD  8  A0 00 2A 00 44 06 00 00 
  1194)      5015.3  Rx     18EF1C8F  8  0D E0 00 55 EF CC 75 FB 
  1195)      5016.0  Rx     18EF1C8F  8  0D E1 09 00 1C 00 82 03 
  1196)      5016.6  Rx     18EF1CCD  8  A1 40 00 00 00 00 00 00 
  1197)      5017.1  Rx     18EF1C8F  8  0D E2 18 00 13 00 12 00 
  1198)      5033.5  Rx     18EFCD1C  8  A0 00 1B 00 00 00 00 00 
  1199)      5034.2  Rx     18EF1CCD  8  A0 00 1B 00 00 00 00 00 
  1200)      5035.1  Rx     18EF1C8F  8  0D F0 00 75 3D CD 76 FB 
  1201)      5036.0  Rx     18EF1C8F  8  0D F1 F1 FF 21 00 86 03 
  1202)      5037.0  Rx     18EF1C8F  8  0D F2 13 00 04 00 0E 00 
  1203)      5053.5  Rx     18EFCD1C  8  A0 00 00 00 00 00 00 00 
  1204)      5054.1  Rx     18EF1CCD  8  A0 00 00 00 01 00 00 00 
  1205)      5055.1  Rx     18EF1C8F  8  0D 00 00 95 8B CD 75 FB 
  1206)      5056.0  Rx     18EF1C8F  8  0D 01 08 00 1E 00 84 03 
  1207)      5057.0  Rx     18EF1C8F  8  0D 02 18 00 13 00 11 00 
  1208)      5075.1  Rx     18EF1C8F  8  0D 10 00 B5 D9 CD 76 FB 
  1209)      5076.0  Rx     18EF1C8F  8  0D 11 F0 FF 23 00 86 03 
  1210)      5076.6  Rx     18EF1CCD  8  A2 00 00 00 00 00 00 00 
  1211)      5077.1  Rx     18EF1C8F  8  0D 12 14 00 FE FF 0E 00 
  1212)      5094.4  Rx     18EFCD1C  8  A1 01 00 00 00 00 00 00 
  1213)      5095.1  Rx     18EF1C8F  8  0D 20 00 D7 27 CE 76 FB 
  1214)      5096.0  Rx     18EF1C8F  8  0D 21 09 00 1F 00 82 03 
  1215)      5096.6  Rx     18EF1CCD  8  A3 00 00 00 00 00 00 00 
  1216)      5097.2  Rx     18EF1C8F  8  0D 22 18 00 11 00 09 00 
  1217)      5115.1  Rx     18EF1C8F  8  0D 30 00 F2 75 CE 76 FB 
  1218)      5116.0  Rx     18EF1C8F  8  0D 31 F3 FF 23 00 85 03 
  1219)      5116.7  Rx     18EF1CCD  8  A1 40 00 00 00 00 00 00 
  1220)      5117.2  Rx     18EF1C8F  8  0D 32 16 00 FC FF 0B 00 
  1221)      5135.1  Rx     18EF1C8F  8  0D 40 00 15 C4 CE 76 FB 
  1222)      5136.0  Rx     18EF1C8F  8  0D 41 04 00 1E 00 87 03 
  1223)      5137.0  Rx     18EF1C8F  8  0D 42 19 00 0E 00 0D 00 
  1224)      5155.1  Rx     18EF1C8F  8  0D 50 00 35 12 CF 76 FB 
  1225)      5156.0  Rx     18EF1C8F  8  0D 51 F7 FF 22 00 81 03 
  1226)      5157.0  Rx     18EF1C8F  8  0D 52 19 00 00 00 10 00 
  1227)      5175.1  Rx     18EF1C8F  8  0D 60 00 55 60 CF 76 FB 
  1228)      5176.0  Rx     18EF1C8F  8  0D 61 02 00 20 00 87 03 
  1229)      5176.8  Rx     18EF1CCD  8  A2 00 00 00 00 00 00 00 
  1230)      5177.3  Rx     18EF1C8F  8  0D 62 19 00 0E 00 0C 00 
  1231)      5195.0  Rx     18EF1C8F  8  0D 70 00 75 AE CF 76 FB 
  1232)      5196.0  Rx     18EF1C8F  8  0D 71 FD FF 1D 00 81 03 
  1233)      5196.8  Rx     18EF1CCD  8  A3 00 00 00 00 00 00 00 
  1234)      5197.4  Rx     18EF1C8F  8  0D 72 1C 00 05 00 0C 00 
  1235)      5199.4  Rx     18EFCD1C  8  A0 00 14 00 00 00 00 00 
  1236)      5200.1  Rx     18EF1CCD  8  A0 00 14 00 B3 07 00 00 
  1237)      5213.5  Rx     18EFCD1C  8  A0 00 2A 00 00 00 00 00 
  1238)      5214.2  Rx     18EF1CCD  8  A0 00 2A 00 3E 06 00 00 
  1239)      5215.1  Rx     18EF1C8F  8  0D 80 00 95 FC CF 76 FB 
  1240)      5216.0  Rx     18EF1C8F  8  0D 81 FC FF 21 00 85 03 
  1241)      5216.9  Rx     18EF1CCD  8  A1 40 00 00 00 00 00 00 
  1242)      5217.4  Rx     18EF1C8F  8  0D 82 19 00 0C 00 0A 00 
  1243)      5233.6  Rx     18EFCD1C  8  A0 00 1B 00 00 00 00 00 
  1244)      5234.2  Rx     18EF1CCD  8  A0 00 1B 00 00 00 00 00 
  1245)      5235.1  Rx     18EF1C8F  8  0D 90 00 B7 4A D0 76 FB 
  1246)      5236.0  Rx     18EF1C8F  8  0D 91 00 00 1F 00 80 03 
  1247)      5237.0  Rx     18EF1C8F  8  0D 92 1D 00 09 00 0D 00 
  1248)      5253.5  Rx     18EFCD1C  8  A0 00 00 00 00 00 00 00 
  1249)      5254.2  Rx     18EF1CCD  8  A0 00 00 00 01 00 00 00 
  1250)      5255.1  Rx     18EF1C8F  8  0D A0 00 D5 98 D0 76 FB 
  1251)      5256.0  Rx     18EF1C8F  8  0D A1 FB FF 24 00 89 03 
  1252)      5257.0  Rx     18EF1C8F  8  0D A2 15 00 06 00 0C 00 
  1253)      5275.1  Rx     18EF1C8F  8  0D B0 00 F5 E6 D0 76 FB 
  1254)      5276.0  Rx     18EF1C8F  8  0D B1 08 00 1C 00 7D 03 
  1255)      5277.0  Rx     18EF1C8F  8  0D B2 18 00 10 00 0F 00 
  1256)      5277.6  Rx     18EF1CCD  8  A2 00 00 00 00 00 00 00 
  1257)      5293.5  Rx     18EFCD1C  8  A1 01 00 00 00 00 00 00 
  1258)      5295.1  Rx     18EF1C8F  8  0D C0 00 15 35 D1 76 FB 
  1259)      5296.0  Rx     18EF1C8F  8  0D C1 F7 FF 24 00 87 03 
  1260)      5297.0  Rx     18EF1C8F  8  0D C2 16 00 09 00 0B 00 
  1261)      5297.6  Rx     18EF1CCD  8  A3 00 00 00 00 00 00 00 
  1262)      5315.1  Rx     18EF1C8F  8  0D D0 00 35 83 D1 76 FB 
  1263)      5316.0  Rx     18EF1C8F  8  0D D1 0C 00 1B 00 82 03 
  1264)      5317.0  Rx     18EF1C8F  8  0D D2 18 00 12 00 0F 00 
  1265)      5317.5  Rx     18EF1CCD  8  A1 40 00 00 00 00 00 00 
  1266)      5335.1  Rx     18EF1C8F  8  0D E0 00 52 D1 D1 76 FB 
  1267)      5336.0  Rx     18EF1C8F  8  0D E1 F5 FF 26 00 86 03 
  1268)      5337.0  Rx     18EF1C8F  8  0D E2 18 00 02 00 0F 00 
  1269)      5355.1  Rx     18EF1C8F  8  0D F0 00 75 1F D2 76 FB 
  1270)      5356.0  Rx     18EF1C8F  8  0D F1 0D 00 1D 00 84 03 
  1271)      5357.0  Rx     18EF1C8F  8  0D F2 19 00 18 00 0F 00 
  1272)      5375.1  Rx     18EF1C8F  8  0D 00 00 95 6D D2 76 FB 
  1273)      5376.0  Rx     18EF1C8F  8  0D 01 F3 FF 22 00 83 03 
  1274)      5377.0  Rx     18EF1C8F  8  0D 02 18 00 05 00 0F 00 
  1275)      5377.6  Rx     18EF1CCD  8  A2 00 00 00 00 00 00 00 
  1276)      5395.1  Rx     18EF1C8F  8  0D 10 00 B5 BB D2 76 FB 
  1277)      5396.0  Rx     18EF1C8F  8  0D 11 0A 00 1F 00 85 03 
  1278)      5397.0  Rx     18EF1C8F  8  0D 12 19 00 19 00 10 00 
  1279)      5397.6  Rx     18EF1CCD  8  A3 00 00 00 00 00 00 00 
  1280)      5399.1  Rx     18EFCD1C  8  A0 00 14 00 00 00 00 00 
  1281)      5399.7  Rx     18EF1CCD  8  A0 00 14 00 B3 07 00 00 
  1282)      5413.5  Rx     18EFCD1C  8  A0 00 2A 00 00 00 00 00 
  1283)      5414.1  Rx     18EF1CCD  8  A0 00 2A 00 47 06 00 00 
  1284)      5415.1  Rx     18EF1C8F  8  0D 20 00 D5 09 D3 76 FB 
  1285)      5416.0  Rx     18EF1C8F  8  0D 21 F1 FF 20 00 7E 03 
  1286)      5417.0  Rx     18EF1C8F  8  0D 22 15 00 03 00 14 00 
  1287)      5417.6  Rx     18EF1CCD  8  A1 40 00 00 00 00 00 00 
  1288)      5433.5  Rx     18EFCD1C  8  A0 00 1B 00 00 00 00 00 
  1289)      5434.2  Rx     18EF1CCD  8  A0 00 1B 00 00 00 00 00 
  1290)      5435.1  Rx     18EF1C8F  8  0D 30 00 F5 57 D3 76 FB 
  1291)      5436.0  Rx     18EF1C8F  8  0D 31 07 00 20 00 86 03 
  1292)      5437.0  Rx     18EF1C8F  8  0D 32 16 00 13 00 10 00 
  1293)      5453.5  Rx     18EFCD1C  8  A0 00 00 00 00 00 00 00 
  1294)      5454.1  Rx     18EF1CCD  8  A0 00 00 00 01 00 00 00 
  1295)      5455.1  Rx     18EF1C8F  8  0D 40 00 17 A6 D3 76 FB 
  1296)      5456.0  Rx     18EF1C8F  8  0D 41 F7 FF 1E 00 82 03 
  1297)      5457.0  Rx     18EF1C8F  8  0D 42 1A 00 04 00 0F 00 
  1298)      5475.1  Rx     18EF1C8F  8  0D 50 00 35 F4 D3 76 FB 
  1299)      5476.0  Rx     18EF1C8F  8  0D 51 FF FF 23 00 84 03 
  1300)      5477.0  Rx     18EF1C8F  8  0D 52 17 00 0E 00 0F 00 
  1301)      5477.5  Rx     18EF1CCD  8  A2 00 00 00 00 00 00 00 
  1302)      5493.5  Rx     18EFCD1C  8  A1 01 00 00 00 00 00 00 
  1303)      5495.1  Rx     18EF1C8F  8  0D 60 00 55 42 D4 76 FB 
  1304)      5496.0  Rx     18EF1C8F  8  0D 61 F9 FF 1E 00 81 03 
  1305)      5497.0  Rx     18EF1C8F  8  0D 62 16 00 09 00 12 00 
  1306)      5497.6  Rx     18EF1CCD  8  A3 00 00 00 00 00 00 00 
  1307)      5515.1  Rx     18EF1C8F  8  0D 70 00 72 90 D4 76 FB 
  1308)      5516.0  Rx     18EF1C8F  8  0D 71 F7 FF 23 00 84 03 
  1309)      5517.0  Rx     18EF1C8F  8  0D 72 14 00 0D 00 10 00 
  1310)      5517.6  Rx     18EF1CCD  8  A1 40 00 00 00 00 00 00 
  1311)      5518.1  Rx     18FEF31C  8  B4 2B 80 99 14 C7 2C 89 
  1312)      5518.7  Rx     18FEE81C  8  33 8A 0C 00 00 00 2C 51 
  1313)      5519.2  Rx     18FEE61C  8  0B 2F 0C 09 57 29 00 00 
  1314)      5519.8  Rx     19F8021C  8  3A FC 70 BC 00 00 FF FF 
  1315)      5535.1  Rx     18EF1C8F  8  0D 80 00 97 DE D4 76 FB 
  1316)      5536.0  Rx     18EF1C8F  8  0D 81 03 00 12 00 86 03 
  1317)      5536.6  Rx     19F8051C  8  40 2F 3A EE 50 B9 86 6E 
  1318)      5537.1  Rx     18EF1C8F  8  0D 82 18 00 0D 00 10 00 
  1319)      5537.7  Rx     19F8051C  8  41 1B 80 CC 93 6D 6C A7 
  1320)      5538.2  Rx     19F8051C  8  42 98 06 40 FE D7 12 2F 
  1321)      5538.8  Rx     19F8051C  8  43 90 CB 02 DA 6C 41 08 
  1322)      5539.3  Rx     19F8051C  8  44 00 00 00 00 40 00 0C 
  1323)      5539.9  Rx     19F8051C  8  45 5E 00 BF 00 FC 0F 00 
  1324)      5540.5  Rx     19F8051C  8  46 00 01 AF 02 20 03 FF 
  1325)      5555.1  Rx     18EF1C8F  8  0D 90 00 B7 2C D5 76 FB 
  1326)      5556.0  Rx     18EF1C8F  8  0D 91 F2 FF 21 00 86 03 
  1327)      5557.0  Rx     18EF1C8F  8  0D 92 14 00 09 00 09 00 
  1328)      5575.1  Rx     18EF1C8F  8  0D A0 00 D5 7A D5 76 FB 
  1329)      5576.0  Rx     18EF1C8F  8  0D A1 05 00 1F 00 83 03 
  1330)      5577.0  Rx     18EF1C8F  8  0D A2 18 00 13 00 0E 00 
  1331)      5577.7  Rx     18EF1CCD  8  A2 00 00 00 00 00 00 00 
  1332)      5595.1  Rx     18EF1C8F  8  0D B0 00 F5 C8 D5 76 FB 
  1333)      5596.0  Rx     18EF1C8F  8  0D B1 F1 FF 24 00 86 03 
  1334)      5597.0  Rx     18EF1C8F  8  0D B2 15 00 01 00 0B 00 
  1335)      5597.8  Rx     18EF1CCD  8  A3 00 00 00 00 00 00 00 
  1336)      5600.4  Rx     18EFCD1C  8  A0 00 14 00 00 00 00 00 
  1337)      5601.0  Rx     18EF1CCD  8  A0 00 14 00 B4 07 00 00 
  1338)      5615.1  Rx     18EF1C8F  8  0D C0 00 17 17 D6 77 FB 
  1339)      5616.0  Rx     18EF1C8F  8  0D C1 09 00 1C 00 83 03 
  1340)      5616.6  Rx     18EFCD1C  8  A0 00 2A 00 00 00 00 00 
  1341)      5617.1  Rx     18EF1C8F  8  0D C2 18 00 14 00 0D 00 
  1342)      5617.7  Rx     18EF1CCD  8  A0 00 2A 00 4A 06 00 00 
  1343)      5618.3  Rx     18EF1CCD  8  A1 40 00 00 00 00 00 00 
  1344)      5633.5  Rx     18EFCD1C  8  A0 00 1B 00 00 00 00 00 
  1345)      5634.2  Rx     18EF1CCD  8  A0 00 1B 00 00 00 00 00 
  1346)      5635.1  Rx     18EF1C8F  8  0D D0 00 35 65 D6 76 FB 
  1347)      5636.0  Rx     18EF1C8F  8  0D D1 EF FF 24 00 81 03 
  1348)      5637.0  Rx     18EF1C8F  8  0D D2 16 00 00 00 0E 00 
  1349)      5653.5  Rx     18EFCD1C  8  A0 00 00 00 00 00 00 00 
  1350)      5654.2  Rx     18EF1CCD  8  A0 00 00 00 01 00 00 00 
  1351)      5655.1  Rx     18EF1C8F  8  0D E0 00 57 B3 D6 76 FB 
  1352)      5656.0  Rx     18EF1C8F  8  0D E1 08 00 1C 00 80 03 
  1353)      5657.0  Rx     18EF1C8F  8  0D E2 16 00 12 00 12 00 
  1354)      5675.1  Rx     18EF1C8F  8  0D F0 00 75 01 D7 76 FB 
  1355)      5676.0  Rx     18EF1C8F  8  0D F1 F1 FF 25 00 84 03 
  1356)      5677.0  Rx     18EF1C8F  8  0D F2 15 00 FF FF 11 00 
  1357)      5677.9  Rx     18EF1CCD  8  A2 00 00 00 00 00 00 00 
  1358)      5693.6  Rx     18EFCD1C  8  A1 01 00 00 00 00 00 00 
  1359)      5695.1  Rx     18EF1C8F  8  0D 00 00 92 4F D7 76 FB 
  1360)      5696.0  Rx     18EF1C8F  8  0D 01 06 00 1D 00 87 03 
  1361)      5697.0  Rx     18EF1C8F  8  0D 02 16 00 12 00 0E 00 
  1362)      5698.0  Rx     18EF1CCD  8  A3 00 00 00 00 00 00 00 
  1363)      5715.1  Rx     18EF1C8F  8  0D 10 00 B7 9D D7 77 FB 
  1364)      5716.0  Rx     18EF1C8F  8  0D 11 F6 FF 22 00 80 03 
  1365)      5717.0  Rx     18EF1C8F  8  0D 12 17 00 01 00 10 00 
  1366)      5718.0  Rx     18EF1CCD  8  A1 40 00 00 00 00 00 00 
  1367)      5735.1  Rx     18EF1C8F  8  0D 20 00 D2 EB D7 77 FB 
  1368)      5736.0  Rx     18EF1C8F  8  0D 21 04 00 21 00 87 03 
  1369)      5737.0  Rx     18EF1C8F  8  0D 22 12 00 0F 00 10 00 
  1370)      5755.1  Rx     18EF1C8F  8  0D 30 00 F5 39 D8 76 FB 
  1371)      5756.0  Rx     18EF1C8F  8  0D 31 FA FF 1F 00 7E 03 
  1372)      5757.0  Rx     18EF1C8F  8  0D 32 18 00 02 00 0F 00 
  1373)      5775.1  Rx     18EF1C8F  8  0D 40 00 15 88 D8 76 FB 
  1374)      5776.0  Rx     18EF1C8F  8  0D 41 00 00 22 00 89 03 
  1375)      5777.0  Rx     18EF1C8F  8  0D 42 17 00 0D 00 0E 00 
  1376)      5778.2  Rx     18EF1CCD  8  A2 00 00 00 00 00 00 00 
  1377)      5795.1  Rx     18EF1C8F  8  0D 50 00 35 D6 D8 76 FB 
  1378)      5796.0  Rx     18EF1C8F  8  0D 51 FF FF 1C 00 7F 03 
  1379)      5797.0  Rx     18EF1C8F  8  0D 52 19 00 08 00 15 00 
  1380)      5797.9  Rx     18EF8F1C  4  01 3C 3C 00 
  1381)      5798.5  Rx     18EF1CCD  8  A3 00 00 00 00 00 00 00 
  1382)      5799.0  Rx     18EF1C8F  4  01 3D 3C 00 
  1383)      5799.6  Rx     18EFCD1C  8  A0 00 14 00 00 00 00 00 
  1384)      5800.2  Rx     18EF1CCD  8  A0 00 14 00 B4 07 00 00 
  1385)      5814.0  Rx     18EFCD1C  8  A0 00 2A 00 00 00 00 00 
  1386)      5814.6  Rx     18EF1CCD  8  A0 00 2A 00 47 06 00 00 
  1387)      5815.2  Rx     18EF1C8F  8  0D 60 00 57 24 D9 76 FB 
  1388)      5816.0  Rx     18EF1C8F  8  0D 61 F7 FF 21 00 88 03 
  1389)      5817.0  Rx     18EF1C8F  8  0D 62 14 00 07 00 14 00 
  1390)      5818.3  Rx     18EF1CCD  8  A1 40 00 00 00 00 00 00 
  1391)      5833.5  Rx     18EFCD1C  8  A0 00 1B 00 00 00 00 00 
  1392)      5834.2  Rx     18EF1CCD  8  A0 00 1B 00 00 00 00 00 
  1393)      5835.2  Rx     18EF1C8F  8  0D 70 00 77 72 D9 76 FB 
  1394)      5836.1  Rx     18EF1C8F  8  0D 71 06 00 1C 00 82 03 
  1395)      5837.0  Rx     18EF1C8F  8  0D 72 16 00 0E 00 1A 00 
  1396)      5853.6  Rx     18EFCD1C  8  A0 00 00 00 00 00 00 00 
  1397)      5854.2  Rx     18EF1CCD  8  A0 00 00 00 01 00 00 00 
  1398)      5855.1  Rx     18EF1C8F  8  0D 80 00 95 C0 D9 76 FB 
  1399)      5856.0  Rx     18EF1C8F  8  0D 81 F4 FF 22 00 85 03 
  1400)      5857.1  Rx     18EF1C8F  8  0D 82 12 00 09 00 11 00 
  1401)      5875.1  Rx     18EF1C8F  8  0D 90 00 B5 0E DA 76 FB 
  1402)      5876.1  Rx     18EF1C8F  8  0D 91 0A 00 1E 00 7F 03 
  1403)      5877.0  Rx     18EF1C8F  8  0D 92 11 00 12 00 11 00 
  1404)      5878.4  Rx     18EF1CCD  8  A2 00 00 00 00 00 00 00 
  1405)      5893.5  Rx     18EFCD1C  8  A1 01 00 00 00 00 00 00 
  1406)      5895.1  Rx     18EF1C8F  8  0D A0 00 D5 5C DA 77 FB 
  1407)      5896.0  Rx     18EF1C8F  8  0D A1 F3 FF 23 00 86 03 
  1408)      5897.1  Rx     18EF1C8F  8  0D A2 0F 00 03 00 0F 00 
  1409)      5898.5  Rx     18EF1CCD  8  A3 00 00 00 00 00 00 00 
  1410)      5915.1  Rx     18EF1C8F  8  0D B0 00 F2 AA DA 76 FB 
  1411)      5916.0  Rx     18EF1C8F  8  0D B1 0B 00 1E 00 82 03 
  1412)      5917.1  Rx     18EF1C8F  8  0D B2 16 00 18 00 0F 00 
  1413)      5918.5  Rx     18EF1CCD  8  A1 40 00 00 00 00 00 00 
  1414)      5935.1  Rx     18EF1C8F  8  0D C0 00 15 F9 DA 76 FB 
  1415)      5936.1  Rx     18EF1C8F  8  0D C1 F1 FF 22 00 85 03 
  1416)      5937.1  Rx     18EF1C8F  8  0D C2 14 00 03 00 10 00 
  1417)      5955.1  Rx     18EF1C8F  8  0D D0 00 35 47 DB 76 FB 
  1418)      5956.0  Rx     18EF1C8F  8  0D D1 0B 00 1E 00 80 03 
  1419)      5957.1  Rx     18EF1C8F  8  0D D2 16 00 15 00 0E 00 
  1420)      5975.1  Rx     18EF1C8F  8  0D E0 00 55 95 DB 77 FB 
  1421)      5976.1  Rx     18EF1C8F  8  0D E1 F2 FF 24 00 81 03 
  1422)      5977.0  Rx     18EF1C8F  8  0D E2 18 00 00 00 0C 00 
  1423)      5978.7  Rx     18EF1CCD  8  A2 00 00 00 00 00 00 00 
  1424)      5995.1  Rx     18EF1C8F  8  0D F0 00 75 E3 DB 77 FB 
  1425)      5996.1  Rx     18EF1C8F  8  0D F1 05 00 1F 00 84 03 
  1426)      5997.1  Rx     18EF1C8F  8  0D F2 18 00 12 00 09 00 
  1427)      5998.5  Rx     18EFCD1C  8  A0 00 14 00 00 00 00 00 
  1428)      5999.0  Rx     18EF1CCD  8  A3 00 00 00 00 00 00 00 
  1429)      5999.7  Rx     18EF1CCD  8  A0 00 14 00 B4 07 00 00 
  1430)      6013.8  Rx     18EFCD1C  8  A0 00 2A 00 00 00 00 00 
  1431)      6014.5  Rx     18EF1CCD  8  A0 00 2A 00 46 06 00 00 
  1432)      6015.1  Rx     18EF1C8F  8  0D 00 00 97 31 DC 76 FB 
  1433)      6016.0  Rx     18EF1C8F  8  0D 01 F8 FF 23 00 82 03 
  1434)      6017.1  Rx     18EF1C8F  8  0D 02 17 00 01 00 0C 00 
  1435)      6018.7  Rx     18EF1CCD  8  A1 40 00 00 00 00 00 00 
  1436)      6033.6  Rx     18EFCD1C  8  A0 00 1B 00 00 00 00 00 
  1437)      6034.2  Rx     18EF1CCD  8  A0 00 1B 00 00 00 00 00 
  1438)      6035.1  Rx     18EF1C8F  8  0D 10 00 B5 7F DC 77 FB 
  1439)      6036.1  Rx     18EF1C8F  8  0D 11 00 00 20 00 86 03 
  1440)      6037.0  Rx     18EF1C8F  8  0D 12 19 00 11 00 0C 00 
  1441)      6053.6  Rx     18EFCD1C  8  A0 00 00 00 00 00 00 00 
  1442)      6054.2  Rx     18EF1CCD  8  A0 00 00 00 01 00 00 00 
  1443)      6055.2  Rx     18EF1C8F  8  0D 20 00 D7 CD DC 77 FB 
  1444)      6056.0  Rx     18EF1C8F  8  0D 21 F8 FF 1F 00 82 03 
  1445)      6057.1  Rx     18EF1C8F  8  0D 22 1B 00 04 00 0E 00 
  1446)      6075.1  Rx     18EF1C8F  8  0D 30 00 F5 1B DD 77 FB 
  1447)      6076.0  Rx     18EF1C8F  8  0D 31 FA FF 21 00 87 03 
  1448)      6077.1  Rx     18EF1C8F  8  0D 32 1A 00 0E 00 0B 00 
  1449)      6078.9  Rx     18EF1CCD  8  A2 00 00 00 00 00 00 00 
  1450)      6093.5  Rx     18EFCD1C  8  A1 01 00 00 00 00 00 00 
  1451)      6095.1  Rx     18EF1C8F  8  0D 40 00 15 6A DD 77 FB 
  1452)      6096.1  Rx     18EF1C8F  8  0D 41 FC FF 1D 00 81 03 
  1453)      6097.0  Rx     18EF1C8F  8  0D 42 1F 00 0B 00 0E 00 
  1454)      6098.9  Rx     18EF1CCD  8  A3 00 00 00 00 00 00 00 
  1455)      6115.1  Rx     18EF1C8F  8  0D 50 00 35 B8 DD 76 FB 
  1456)      6116.0  Rx     18EF1C8F  8  0D 51 F8 FF 23 00 88 03 
  1457)      6117.0  Rx     18EF1C8F  8  0D 52 1B 00 0B 00 0C 00 
  1458)      6119.0  Rx     18EF1CCD  8  A1 40 00 00 00 00 00 00 
  1459)      6133.3  Rx     18EFCD1C  4  01 41 41 00 
  1460)      6133.9  Rx     18EF1CCD  4  01 42 41 00 
  1461)      6135.1  Rx     18EF1C8F  8  0D 60 00 57 06 DE 77 FB 
  1462)      6136.1  Rx     18EF1C8F  8  0D 61 02 00 1A 00 80 03 
  1463)      6137.0  Rx     18EF1C8F  8  0D 62 1B 00 0C 00 0E 00 
  1464)      6155.1  Rx     18EF1C8F  8  0D 70 00 75 54 DE 77 FB 
  1465)      6156.1  Rx     18EF1C8F  8  0D 71 F3 FF 22 00 88 03 
  1466)      6157.0  Rx     18EF1C8F  8  0D 72 18 00 05 00 0F 00 
  1467)      6175.1  Rx     18EF1C8F  8  0D 80 00 95 A2 DE 77 FB 
  1468)      6176.0  Rx     18EF1C8F  8  0D 81 09 00 19 00 81 03 
  1469)      6177.1  Rx     18EF1C8F  8  0D 82 1B 00 12 00 10 00 
  1470)      6179.1  Rx     18EF1CCD  8  A2 00 00 00 00 00 00 00 
  1471)      6195.1  Rx     18EF1C8F  8  0D 90 00 B5 F0 DE 77 FB 
  1472)      6196.0  Rx     18EF1C8F  8  0D 91 F2 FF 26 00 85 03 
  1473)      6197.0  Rx     18EF1C8F  8  0D 92 17 00 02 00 0E 00 
  1474)      6199.2  Rx     18EF1CCD  8  A3 00 00 00 00 00 00 00 
  1475)      6199.7  Rx     18EFCD1C  8  A0 00 14 00 00 00 00 00 
  1476)      6200.4  Rx     18EF1CCD  8  A0 00 14 00 B3 07 00 00 
  1477)      6214.0  Rx     18EFCD1C  8  A0 00 2A 00 00 00 00 00 
  1478)      6214.6  Rx     18EF1CCD  8  A0 00 2A 00 42 06 00 00 
  1479)      6215.2  Rx     18EF1C8F  8  0D A0 00 D7 3E DF 77 FB 
  1480)      6216.0  Rx     18EF1C8F  8  0D A1 09 00 1B 00 81 03 
  1481)      6217.1  Rx     18EF1C8F  8  0D A2 19 00 13 00 11 00 
  1482)      6219.2  Rx     18EF1CCD  8  A1 40 00 00 00 00 00 00 
  1483)      6233.6  Rx     18EFCD1C  8  A0 00 1B 00 00 00 00 00 
  1484)      6234.2  Rx     18EF1CCD  8  A0 00 1B 00 00 00 00 00 
  1485)      6235.1  Rx     18EF1C8F  8  0D B0 00 F5 8C DF 77 FB 
  1486)      6236.0  Rx     18EF1C8F  8  0D B1 EF FF 23 00 80 03 
  1487)      6237.1  Rx     18EF1C8F  8  0D B2 14 00 00 00 12 00 
  1488)      6253.6  Rx     18EFCD1C  8  A0 00 00 00 00 00 00 00 
  1489)      6254.3  Rx     18EF1CCD  8  A0 00 00 00 01 00 00 00 
  1490)      6255.2  Rx     18EF1C8F  8  0D C0 00 15 DB DF 77 FB 
  1491)      6256.1  Rx     18EF1C8F  8  0D C1 0B 00 1E 00 83 03 
  1492)      6257.0  Rx     18EF1C8F  8  0D C2 17 00 14 00 12 00 
  1493)      6275.1  Rx     18EF1C8F  8  0D D0 00 35 29 E0 76 FB 
  1494)      6276.0  Rx     18EF1C8F  8  0D D1 F2 FF 21 00 81 03 
  1495)      6277.0  Rx     18EF1C8F  8  0D D2 14 00 FF FF 12 00 
  1496)      6279.3  Rx     18EF1CCD  8  A2 00 00 00 00 00 00 00 
  1497)      6293.5  Rx     18EFCD1C  8  A1 01 00 00 00 00 00 00 
  1498)      6295.1  Rx     18EF1C8F  8  0D E0 00 55 77 E0 77 FB 
  1499)      6296.0  Rx     18EF1C8F  8  0D E1 06 00 1F 00 84 03 
  1500)      6297.1  Rx     18EF1C8F  8  0D E2 18 00 0E 00 11 00 
  1501)      6299.4  Rx     18EF1CCD  8  A3 00 00 00 00 00 00 00 
  1502)      6315.1  Rx     18EF1C8F  8  0D F0 00 75 C5 E0 76 FB 
  1503)      6316.1  Rx     18EF1C8F  8  0D F1 F7 FF 21 00 82 03 
  1504)      6317.0  Rx     18EF1C8F  8  0D F2 12 00 00 00 17 00 
  1505)      6319.4  Rx     18EF1CCD  8  A1 40 00 00 00 00 00 00 
  1506)      6335.1  Rx     18EF1C8F  8  0D 00 00 95 13 E1 77 FB 
  1507)      6336.0  Rx     18EF1C8F  8  0D 01 00 00 23 00 87 03 
  1508)      6337.0  Rx     18EF1C8F  8  0D 02 12 00 10 00 13 00 
  1509)      6355.1  Rx     18EF1C8F  8  0D 10 00 B5 61 E1 77 FB 
  1510)      6356.0  Rx     18EF1C8F  8  0D 11 FF FF 1D 00 84 03 
