;$FILEVERSION=1.1
;$STARTTIME=46287.6059556597
;
;   Start time: 9/22/2026 14:32:34.569.0
;   Generated by PCAN-View v5.3.3.958
;
;   Message Number
;   |         Time Offset (ms)
;   |         |        Type
;   |         |        |        ID (hex)
;   |         |        |        |     Data Length
;   |         |        |        |     |   Data Bytes (hex) ...
;   |         |        |        |     |   |
;---+--   ----+----  --+--  ----+---  +  -+ -- -- -- -- -- -- --
     1)         6.4  Rx     18EFCD1C  8  A0 00 1B 00 00 00 00 00 
     2)        28.0  Rx     18EFCD1C  8  A0 00 00 00 00 00 00 00 
     3)       166.2  Rx     18EFCD1C  8  A0 00 14 00 00 00 00 00 
     4)       186.2  Rx     18EFCD1C  8  A0 00 2A 00 00 00 00 00 
     5)       206.2  Rx     18EFCD1C  8  A0 00 1B 00 00 00 00 00 
     6)       226.4  Rx     18EFCD1C  8  A0 00 00 00 00 00 00 00 
     7)       367.6  Rx     18FEF31C  8  B4 28 80 99 9A D0 2C 89 
     8)       368.2  Rx     18FEE81C  8  FD 38 04 00 00 00 30 51 
     9)       368.8  Rx     18FEE61C  8  89 20 0C 09 57 29 00 00 
    10)       369.4  Rx     19F8021C  8  1C FC B5 4D 00 00 FF FF 
    11)       370.0  Rx     18EFCD1C  8  A0 00 14 00 00 00 00 00 
    12)       386.1  Rx     18EFCD1C  8  A0 00 2A 00 00 00 00 00 
    13)       406.1  Rx     18EFCD1C  8  A0 00 1B 00 00 00 00 00 
    14)       426.1  Rx     18EFCD1C  8  A0 00 00 00 00 00 00 00 
    15)       438.3  Rx     19F8051C  8  80 2F 1C EE 50 E8 04 EA 
    16)       438.9  Rx     19F8051C  8  81 1A C0 11 60 70 B9 A6 
    17)       439.5  Rx     19F8051C  8  82 98 06 E0 F6 41 AD 66 
    18)       440.0  Rx     19F8051C  8  83 92 CB 02 BE 43 48 08 
    19)       440.7  Rx     19F8051C  8  84 00 00 00 00 40 00 0D 
    20)       441.3  Rx     19F8051C  8  85 5F 00 A8 00 FC 0F 00 
    21)       441.8  Rx     19F8051C  8  86 00 01 AF 02 20 03 FF 
    22)       566.1  Rx     18EFCD1C  8  A0 00 14 00 00 00 00 00 
    23)       586.1  Rx     18EFCD1C  8  A0 00 2A 00 00 00 00 00 
    24)       606.2  Rx     18EFCD1C  8  A0 00 1B 00 00 00 00 00 
    25)       626.1  Rx     18EFCD1C  8  A0 00 00 00 00 00 00 00 
    26)       766.1  Rx     18EFCD1C  8  A0 00 14 00 00 00 00 00 
    27)       786.1  Rx     18EFCD1C  8  A0 00 2A 00 00 00 00 00 
    28)       806.1  Rx     18EFCD1C  8  A0 00 1B 00 00 00 00 00 
    29)       826.1  Rx     18EFCD1C  8  A0 00 00 00 00 00 00 00 
    30)       913.5  Rx     18EF8F1C  4  01 A5 22 00 
    31)       966.2  Rx     18EFCD1C  8  A0 00 14 00 00 00 00 00 
    32)       986.1  Rx     18EFCD1C  8  A0 00 2A 00 00 00 00 00 
    33)      1006.2  Rx     18EFCD1C  8  A0 00 1B 00 00 00 00 00 
    34)      1026.1  Rx     18EFCD1C  8  A0 00 00 00 00 00 00 00 
    35)      1166.1  Rx     18EFCD1C  8  A0 00 14 00 00 00 00 00 
    36)      1186.1  Rx     18EFCD1C  8  A0 00 2A 00 00 00 00 00 
    37)      1206.1  Rx     18EFCD1C  8  A0 00 1B 00 00 00 00 00 
    38)      1226.1  Rx     18EFCD1C  8  A0 00 00 00 00 00 00 00 
    39)      1368.7  Rx     18FEF31C  8  B5 28 80 99 99 D0 2C 89 
    40)      1369.3  Rx     18FEE81C  8  FD 38 0F 00 00 00 30 51 
    41)      1369.9  Rx     18FEE61C  8  8D 20 0C 09 57 29 00 00 
    42)      1370.5  Rx     19F0101C  8  21 00 EE 50 F8 2B EA 1A 
    43)      1371.1  Rx     19F8021C  8  21 FC B5 4D 00 00 FF FF 
    44)      1371.8  Rx     18EFCD1C  8  A0 00 14 00 00 00 00 00 
    45)      1373.7  Rx     19F8051C  8  A0 2F 21 EE 50 F8 2B EA 
    46)      1374.3  Rx     19F8051C  8  A1 1A 80 CB BB C6 B9 A6 
    47)      1374.9  Rx     19F8051C  8  A2 98 06 40 87 57 9D 66 
    48)      1375.4  Rx     19F8051C  8  A3 92 CB 02 BA 14 48 08 
    49)      1376.0  Rx     19F8051C  8  A4 00 00 00 00 40 00 0D 
    50)      1376.6  Rx     19F8051C  8  A5 5F 00 A8 00 FC 0F 00 
    51)      1377.2  Rx     19F8051C  8  A6 00 01 AF 02 F4 01 FF 
    52)      1386.1  Rx     18EFCD1C  8  A0 00 2A 00 00 00 00 00 
    53)      1406.1  Rx     18EFCD1C  8  A0 00 1B 00 00 00 00 00 
    54)      1426.1  Rx     18EFCD1C  8  A0 00 00 00 00 00 00 00 
    55)      1485.9  Rx     18EFCD1C  4  01 C4 1B 00 
    56)      1566.0  Rx     18EFCD1C  8  A0 00 14 00 00 00 00 00 
    57)      1586.0  Rx     18EFCD1C  8  A0 00 2A 00 00 00 00 00 
    58)      1606.0  Rx     18EFCD1C  8  A0 00 1B 00 00 00 00 00 
    59)      1626.0  Rx     18EFCD1C  8  A0 00 00 00 00 00 00 00 
    60)      1767.0  Rx     18EFCD1C  8  A0 00 14 00 00 00 00 00 
    61)      1786.0  Rx     18EFCD1C  8  A0 00 2A 00 00 00 00 00 
    62)      1806.0  Rx     18EFCD1C  8  A0 00 1B 00 00 00 00 00 
    63)      1826.0  Rx     18EFCD1C  8  A0 00 00 00 00 00 00 00 
    64)      1966.8  Rx     18EFCD1C  8  A0 00 14 00 00 00 00 00 
    65)      1987.5  Rx     18EFCD1C  8  A0 00 2A 00 00 00 00 00 
    66)      2006.0  Rx     18EFCD1C  8  A0 00 1B 00 00 00 00 00 
    67)      2026.0  Rx     18EFCD1C  8  A0 00 00 00 00 00 00 00 
    68)      2166.6  Rx     18EFCD1C  8  A0 00 14 00 00 00 00 00 
    69)      2187.1  Rx     18EFCD1C  8  A0 00 2A 00 00 00 00 00 
    70)      2205.9  Rx     18EFCD1C  8  A0 00 1B 00 00 00 00 00 
    71)      2226.0  Rx     18EFCD1C  8  A0 00 00 00 00 00 00 00 
    72)      2367.4  Rx     18FEF31C  8  B6 28 80 99 99 D0 2C 89 
    73)      2368.0  Rx     18FEE81C  8  FD 38 09 00 00 00 30 51 
    74)      2368.6  Rx     18FEE61C  8  91 20 0C 09 57 29 00 00 
    75)      2369.2  Rx     19F8021C  8  26 FC B5 4D 00 00 FF FF 
    76)      2369.8  Rx     18EFCD1C  8  A0 00 14 00 00 00 00 00 
    77)      2371.7  Rx     19F8051C  8  C0 2F 26 EE 50 08 53 EA 
    78)      2372.3  Rx     19F8051C  8  C1 1A 00 9D 0F EF B9 A6 
    79)      2372.9  Rx     19F8051C  8  C2 98 06 80 BB 23 81 66 
    80)      2373.5  Rx     19F8051C  8  C3 92 CB 02 32 09 48 08 
    81)      2374.1  Rx     19F8051C  8  C4 00 00 00 00 40 00 0D 
    82)      2374.7  Rx     19F8051C  8  C5 5F 00 A8 00 FC 0F 00 
    83)      2375.3  Rx     19F8051C  8  C6 00 01 AF 02 58 02 FF 
    84)      2386.6  Rx     18EFCD1C  8  A0 00 2A 00 00 00 00 00 
    85)      2407.1  Rx     18EFCD1C  8  A0 00 1B 00 00 00 00 00 
    86)      2425.9  Rx     18EFCD1C  8  A0 00 00 00 00 00 00 00 
    87)      2565.9  Rx     18EFCD1C  8  A0 00 14 00 00 00 00 00 
    88)      2585.9  Rx     18EFCD1C  8  A0 00 2A 00 00 00 00 00 
    89)      2606.9  Rx     18EFCD1C  8  A0 00 1B 00 00 00 00 00 
    90)      2627.4  Rx     18EFCD1C  8  A0 00 00 00 00 00 00 00 
    91)      2765.9  Rx     18EFCD1C  8  A0 00 14 00 00 00 00 00 
    92)      2785.8  Rx     18EFCD1C  8  A0 00 2A 00 00 00 00 00 
    93)      2805.9  Rx     18EFCD1C  8  A0 00 1B 00 00 00 00 00 
    94)      2827.0  Rx     18EFCD1C  8  A0 00 00 00 00 00 00 00 
    95)      2965.9  Rx     18EFCD1C  8  A0 00 14 00 00 00 00 00 
    96)      2985.8  Rx     18EFCD1C  8  A0 00 2A 00 00 00 00 00 
    97)      3005.9  Rx     18EFCD1C  8  A0 00 1B 00 00 00 00 00 
    98)      3025.9  Rx     18EFCD1C  8  A0 00 00 00 00 00 00 00 
    99)      3111.5  Rx     18EF8F1C  4  01 A6 22 00 
   100)      3165.8  Rx     18EFCD1C  8  A0 00 14 00 00 00 00 00 
   101)      3185.8  Rx     18EFCD1C  8  A0 00 2A 00 00 00 00 00 
   102)      3205.8  Rx     18EFCD1C  8  A0 00 1B 00 00 00 00 00 
   103)      3225.8  Rx     18EFCD1C  8  A0 00 00 00 00 00 00 00 
   104)      3367.3  Rx     18FEF31C  8  B6 28 80 99 99 D0 2C 89 
   105)      3367.9  Rx     18FEE81C  8  FD 38 04 00 00 00 30 51 
   106)      3368.5  Rx     18FEE61C  8  95 20 0C 09 57 29 00 00 
   107)      3369.1  Rx     19F8021C  8  2B FC B5 4D 00 00 FF FF 
   108)      3369.7  Rx     18EFCD1C  8  A0 00 14 00 00 00 00 00 
   109)      3372.6  Rx     19F8051C  8  E0 2F 2B EE 50 18 7A EA 
   110)      3373.2  Rx     19F8051C  8  E1 1A 80 DC C7 F0 B9 A6 
   111)      3373.8  Rx     19F8051C  8  E2 98 06 40 82 61 8E 66 
   112)      3374.3  Rx     19F8051C  8  E3 92 CB 02 87 0C 48 08 
   113)      3375.0  Rx     19F8051C  8  E4 00 00 00 00 40 00 0D 
   114)      3375.6  Rx     19F8051C  8  E5 5F 00 A8 00 FC 0F 00 
   115)      3376.2  Rx     19F8051C  8  E6 00 01 AF 02 BC 02 FF 
   116)      3385.8  Rx     18EFCD1C  8  A0 00 2A 00 00 00 00 00 
   117)      3405.8  Rx     18EFCD1C  8  A0 00 1B 00 00 00 00 00 
   118)      3425.8  Rx     18EFCD1C  8  A0 00 00 00 00 00 00 00 
   119)      3487.3  Rx     18EFCD1C  4  01 C5 1B 00 
   120)      3565.8  Rx     18EFCD1C  8  A0 00 14 00 00 00 00 00 
   121)      3585.7  Rx     18EFCD1C  8  A0 00 2A 00 00 00 00 00 
   122)      3605.7  Rx     18EFCD1C  8  A0 00 1B 00 00 00 00 00 
   123)      3625.7  Rx     18EFCD1C  8  A0 00 00 00 00 00 00 00 
   124)      3765.7  Rx     18EFCD1C  8  A0 00 14 00 00 00 00 00 
   125)      3785.7  Rx     18EFCD1C  8  A0 00 2A 00 00 00 00 00 
   126)      3805.7  Rx     18EFCD1C  8  A0 00 1B 00 00 00 00 00 
   127)      3825.7  Rx     18EFCD1C  8  A0 00 00 00 00 00 00 00 
   128)      3965.7  Rx     18EFCD1C  8  A0 00 14 00 00 00 00 00 
   129)      3985.6  Rx     18EFCD1C  8  A0 00 2A 00 00 00 00 00 
   130)      4005.6  Rx     18EFCD1C  8  A0 00 1B 00 00 00 00 00 
   131)      4025.6  Rx     18EFCD1C  8  A0 00 00 00 00 00 00 00 
   132)      4165.6  Rx     18EFCD1C  8  A0 00 14 00 00 00 00 00 
   133)      4185.5  Rx     18EFCD1C  8  A0 00 2A 00 00 00 00 00 
   134)      4205.5  Rx     18EFCD1C  8  A0 00 1B 00 00 00 00 00 
   135)      4225.5  Rx     18EFCD1C  8  A0 00 00 00 00 00 00 00 
   136)      4368.1  Rx     18FEF31C  8  B6 28 80 99 99 D0 2C 89 
   137)      4368.7  Rx     18FEE81C  8  FD 38 06 00 00 00 30 51 
   138)      4369.2  Rx     18FEE61C  8  99 20 0C 09 57 29 00 00 
   139)      4369.9  Rx     19F8021C  8  30 FC B5 4D 00 00 FF FF 
   140)      4370.5  Rx     18EFCD1C  8  A0 00 14 00 00 00 00 00 
   141)      4385.4  Rx     18EFCD1C  8  A0 00 2A 00 00 00 00 00 
   142)      4394.5  Rx     19F8051C  8  00 2F 30 EE 50 28 A1 EA 
   143)      4395.1  Rx     19F8051C  8  01 1A 00 16 FC EC B9 A6 
   144)      4395.7  Rx     19F8051C  8  02 98 06 E0 B9 A6 80 66 
   145)      4396.3  Rx     19F8051C  8  03 92 CB 02 24 ED 47 08 
   146)      4396.8  Rx     19F8051C  8  04 00 00 00 00 40 00 0D 
   147)      4397.4  Rx     19F8051C  8  05 5F 00 A8 00 FC 0F 00 
   148)      4398.0  Rx     19F8051C  8  06 00 01 AF 02 20 03 FF 
   149)      4405.5  Rx     18EFCD1C  8  A0 00 1B 00 00 00 00 00 
   150)      4425.4  Rx     18EFCD1C  8  A0 00 00 00 00 00 00 00 
   151)      4566.6  Rx     18EFCD1C  8  A0 00 14 00 00 00 00 00 
   152)      4585.4  Rx     18EFCD1C  8  A0 00 2A 00 00 00 00 00 
   153)      4605.4  Rx     18EFCD1C  8  A0 00 1B 00 00 00 00 00 
   154)      4625.4  Rx     18EFCD1C  8  A0 00 00 00 00 00 00 00 
   155)      4765.9  Rx     18EFCD1C  8  A0 00 14 00 00 00 00 00 
   156)      4786.5  Rx     18EFCD1C  8  A0 00 2A 00 00 00 00 00 
   157)      4805.3  Rx     18EFCD1C  8  A0 00 1B 00 00 00 00 00 
   158)      4825.3  Rx     18EFCD1C  8  A0 00 00 00 00 00 00 00 
   159)      4965.5  Rx     18EFCD1C  8  A0 00 14 00 00 00 00 00 
   160)      4986.2  Rx     18EFCD1C  8  A0 00 2A 00 00 00 00 00 
   161)      5006.5  Rx     18EFCD1C  8  A0 00 1B 00 00 00 00 00 
   162)      5025.3  Rx     18EFCD1C  8  A0 00 00 00 00 00 00 00 
   163)      5165.3  Rx     18EFCD1C  8  A0 00 14 00 00 00 00 00 
   164)      5185.4  Rx     18EFCD1C  8  A0 00 2A 00 00 00 00 00 
   165)      5206.3  Rx     18EFCD1C  8  A0 00 1B 00 00 00 00 00 
   166)      5225.2  Rx     18EFCD1C  8  A0 00 00 00 00 00 00 00 
   167)      5310.9  Rx     18EF8F1C  4  01 A7 22 00 
   168)      5366.6  Rx     18FEF31C  8  B5 28 80 99 98 D0 2C 89 
   169)      5367.2  Rx     18FEE81C  8  FD 38 0B 00 00 00 30 51 
   170)      5367.8  Rx     18FEE61C  8  9D 20 0C 09 57 29 00 00 
   171)      5368.4  Rx     19F8021C  8  35 FC B5 4D 00 00 FF FF 
   172)      5369.0  Rx     18EFCD1C  8  A0 00 14 00 00 00 00 00 
   173)      5371.0  Rx     19F8051C  8  20 2F 35 EE 50 38 C8 EA 
   174)      5371.6  Rx     19F8051C  8  21 1A 00 E5 37 E1 B9 A6 
   175)      5372.2  Rx     19F8051C  8  22 98 06 40 A6 8A 5A 66 
   176)      5372.8  Rx     19F8051C  8  23 92 CB 02 DA DA 47 08 
   177)      5373.4  Rx     19F8051C  8  24 00 00 00 00 40 00 0D 
   178)      5374.0  Rx     19F8051C  8  25 5F 00 A8 00 FC 0F 00 
   179)      5374.6  Rx     19F8051C  8  26 00 01 AF 02 F4 01 FF 
   180)      5385.1  Rx     18EFCD1C  8  A0 00 2A 00 00 00 00 00 
   181)      5405.7  Rx     18EFCD1C  8  A0 00 1B 00 00 00 00 00 
   182)      5426.3  Rx     18EFCD1C  8  A0 00 00 00 00 00 00 00 
   183)      5510.9  Rx     18EFCD1C  4  01 C6 1B 00 
   184)      5565.1  Rx     18EFCD1C  8  A0 00 14 00 00 00 00 00 
   185)      5585.2  Rx     18EFCD1C  8  A0 00 2A 00 00 00 00 00 
   186)      5605.1  Rx     18EFCD1C  8  A0 00 1B 00 00 00 00 00 
   187)      5625.8  Rx     18EFCD1C  8  A0 00 00 00 00 00 00 00 
   188)      5765.1  Rx     18EFCD1C  8  A0 00 14 00 00 00 00 00 
   189)      5785.1  Rx     18EFCD1C  8  A0 00 2A 00 00 00 00 00 
   190)      5805.1  Rx     18EFCD1C  8  A0 00 1B 00 00 00 00 00 
   191)      5825.1  Rx     18EFCD1C  8  A0 00 00 00 00 00 00 00 
   192)      5965.1  Rx     18EFCD1C  8  A0 00 14 00 00 00 00 00 
   193)      5985.1  Rx     18EFCD1C  8  A0 00 2A 00 00 00 00 00 
   194)      6005.1  Rx     18EFCD1C  8  A0 00 1B 00 00 00 00 00 
   195)      6025.1  Rx     18EFCD1C  8  A0 00 00 00 00 00 00 00 
   196)      6165.0  Rx     18EFCD1C  8  A0 00 14 00 00 00 00 00 
   197)      6185.0  Rx     18EFCD1C  8  A0 00 2A 00 00 00 00 00 
   198)      6205.0  Rx     18EFCD1C  8  A0 00 1B 00 00 00 00 00 
   199)      6225.0  Rx     18EFCD1C  8  A0 00 00 00 00 00 00 00 
   200)      6366.6  Rx     18FEF31C  8  B5 28 80 99 98 D0 2C 89 
   201)      6367.2  Rx     18FEE81C  8  FD 38 0B 00 00 00 30 51 
   202)      6367.8  Rx     18FEE61C  8  A1 20 0C 09 57 29 00 00 
   203)      6368.4  Rx     19F0101C  8  3A 00 EE 50 48 EF EA 1A 
   204)      6369.0  Rx     19F8021C  8  3A FC B5 4D 00 00 FF FF 
   205)      6369.6  Rx     18EFCD1C  8  A0 00 14 00 00 00 00 00 
   206)      6372.5  Rx     19F8051C  8  40 2F 3A EE 50 48 EF EA 
   207)      6373.1  Rx     19F8051C  8  41 1A 00 FC 6E CF B9 A6 
   208)      6373.7  Rx     19F8051C  8  42 98 06 A0 59 F0 63 66 
   209)      6374.3  Rx     19F8051C  8  43 92 CB 02 53 E3 47 08 
   210)      6374.9  Rx     19F8051C  8  44 00 00 00 00 40 00 0D 
   211)      6375.5  Rx     19F8051C  8  45 5F 00 A8 00 FC 0F 00 
   212)      6376.1  Rx     19F8051C  8  46 00 01 AF 02 58 02 FF 
   213)      6384.9  Rx     18EFCD1C  8  A0 00 2A 00 00 00 00 00 
   214)      6404.9  Rx     18EFCD1C  8  A0 00 1B 00 00 00 00 00 
   215)      6424.9  Rx     18EFCD1C  8  A0 00 00 00 00 00 00 00 
   216)      6564.9  Rx     18EFCD1C  8  A0 00 14 00 00 00 00 00 
   217)      6584.9  Rx     18EFCD1C  8  A0 00 2A 00 00 00 00 00 
   218)      6604.9  Rx     18EFCD1C  8  A0 00 1B 00 00 00 00 00 
   219)      6624.9  Rx     18EFCD1C  8  A0 00 00 00 00 00 00 00 
   220)      6764.9  Rx     18EFCD1C  8  A0 00 14 00 00 00 00 00 
   221)      6784.8  Rx     18EFCD1C  8  A0 00 2A 00 00 00 00 00 
   222)      6804.8  Rx     18EFCD1C  8  A0 00 1B 00 00 00 00 00 
   223)      6824.9  Rx     18EFCD1C  8  A0 00 00 00 00 00 00 00 
   224)      6964.9  Rx     18EFCD1C  8  A0 00 14 00 00 00 00 00 
   225)      6984.9  Rx     18EFCD1C  8  A0 00 2A 00 00 00 00 00 
   226)      7004.8  Rx     18EFCD1C  8  A0 00 1B 00 00 00 00 00 
   227)      7024.8  Rx     18EFCD1C  8  A0 00 00 00 00 00 00 00 
   228)      7166.6  Rx     18EFCD1C  8  A0 00 14 00 00 00 00 00 
   229)      7184.8  Rx     18EFCD1C  8  A0 00 2A 00 00 00 00 00 
   230)      7204.8  Rx     18EFCD1C  8  A0 00 1B 00 00 00 00 00 
   231)      7224.8  Rx     18EFCD1C  8  A0 00 00 00 00 00 00 00 
   232)      7367.2  Rx     18FEF31C  8  B5 28 80 99 99 D0 2C 89 
   233)      7367.8  Rx     18FEE81C  8  FD 38 0C 00 00 00 30 51 
   234)      7368.4  Rx     18FEE61C  8  A5 20 0C 09 57 29 00 00 
   235)      7369.0  Rx     19F8021C  8  3F FC B5 4D 00 00 FF FF 
   236)      7369.6  Rx     18EFCD1C  8  A0 00 14 00 00 00 00 00 
   237)      7371.6  Rx     19F8051C  8  60 2F 3F EE 50 58 16 EB 
   238)      7372.2  Rx     19F8051C  8  61 1A 00 AD 23 C6 B9 A6 
   239)      7372.8  Rx     19F8051C  8  62 98 06 C0 39 BC 9B 66 
   240)      7373.4  Rx     19F8051C  8  63 92 CB 02 D4 2D 48 08 
   241)      7374.0  Rx     19F8051C  8  64 00 00 00 00 40 00 0D 
   242)      7374.6  Rx     19F8051C  8  65 5F 00 A8 00 FC 0F 00 
   243)      7375.2  Rx     19F8051C  8  66 00 01 AF 02 BC 02 FF 
   244)      7384.8  Rx     18EFCD1C  8  A0 00 2A 00 00 00 00 00 
   245)      7404.8  Rx     18EFCD1C  8  A0 00 1B 00 00 00 00 00 
   246)      7424.8  Rx     18EFCD1C  8  A0 00 00 00 00 00 00 00 
   247)      7509.7  Rx     18EF8F1C  4  01 A8 22 00 
   248)      7525.9  Rx     18EFCD1C  4  01 C7 1B 00 
   249)      7564.8  Rx     18EFCD1C  8  A0 00 14 00 00 00 00 00 
   250)      7586.0  Rx     18EFCD1C  8  A0 00 2A 00 00 00 00 00 
   251)      7604.8  Rx     18EFCD1C  8  A0 00 1B 00 00 00 00 00 
   252)      7624.8  Rx     18EFCD1C  8  A0 00 00 00 00 00 00 00 
   253)      7764.7  Rx     18EFCD1C  8  A0 00 14 00 00 00 00 00 
   254)      7784.9  Rx     18EFCD1C  8  A0 00 2A 00 00 00 00 00 
   255)      7805.8  Rx     18EFCD1C  8  A0 00 1B 00 00 00 00 00 
   256)      7824.8  Rx     18EFCD1C  8  A0 00 00 00 00 00 00 00 
   257)      7964.8  Rx     18EFCD1C  8  A0 00 14 00 00 00 00 00 
   258)      7984.7  Rx     18EFCD1C  8  A0 00 2A 00 00 00 00 00 
   259)      8005.3  Rx     18EFCD1C  8  A0 00 1B 00 00 00 00 00 
   260)      8025.8  Rx     18EFCD1C  8  A0 00 00 00 00 00 00 00 
   261)      8164.7  Rx     18EFCD1C  8  A0 00 14 00 00 00 00 00 
   262)      8184.7  Rx     18EFCD1C  8  A0 00 2A 00 00 00 00 00 
   263)      8205.2  Rx     18EFCD1C  8  A0 00 1B 00 00 00 00 00 
   264)      8225.4  Rx     18EFCD1C  8  A0 00 00 00 00 00 00 00 
   265)      8366.2  Rx     18FEF31C  8  B5 28 80 99 99 D0 2C 89 
   266)      8366.8  Rx     18FEE81C  8  FD 38 08 00 00 00 30 51 
   267)      8367.4  Rx     18FEE61C  8  A9 20 0C 09 57 29 00 00 
   268)      8367.9  Rx     19F8021C  8  44 FC B5 4D 00 00 FF FF 
   269)      8368.5  Rx     18EFCD1C  8  A0 00 14 00 00 00 00 00 
   270)      8371.5  Rx     19F8051C  8  80 2F 44 EE 50 68 3D EB 
   271)      8372.1  Rx     19F8051C  8  81 1A 00 EC 2D C4 B9 A6 
   272)      8372.7  Rx     19F8051C  8  82 98 06 40 1B 40 9F 66 
   273)      8373.3  Rx     19F8051C  8  83 92 CB 02 FE F3 47 08 
   274)      8373.9  Rx     19F8051C  8  84 00 00 00 00 40 00 0D 
   275)      8374.5  Rx     19F8051C  8  85 5F 00 A8 00 FC 0F 00 
   276)      8375.1  Rx     19F8051C  8  86 00 01 AF 02 20 03 FF 
   277)      8384.6  Rx     18EFCD1C  8  A0 00 2A 00 00 00 00 00 
   278)      8404.7  Rx     18EFCD1C  8  A0 00 1B 00 00 00 00 00 
   279)      8425.3  Rx     18EFCD1C  8  A0 00 00 00 00 00 00 00 
   280)      8564.6  Rx     18EFCD1C  8  A0 00 14 00 00 00 00 00 
   281)      8584.6  Rx     18EFCD1C  8  A0 00 2A 00 00 00 00 00 
   282)      8604.6  Rx     18EFCD1C  8  A0 00 1B 00 00 00 00 00 
   283)      8624.6  Rx     18EFCD1C  8  A0 00 00 00 00 00 00 00 
   284)      8764.5  Rx     18EFCD1C  8  A0 00 14 00 00 00 00 00 
   285)      8784.5  Rx     18EFCD1C  8  A0 00 2A 00 00 00 00 00 
   286)      8804.5  Rx     18EFCD1C  8  A0 00 1B 00 00 00 00 00 
   287)      8824.5  Rx     18EFCD1C  8  A0 00 00 00 00 00 00 00 
   288)      8964.5  Rx     18EFCD1C  8  A0 00 14 00 00 00 00 00 
   289)      8984.4  Rx     18EFCD1C  8  A0 00 2A 00 00 00 00 00 
   290)      9004.5  Rx     18EFCD1C  8  A0 00 1B 00 00 00 00 00 
   291)      9024.4  Rx     18EFCD1C  8  A0 00 00 00 00 00 00 00 
   292)      9164.4  Rx     18EFCD1C  8  A0 00 14 00 00 00 00 00 
   293)      9184.4  Rx     18EFCD1C  8  A0 00 2A 00 00 00 00 00 
   294)      9204.4  Rx     18EFCD1C  8  A0 00 1B 00 00 00 00 00 
   295)      9224.4  Rx     18EFCD1C  8  A0 00 00 00 00 00 00 00 
   296)      9366.0  Rx     18FEF31C  8  B4 28 80 99 9A D0 2C 89 
   297)      9366.6  Rx     18FEE81C  8  FD 38 0A 00 00 00 30 51 
   298)      9367.1  Rx     18FEE61C  8  AD 20 0C 09 57 29 00 00 
   299)      9367.7  Rx     19F8021C  8  49 FC B5 4D 00 00 FF FF 
   300)      9368.3  Rx     18EFCD1C  8  A0 00 14 00 00 00 00 00 
   301)      9371.9  Rx     19F8051C  8  A0 2F 49 EE 50 78 64 EB 
   302)      9372.5  Rx     19F8051C  8  A1 1A 00 2C 6A 97 B9 A6 
   303)      9373.1  Rx     19F8051C  8  A2 98 06 60 98 A2 AC 66 
   304)      9373.7  Rx     19F8051C  8  A3 92 CB 02 4A FF 47 08 
   305)      9374.3  Rx     19F8051C  8  A4 00 00 00 00 40 00 0D 
   306)      9374.9  Rx     19F8051C  8  A5 5F 00 A8 00 FC 0F 00 
   307)      9375.5  Rx     19F8051C  8  A6 00 01 AF 02 F4 01 FF 
   308)      9384.4  Rx     18EFCD1C  8  A0 00 2A 00 00 00 00 00 
   309)      9404.4  Rx     18EFCD1C  8  A0 00 1B 00 00 00 00 00 
   310)      9424.4  Rx     18EFCD1C  8  A0 00 00 00 00 00 00 00 
   311)      9544.2  Rx     18EFCD1C  4  01 C8 1B 00 
   312)      9564.3  Rx     18EFCD1C  8  A0 00 14 00 00 00 00 00 
   313)      9584.3  Rx     18EFCD1C  8  A0 00 2A 00 00 00 00 00 
   314)      9604.3  Rx     18EFCD1C  8  A0 00 1B 00 00 00 00 00 
   315)      9624.3  Rx     18EFCD1C  8  A0 00 00 00 00 00 00 00 
   316)      9709.1  Rx     18EF8F1C  4  01 A9 22 00 
   317)      9764.3  Rx     18EFCD1C  8  A0 00 14 00 00 00 00 00 
   318)      9784.2  Rx     18EFCD1C  8  A0 00 2A 00 00 00 00 00 
   319)      9804.2  Rx     18EFCD1C  8  A0 00 1B 00 00 00 00 00 
   320)      9824.3  Rx     18EFCD1C  8  A0 00 00 00 00 00 00 00 
   321)      9965.8  Rx     18EFCD1C  8  A0 00 14 00 00 00 00 00 
   322)      9984.2  Rx     18EFCD1C  8  A0 00 2A 00 00 00 00 00 
   323)     10004.2  Rx     18EFCD1C  8  A0 00 1B 00 00 00 00 00 
   324)     10024.2  Rx     18EFCD1C  8  A0 00 00 00 00 00 00 00 
   325)     10164.7  Rx     18EFCD1C  8  A0 00 14 00 00 00 00 00 
   326)     10185.7  Rx     18EFCD1C  8  A0 00 2A 00 00 00 00 00 
   327)     10204.1  Rx     18EFCD1C  8  A0 00 1B 00 00 00 00 00 
   328)     10224.1  Rx     18EFCD1C  8  A0 00 00 00 00 00 00 00 
   329)     10365.5  Rx     18FEF31C  8  B4 28 80 99 9A D0 2C 89 
   330)     10366.1  Rx     18FEE81C  8  FD 38 16 00 00 00 30 51 
   331)     10366.7  Rx     18FEE61C  8  B1 20 0C 09 57 29 00 00 
   332)     10367.3  Rx     19F8021C  8  4E FC B5 4D 00 00 FF FF 
   333)     10367.9  Rx     18EFCD1C  8  A0 00 14 00 00 00 00 00 
   334)     10369.9  Rx     19F8051C  8  C0 2F 4E EE 50 88 8B EB 
   335)     10370.5  Rx     19F8051C  8  C1 1A 00 B7 46 9F B9 A6 
   336)     10371.1  Rx     19F8051C  8  C2 98 06 40 52 96 C4 66 
   337)     10371.7  Rx     19F8051C  8  C3 92 CB 02 66 F9 47 08 
   338)     10372.3  Rx     19F8051C  8  C4 00 00 00 00 40 00 0D 
   339)     10372.9  Rx     19F8051C  8  C5 5F 00 A8 00 FC 0F 00 
   340)     10373.5  Rx     19F8051C  8  C6 00 01 AF 02 58 02 FF 
   341)     10384.9  Rx     18EFCD1C  8  A0 00 2A 00 00 00 00 00 
   342)     10404.0  Rx     18EFCD1C  8  A0 00 1B 00 00 00 00 00 
   343)     10424.0  Rx     18EFCD1C  8  A0 00 00 00 00 00 00 00 
   344)     10564.0  Rx     18EFCD1C  8  A0 00 14 00 00 00 00 00 
   345)     10584.0  Rx     18EFCD1C  8  A0 00 2A 00 00 00 00 00 
   346)     10605.0  Rx     18EFCD1C  8  A0 00 1B 00 00 00 00 00 
   347)     10624.0  Rx     18EFCD1C  8  A0 00 00 00 00 00 00 00 
   348)     10764.0  Rx     18EFCD1C  8  A0 00 14 00 00 00 00 00 
   349)     10784.0  Rx     18EFCD1C  8  A0 00 2A 00 00 00 00 00 
   350)     10804.1  Rx     18EFCD1C  8  A0 00 1B 00 00 00 00 00 
   351)     10825.2  Rx     18EFCD1C  8  A0 00 00 00 00 00 00 00 
   352)     10964.0  Rx     18EFCD1C  8  A0 00 14 00 00 00 00 00 
   353)     10983.9  Rx     18EFCD1C  8  A0 00 2A 00 00 00 00 00 
   354)     11004.0  Rx     18EFCD1C  8  A0 00 1B 00 00 00 00 00 
   355)     11024.6  Rx     18EFCD1C  8  A0 00 00 00 00 00 00 00 
   356)     11163.9  Rx     18EFCD1C  8  A0 00 14 00 00 00 00 00 
   357)     11183.9  Rx     18EFCD1C  8  A0 00 2A 00 00 00 00 00 
   358)     11204.0  Rx     18EFCD1C  8  A0 00 1B 00 00 00 00 00 
   359)     11224.1  Rx     18EFCD1C  8  A0 00 00 00 00 00 00 00 
   360)     11365.6  Rx     18FEF31C  8  B4 28 80 99 9A D0 2C 89 
   361)     11366.2  Rx     18FEE81C  8  FD 38 08 00 00 00 30 51 
   362)     11366.8  Rx     18FEE61C  8  B5 20 0C 09 57 29 00 00 
   363)     11367.4  Rx     19F0101C  8  53 00 EE 50 98 B2 EB 1A 
   364)     11368.0  Rx     19F8021C  8  53 FC B5 4D 00 00 FF FF 
   365)     11368.6  Rx     18EFCD1C  8  A0 00 14 00 00 00 00 00 
   366)     11371.5  Rx     19F8051C  8  E0 2F 53 EE 50 98 B2 EB 
   367)     11372.1  Rx     19F8051C  8  E1 1A 80 0F 6C A4 B9 A6 
   368)     11372.7  Rx     19F8051C  8  E2 98 06 A0 8B 6A CA 66 
   369)     11373.3  Rx     19F8051C  8  E3 92 CB 02 AE F2 47 08 
   370)     11373.9  Rx     19F8051C  8  E4 00 00 00 00 40 00 0D 
   371)     11374.4  Rx     19F8051C  8  E5 5F 00 A8 00 FC 0F 00 
   372)     11375.0  Rx     19F8051C  8  E6 00 01 AF 02 BC 02 FF 
   373)     11383.9  Rx     18EFCD1C  8  A0 00 2A 00 00 00 00 00 
   374)     11403.9  Rx     18EFCD1C  8  A0 00 1B 00 00 00 00 00 
   375)     11423.9  Rx     18EFCD1C  8  A0 00 00 00 00 00 00 00 
   376)     11563.9  Rx     18EFCD1C  8  A0 00 14 00 00 00 00 00 
   377)     11564.4  Rx     18EFCD1C  4  01 C9 1B 00 
   378)     11583.9  Rx     18EFCD1C  8  A0 00 2A 00 00 00 00 00 
   379)     11603.9  Rx     18EFCD1C  8  A0 00 1B 00 00 00 00 00 
   380)     11623.9  Rx     18EFCD1C  8  A0 00 00 00 00 00 00 00 
   381)     11763.9  Rx     18EFCD1C  8  A0 00 14 00 00 00 00 00 
   382)     11783.9  Rx     18EFCD1C  8  A0 00 2A 00 00 00 00 00 
   383)     11803.9  Rx     18EFCD1C  8  A0 00 1B 00 00 00 00 00 
   384)     11823.9  Rx     18EFCD1C  8  A0 00 00 00 00 00 00 00 
   385)     11910.0  Rx     18EF8F1C  4  01 AA 22 00 
   386)     11963.9  Rx     18EFCD1C  8  A0 00 14 00 00 00 00 00 
   387)     11983.9  Rx     18EFCD1C  8  A0 00 2A 00 00 00 00 00 
   388)     12003.9  Rx     18EFCD1C  8  A0 00 1B 00 00 00 00 00 
   389)     12023.9  Rx     18EFCD1C  8  A0 00 00 00 00 00 00 00 
   390)     12163.8  Rx     18EFCD1C  8  A0 00 14 00 00 00 00 00 
   391)     12183.8  Rx     18EFCD1C  8  A0 00 2A 00 00 00 00 00 
   392)     12203.8  Rx     18EFCD1C  8  A0 00 1B 00 00 00 00 00 
   393)     12223.9  Rx     18EFCD1C  8  A0 00 00 00 00 00 00 00 
   394)     12366.4  Rx     18FEF31C  8  B5 28 80 99 9A D0 2C 89 
   395)     12367.0  Rx     18FEE81C  8  FD 38 0B 00 00 00 30 51 
   396)     12367.5  Rx     18FEE61C  8  B9 20 0C 09 57 29 00 00 
   397)     12368.1  Rx     19F8021C  8  58 FC B5 4D 00 00 FF FF 
   398)     12368.7  Rx     18EFCD1C  8  A0 00 14 00 00 00 00 00 
   399)     12370.7  Rx     19F8051C  8  00 2F 58 EE 50 1E DA EB 
   400)     12371.3  Rx     19F8051C  8  01 1A 00 1E 36 B1 B9 A6 
   401)     12371.9  Rx     19F8051C  8  02 98 06 00 A3 CB AB 66 
   402)     12372.5  Rx     19F8051C  8  03 92 CB 02 55 0C 48 08 
   403)     12373.1  Rx     19F8051C  8  04 00 00 00 00 40 00 0D 
   404)     12373.7  Rx     19F8051C  8  05 5F 00 A8 00 FC 0F 00 
   405)     12374.3  Rx     19F8051C  8  06 00 01 AF 02 20 03 FF 
   406)     12383.8  Rx     18EFCD1C  8  A0 00 2A 00 00 00 00 00 
   407)     12403.8  Rx     18EFCD1C  8  A0 00 1B 00 00 00 00 00 
   408)     12423.8  Rx     18EFCD1C  8  A0 00 00 00 00 00 00 00 
   409)     12563.7  Rx     18EFCD1C  8  A0 00 14 00 00 00 00 00 
   410)     12583.7  Rx     18EFCD1C  8  A0 00 2A 00 00 00 00 00 
   411)     12603.7  Rx     18EFCD1C  8  A0 00 1B 00 00 00 00 00 
   412)     12623.7  Rx     18EFCD1C  8  A0 00 00 00 00 00 00 00 
   413)     12765.3  Rx     18EFCD1C  8  A0 00 14 00 00 00 00 00 
   414)     12783.7  Rx     18EFCD1C  8  A0 00 2A 00 00 00 00 00 
   415)     12803.7  Rx     18EFCD1C  8  A0 00 1B 00 00 00 00 00 
   416)     12823.7  Rx     18EFCD1C  8  A0 00 00 00 00 00 00 00 
   417)     12964.1  Rx     18EFCD1C  8  A0 00 14 00 00 00 00 00 
   418)     12985.5  Rx     18EFCD1C  8  A0 00 2A 00 00 00 00 00 
   419)     13003.6  Rx     18EFCD1C  8  A0 00 1B 00 00 00 00 00 
   420)     13023.6  Rx     18EFCD1C  8  A0 00 00 00 00 00 00 00 
   421)     13163.6  Rx     18EFCD1C  8  A0 00 14 00 00 00 00 00 
   422)     13184.2  Rx     18EFCD1C  8  A0 00 2A 00 00 00 00 00 
   423)     13205.4  Rx     18EFCD1C  8  A0 00 1B 00 00 00 00 00 
   424)     13223.6  Rx     18EFCD1C  8  A0 00 00 00 00 00 00 00 
   425)     13365.0  Rx     18FEF31C  8  B5 28 80 99 9A D0 2C 89 
   426)     13365.6  Rx     18FEE81C  8  FD 38 08 00 00 00 30 51 
   427)     13366.2  Rx     18FEE61C  8  BD 20 0C 09 57 29 00 00 
   428)     13366.8  Rx     19F8021C  8  5D FC B5 4D 00 00 FF FF 
   429)     13367.4  Rx     18EFCD1C  8  A0 00 14 00 00 00 00 00 
   430)     13369.4  Rx     19F8051C  8  20 2F 5D EE 50 B8 00 EC 
   431)     13370.0  Rx     19F8051C  8  21 1A 00 D6 BD C9 B9 A6 
   432)     13370.6  Rx     19F8051C  8  22 98 06 C0 74 00 BA 66 
   433)     13371.2  Rx     19F8051C  8  23 92 CB 02 02 07 48 08 
   434)     13371.8  Rx     19F8051C  8  24 00 00 00 00 40 00 0C 
   435)     13372.4  Rx     19F8051C  8  25 65 00 AE 00 FC 0F 00 
   436)     13373.0  Rx     19F8051C  8  26 00 01 AF 02 F4 01 FF 
   437)     13383.6  Rx     18EFCD1C  8  A0 00 2A 00 00 00 00 00 
   438)     13404.5  Rx     18EFCD1C  8  A0 00 1B 00 00 00 00 00 
   439)     13425.4  Rx     18EFCD1C  8  A0 00 00 00 00 00 00 00 
   440)     13563.5  Rx     18EFCD1C  8  A0 00 14 00 00 00 00 00 
   441)     13583.6  Rx     18EFCD1C  8  A0 00 2A 00 00 00 00 00 
   442)     13584.0  Rx     18EFCD1C  4  01 CA 1B 00 
   443)     13603.6  Rx     18EFCD1C  8  A0 00 1B 00 00 00 00 00 
   444)     13624.6  Rx     18EFCD1C  8  A0 00 00 00 00 00 00 00 
   445)     13763.5  Rx     18EFCD1C  8  A0 00 14 00 00 00 00 00 
   446)     13783.5  Rx     18EFCD1C  8  A0 00 2A 00 00 00 00 00 
   447)     13803.5  Rx     18EFCD1C  8  A0 00 1B 00 00 00 00 00 
   448)     13823.5  Rx     18EFCD1C  8  A0 00 00 00 00 00 00 00 
   449)     13963.5  Rx     18EFCD1C  8  A0 00 14 00 00 00 00 00 
   450)     13983.5  Rx     18EFCD1C  8  A0 00 2A 00 00 00 00 00 
   451)     14003.5  Rx     18EFCD1C  8  A0 00 1B 00 00 00 00 00 
   452)     14023.5  Rx     18EFCD1C  8  A0 00 00 00 00 00 00 00 
   453)     14107.7  Rx     18EF8F1C  4  01 AB 22 00 
   454)     14163.4  Rx     18EFCD1C  8  A0 00 14 00 00 00 00 00 
   455)     14183.4  Rx     18EFCD1C  8  A0 00 2A 00 00 00 00 00 
   456)     14203.4  Rx     18EFCD1C  8  A0 00 1B 00 00 00 00 00 
   457)     14223.4  Rx     18EFCD1C  8  A0 00 00 00 00 00 00 00 
   458)     14364.8  Rx     18FEF31C  8  B5 28 80 99 99 D0 2C 89 
   459)     14365.4  Rx     18FEE81C  8  FD 38 09 00 00 00 30 51 
   460)     14366.0  Rx     18FEE61C  8  C1 20 0C 09 57 29 00 00 
   461)     14366.6  Rx     19F8021C  8  62 FC B5 4D 00 00 FF FF 
   462)     14367.2  Rx     18EFCD1C  8  A0 00 14 00 00 00 00 00 
   463)     14370.8  Rx     19F8051C  8  40 2F 62 EE 50 C8 27 EC 
   464)     14371.4  Rx     19F8051C  8  41 1A C0 0A CF D4 B9 A6 
   465)     14372.0  Rx     19F8051C  8  42 98 06 A0 17 31 82 66 
   466)     14372.5  Rx     19F8051C  8  43 92 CB 02 3A F3 47 08 
   467)     14373.2  Rx     19F8051C  8  44 00 00 00 00 40 00 0C 
   468)     14373.7  Rx     19F8051C  8  45 65 00 AE 00 FC 0F 00 
   469)     14374.3  Rx     19F8051C  8  46 00 01 AF 02 58 02 FF 
   470)     14383.3  Rx     18EFCD1C  8  A0 00 2A 00 00 00 00 00 
   471)     14403.3  Rx     18EFCD1C  8  A0 00 1B 00 00 00 00 00 
   472)     14423.3  Rx     18EFCD1C  8  A0 00 00 00 00 00 00 00 
   473)     14563.2  Rx     18EFCD1C  8  A0 00 14 00 00 00 00 00 
   474)     14583.2  Rx     18EFCD1C  8  A0 00 2A 00 00 00 00 00 
   475)     14603.2  Rx     18EFCD1C  8  A0 00 1B 00 00 00 00 00 
   476)     14623.2  Rx     18EFCD1C  8  A0 00 00 00 00 00 00 00 
   477)     14763.1  Rx     18EFCD1C  8  A0 00 14 00 00 00 00 00 
   478)     14783.1  Rx     18EFCD1C  8  A0 00 2A 00 00 00 00 00 
   479)     14803.1  Rx     18EFCD1C  8  A0 00 1B 00 00 00 00 00 
   480)     14823.2  Rx     18EFCD1C  8  A0 00 00 00 00 00 00 00 
   481)     14963.1  Rx     18EFCD1C  8  A0 00 14 00 00 00 00 00 
   482)     14983.1  Rx     18EFCD1C  8  A0 00 2A 00 00 00 00 00 
   483)     15003.1  Rx     18EFCD1C  8  A0 00 1B 00 00 00 00 00 
   484)     15023.1  Rx     18EFCD1C  8  A0 00 00 00 00 00 00 00 
   485)     15163.1  Rx     18EFCD1C  8  A0 00 14 00 00 00 00 00 
   486)     15183.1  Rx     18EFCD1C  8  A0 00 2A 00 00 00 00 00 
   487)     15203.1  Rx     18EFCD1C  8  A0 00 1B 00 00 00 00 00 
   488)     15223.1  Rx     18EFCD1C  8  A0 00 00 00 00 00 00 00 
   489)     15365.6  Rx     18FEF31C  8  B5 28 80 99 98 D0 2C 89 
   490)     15366.2  Rx     18FEE81C  8  FD 38 0D 00 00 00 30 51 
   491)     15366.7  Rx     18FEE61C  8  C5 20 0C 09 57 29 00 00 
   492)     15367.3  Rx     19F8021C  8  67 FC B5 4D 00 00 FF FF 
   493)     15368.0  Rx     18EFCD1C  8  A0 00 14 00 00 00 00 00 
   494)     15370.0  Rx     19F8051C  8  60 2F 67 EE 50 D8 4E EC 
   495)     15370.6  Rx     19F8051C  8  61 1A 40 20 AC C1 B9 A6 
   496)     15371.2  Rx     19F8051C  8  62 98 06 60 C1 14 5E 66 
   497)     15371.7  Rx     19F8051C  8  63 92 CB 02 62 1A 48 08 
   498)     15372.3  Rx     19F8051C  8  64 00 00 00 00 40 00 0C 
   499)     15372.9  Rx     19F8051C  8  65 65 00 AE 00 FC 0F 00 
   500)     15373.5  Rx     19F8051C  8  66 00 01 AF 02 BC 02 FF 
   501)     15383.0  Rx     18EFCD1C  8  A0 00 2A 00 00 00 00 00 
   502)     15403.1  Rx     18EFCD1C  8  A0 00 1B 00 00 00 00 00 
   503)     15423.0  Rx     18EFCD1C  8  A0 00 00 00 00 00 00 00 
   504)     15564.6  Rx     18EFCD1C  8  A0 00 14 00 00 00 00 00 
   505)     15583.0  Rx     18EFCD1C  8  A0 00 2A 00 00 00 00 00 
   506)     15584.7  Rx     18EFCD1C  4  01 CB 1B 00 
   507)     15603.0  Rx     18EFCD1C  8  A0 00 1B 00 00 00 00 00 
   508)     15623.0  Rx     18EFCD1C  8  A0 00 00 00 00 00 00 00 
   509)     15763.1  Rx     18EFCD1C  8  A0 00 14 00 00 00 00 00 
   510)     15784.7  Rx     18EFCD1C  8  A0 00 2A 00 00 00 00 00 
   511)     15803.0  Rx     18EFCD1C  8  A0 00 1B 00 00 00 00 00 
   512)     15823.0  Rx     18EFCD1C  8  A0 00 00 00 00 00 00 00 
   513)     15963.0  Rx     18EFCD1C  8  A0 00 14 00 00 00 00 00 
   514)     15983.1  Rx     18EFCD1C  8  A0 00 2A 00 00 00 00 00 
   515)     16004.9  Rx     18EFCD1C  8  A0 00 1B 00 00 00 00 00 
   516)     16023.0  Rx     18EFCD1C  8  A0 00 00 00 00 00 00 00 
   517)     16108.8  Rx     18EF8F1C  4  01 AC 22 00 
   518)     16163.0  Rx     18EFCD1C  8  A0 00 14 00 00 00 00 00 
   519)     16182.9  Rx     18EFCD1C  8  A0 00 2A 00 00 00 00 00 
   520)     16203.2  Rx     18EFCD1C  8  A0 00 1B 00 00 00 00 00 
   521)     16224.7  Rx     18EFCD1C  8  A0 00 00 00 00 00 00 00 
   522)     16364.6  Rx     18FEF31C  8  B5 28 80 99 98 D0 2C 89 
   523)     16365.2  Rx     18FEE81C  8  FD 38 0D 00 00 00 30 51 
   524)     16365.8  Rx     18FEE61C  8  C9 20 0C 09 57 29 00 00 
   525)     16366.3  Rx     19F0101C  8  6C 00 EE 50 E8 75 EC 1A 
   526)     16366.9  Rx     19F8021C  8  6C FC B5 4D 00 00 FF FF 
   527)     16367.6  Rx     18EFCD1C  8  A0 00 14 00 00 00 00 00 
   528)     16369.3  Rx     19F8051C  8  80 2F 6C EE 50 E8 75 EC 
   529)     16370.5  Rx     19F8051C  8  81 1A 80 A3 FC D8 B9 A6 
   530)     16371.1  Rx     19F8051C  8  82 98 06 A0 10 3F 51 66 
   531)     16371.7  Rx     19F8051C  8  83 92 CB 02 3C F4 47 08 
   532)     16372.3  Rx     19F8051C  8  84 00 00 00 00 40 00 0C 
   533)     16372.9  Rx     19F8051C  8  85 65 00 AE 00 FC 0F 00 
   534)     16373.5  Rx     19F8051C  8  86 00 01 AF 02 20 03 FF 
   535)     16382.9  Rx     18EFCD1C  8  A0 00 2A 00 00 00 00 00 
   536)     16402.9  Rx     18EFCD1C  8  A0 00 1B 00 00 00 00 00 
   537)     16423.5  Rx     18EFCD1C  8  A0 00 00 00 00 00 00 00 
   538)     16562.9  Rx     18EFCD1C  8  A0 00 14 00 00 00 00 00 
   539)     16582.9  Rx     18EFCD1C  8  A0 00 2A 00 00 00 00 00 
   540)     16602.9  Rx     18EFCD1C  8  A0 00 1B 00 00 00 00 00 
   541)     16622.9  Rx     18EFCD1C  8  A0 00 00 00 00 00 00 00 
   542)     16762.9  Rx     18EFCD1C  8  A0 00 14 00 00 00 00 00 
   543)     16782.9  Rx     18EFCD1C  8  A0 00 2A 00 00 00 00 00 
   544)     16802.9  Rx     18EFCD1C  8  A0 00 1B 00 00 00 00 00 
   545)     16822.9  Rx     18EFCD1C  8  A0 00 00 00 00 00 00 00 
   546)     16962.9  Rx     18EFCD1C  8  A0 00 14 00 00 00 00 00 
   547)     16982.9  Rx     18EFCD1C  8  A0 00 2A 00 00 00 00 00 
   548)     17002.9  Rx     18EFCD1C  8  A0 00 1B 00 00 00 00 00 
   549)     17022.9  Rx     18EFCD1C  8  A0 00 00 00 00 00 00 00 
   550)     17162.8  Rx     18EFCD1C  8  A0 00 14 00 00 00 00 00 
   551)     17182.8  Rx     18EFCD1C  8  A0 00 2A 00 00 00 00 00 
   552)     17202.8  Rx     18EFCD1C  8  A0 00 1B 00 00 00 00 00 
   553)     17222.8  Rx     18EFCD1C  8  A0 00 00 00 00 00 00 00 
   554)     17364.4  Rx     18FEF31C  8  B5 28 80 99 99 D0 2C 89 
   555)     17365.0  Rx     18FEE81C  8  FD 38 04 00 00 00 30 51 
   556)     17365.5  Rx     18FEE61C  8  CD 20 0C 09 57 29 00 00 
   557)     17366.1  Rx     19F8021C  8  71 FC B5 4D 00 00 FF FF 
   558)     17366.8  Rx     18EFCD1C  8  A0 00 14 00 00 00 00 00 
   559)     17369.8  Rx     19F8051C  8  A0 2F 71 EE 50 F8 9C EC 
   560)     17370.4  Rx     19F8051C  8  A1 1A 80 45 BF C5 B9 A6 
   561)     17371.0  Rx     19F8051C  8  A2 98 06 60 90 F9 A8 66 
   562)     17371.6  Rx     19F8051C  8  A3 92 CB 02 72 25 48 08 
   563)     17372.2  Rx     19F8051C  8  A4 00 00 00 00 40 00 0D 
   564)     17372.7  Rx     19F8051C  8  A5 5F 00 A8 00 FC 0F 00 
   565)     17373.3  Rx     19F8051C  8  A6 00 01 AF 02 F4 01 FF 
   566)     17382.8  Rx     18EFCD1C  8  A0 00 2A 00 00 00 00 00 
   567)     17402.8  Rx     18EFCD1C  8  A0 00 1B 00 00 00 00 00 
   568)     17422.8  Rx     18EFCD1C  8  A0 00 00 00 00 00 00 00 
   569)     17562.8  Rx     18EFCD1C  8  A0 00 14 00 00 00 00 00 
   570)     17582.8  Rx     18EFCD1C  8  A0 00 2A 00 00 00 00 00 
   571)     17602.8  Rx     18EFCD1C  8  A0 00 1B 00 00 00 00 00 
   572)     17603.2  Rx     18EFCD1C  4  01 CC 1B 00 
   573)     17622.7  Rx     18EFCD1C  8  A0 00 00 00 00 00 00 00 
   574)     17762.7  Rx     18EFCD1C  8  A0 00 14 00 00 00 00 00 
   575)     17782.7  Rx     18EFCD1C  8  A0 00 2A 00 00 00 00 00 
   576)     17802.8  Rx     18EFCD1C  8  A0 00 1B 00 00 00 00 00 
   577)     17822.7  Rx     18EFCD1C  8  A0 00 00 00 00 00 00 00 
   578)     17962.7  Rx     18EFCD1C  8  A0 00 14 00 00 00 00 00 
   579)     17982.7  Rx     18EFCD1C  8  A0 00 2A 00 00 00 00 00 
   580)     18002.7  Rx     18EFCD1C  8  A0 00 1B 00 00 00 00 00 
   581)     18022.7  Rx     18EFCD1C  8  A0 00 00 00 00 00 00 00 
   582)     18163.9  Rx     18EFCD1C  8  A0 00 14 00 00 00 00 00 
   583)     18182.7  Rx     18EFCD1C  8  A0 00 2A 00 00 00 00 00 
   584)     18202.7  Rx     18EFCD1C  8  A0 00 1B 00 00 00 00 00 
   585)     18222.7  Rx     18EFCD1C  8  A0 00 00 00 00 00 00 00 
   586)     18307.7  Rx     18EF8F1C  4  01 AD 22 00 
   587)     18364.7  Rx     18FEF31C  8  B5 28 80 99 99 D0 2C 89 
   588)     18365.3  Rx     18FEE81C  8  FD 38 14 00 00 00 30 51 
   589)     18365.9  Rx     18FEE61C  8  D1 20 0C 09 57 29 00 00 
   590)     18366.5  Rx     19F8021C  8  76 FC B5 4D 00 00 FF FF 
   591)     18367.1  Rx     18EFCD1C  8  A0 00 14 00 00 00 00 00 
   592)     18369.3  Rx     19F8051C  8  C0 2F 76 EE 50 7E C4 EC 
   593)     18369.8  Rx     19F8051C  8  C1 1A 40 5F 2F B4 B9 A6 
   594)     18370.4  Rx     19F8051C  8  C2 98 06 60 8A EF 7A 66 
   595)     18371.0  Rx     19F8051C  8  C3 92 CB 02 C4 F9 47 08 
   596)     18371.6  Rx     19F8051C  8  C4 00 00 00 00 40 00 0D 
   597)     18372.2  Rx     19F8051C  8  C5 5F 00 A8 00 FC 0F 00 
   598)     18372.8  Rx     19F8051C  8  C6 00 01 AF 02 58 02 FF 
   599)     18383.8  Rx     18EFCD1C  8  A0 00 2A 00 00 00 00 00 
   600)     18402.6  Rx     18EFCD1C  8  A0 00 1B 00 00 00 00 00 
   601)     18422.6  Rx     18EFCD1C  8  A0 00 00 00 00 00 00 00 
   602)     18562.5  Rx     18EFCD1C  8  A0 00 14 00 00 00 00 00 
   603)     18583.6  Rx     18EFCD1C  8  A0 00 2A 00 00 00 00 00 
   604)     18603.6  Rx     18EFCD1C  8  A0 00 1B 00 00 00 00 00 
   605)     18622.5  Rx     18EFCD1C  8  A0 00 00 00 00 00 00 00 
   606)     18762.4  Rx     18EFCD1C  8  A0 00 14 00 00 00 00 00 
   607)     18782.4  Rx     18EFCD1C  8  A0 00 2A 00 00 00 00 00 
   608)     18803.7  Rx     18EFCD1C  8  A0 00 1B 00 00 00 00 00 
   609)     18822.4  Rx     18EFCD1C  8  A0 00 00 00 00 00 00 00 
   610)     18962.4  Rx     18EFCD1C  8  A0 00 14 00 00 00 00 00 
   611)     18982.3  Rx     18EFCD1C  8  A0 00 2A 00 00 00 00 00 
   612)     19002.3  Rx     18EFCD1C  8  A0 00 1B 00 00 00 00 00 
   613)     19023.9  Rx     18EFCD1C  8  A0 00 00 00 00 00 00 00 
   614)     19162.3  Rx     18EFCD1C  8  A0 00 14 00 00 00 00 00 
   615)     19182.3  Rx     18EFCD1C  8  A0 00 2A 00 00 00 00 00 
   616)     19202.3  Rx     18EFCD1C  8  A0 00 1B 00 00 00 00 00 
   617)     19222.8  Rx     18EFCD1C  8  A0 00 00 00 00 00 00 00 
   618)     19363.7  Rx     18FEF31C  8  B5 28 80 99 99 D0 2C 89 
   619)     19364.3  Rx     18FEE81C  8  FD 38 07 00 00 00 30 51 
   620)     19364.9  Rx     18FEE61C  8  D5 20 0C 09 57 29 00 00 
   621)     19365.5  Rx     19F8021C  8  7B FC B5 4D 00 00 FF FF 
   622)     19366.1  Rx     18EFCD1C  8  A0 00 14 00 00 00 00 00 
   623)     19369.9  Rx     19F8051C  8  E0 2F 7B EE 50 18 EB EC 
   624)     19370.5  Rx     19F8051C  8  E1 1A 40 6D 81 A8 B9 A6 
   625)     19371.0  Rx     19F8051C  8  E2 98 06 C0 68 93 83 66 
   626)     19371.6  Rx     19F8051C  8  E3 92 CB 02 2C 1B 48 08 
   627)     19372.2  Rx     19F8051C  8  E4 00 00 00 00 40 00 0D 
   628)     19372.8  Rx     19F8051C  8  E5 5F 00 A8 00 FC 0F 00 
   629)     19373.4  Rx     19F8051C  8  E6 00 01 AF 02 BC 02 FF 
   630)     19382.2  Rx     18EFCD1C  8  A0 00 2A 00 00 00 00 00 
   631)     19402.2  Rx     18EFCD1C  8  A0 00 1B 00 00 00 00 00 
   632)     19422.2  Rx     18EFCD1C  8  A0 00 00 00 00 00 00 00 
   633)     19562.2  Rx     18EFCD1C  8  A0 00 14 00 00 00 00 00 
   634)     19582.2  Rx     18EFCD1C  8  A0 00 2A 00 00 00 00 00 
   635)     19602.2  Rx     18EFCD1C  8  A0 00 1B 00 00 00 00 00 
   636)     19622.2  Rx     18EFCD1C  8  A0 00 00 00 00 00 00 00 
   637)     19622.6  Rx     18EFCD1C  4  01 CD 1B 00 
   638)     19762.2  Rx     18EFCD1C  8  A0 00 14 00 00 00 00 00 
   639)     19782.2  Rx     18EFCD1C  8  A0 00 2A 00 00 00 00 00 
   640)     19802.2  Rx     18EFCD1C  8  A0 00 1B 00 00 00 00 00 
   641)     19822.2  Rx     18EFCD1C  8  A0 00 00 00 00 00 00 00 
   642)     19962.2  Rx     18EFCD1C  8  A0 00 14 00 00 00 00 00 
   643)     19982.2  Rx     18EFCD1C  8  A0 00 2A 00 00 00 00 00 
   644)     20002.2  Rx     18EFCD1C  8  A0 00 1B 00 00 00 00 00 
   645)     20022.2  Rx     18EFCD1C  8  A0 00 00 00 00 00 00 00 
   646)     20162.2  Rx     18EFCD1C  8  A0 00 14 00 00 00 00 00 
   647)     20182.2  Rx     18EFCD1C  8  A0 00 2A 00 00 00 00 00 
   648)     20202.1  Rx     18EFCD1C  8  A0 00 1B 00 00 00 00 00 
   649)     20222.2  Rx     18EFCD1C  8  A0 00 00 00 00 00 00 00 
   650)     20363.6  Rx     18FEF31C  8  B5 28 80 99 98 D0 2C 89 
   651)     20364.8  Rx     18FEE81C  8  FD 38 09 00 00 00 30 51 
   652)     20365.4  Rx     18FEE61C  8  D9 20 0C 09 57 29 00 00 
   653)     20366.0  Rx     19F8021C  8  80 FC B5 4D 00 00 FF FF 
   654)     20366.6  Rx     18EFCD1C  8  A0 00 14 00 00 00 00 00 
   655)     20369.1  Rx     19F8051C  8  00 2F 80 EE 50 28 12 ED 
   656)     20369.7  Rx     19F8051C  8  01 1A 40 68 2A AE B9 A6 
   657)     20370.3  Rx     19F8051C  8  02 98 06 20 00 55 5A 66 
   658)     20370.9  Rx     19F8051C  8  03 92 CB 02 6F FF 47 08 
   659)     20371.4  Rx     19F8051C  8  04 00 00 00 00 40 00 0D 
   660)     20372.0  Rx     19F8051C  8  05 5F 00 A8 00 FC 0F 00 
   661)     20372.6  Rx     19F8051C  8  06 00 01 AF 02 20 03 FF 
   662)     20382.1  Rx     18EFCD1C  8  A0 00 2A 00 00 00 00 00 
   663)     20402.1  Rx     18EFCD1C  8  A0 00 1B 00 00 00 00 00 
   664)     20422.1  Rx     18EFCD1C  8  A0 00 00 00 00 00 00 00 
   665)     20507.8  Rx     18EF8F1C  4  01 AE 22 00 
   666)     20562.1  Rx     18EFCD1C  8  A0 00 14 00 00 00 00 00 
   667)     20582.1  Rx     18EFCD1C  8  A0 00 2A 00 00 00 00 00 
   668)     20602.1  Rx     18EFCD1C  8  A0 00 1B 00 00 00 00 00 
   669)     20622.0  Rx     18EFCD1C  8  A0 00 00 00 00 00 00 00 
   670)     20763.2  Rx     18EFCD1C  8  A0 00 14 00 00 00 00 00 
   671)     20782.0  Rx     18EFCD1C  8  A0 00 2A 00 00 00 00 00 
   672)     20802.0  Rx     18EFCD1C  8  A0 00 1B 00 00 00 00 00 
   673)     20822.0  Rx     18EFCD1C  8  A0 00 00 00 00 00 00 00 
   674)     20963.0  Rx     18EFCD1C  8  A0 00 14 00 00 00 00 00 
   675)     20982.0  Rx     18EFCD1C  8  A0 00 2A 00 00 00 00 00 
   676)     21002.0  Rx     18EFCD1C  8  A0 00 1B 00 00 00 00 00 
   677)     21022.0  Rx     18EFCD1C  8  A0 00 00 00 00 00 00 00 
   678)     21162.6  Rx     18EFCD1C  8  A0 00 14 00 00 00 00 00 
   679)     21183.0  Rx     18EFCD1C  8  A0 00 2A 00 00 00 00 00 
   680)     21201.9  Rx     18EFCD1C  8  A0 00 1B 00 00 00 00 00 
   681)     21221.9  Rx     18EFCD1C  8  A0 00 00 00 00 00 00 00 
   682)     21363.5  Rx     18FEF31C  8  B4 28 80 99 98 D0 2C 89 
   683)     21364.1  Rx     18FEE81C  8  FD 38 04 00 00 00 30 51 
   684)     21364.7  Rx     18FEE61C  8  DD 20 0C 09 57 29 00 00 
   685)     21365.3  Rx     19F0101C  8  85 00 EE 50 38 39 ED 1A 
   686)     21365.9  Rx     19F8021C  8  85 FC B5 4D 00 00 FF FF 
   687)     21366.5  Rx     18EFCD1C  8  A0 00 14 00 00 00 00 00 
   688)     21368.3  Rx     19F8051C  8  20 2F 85 EE 50 38 39 ED 
   689)     21368.9  Rx     19F8051C  8  21 1A 00 B8 51 A3 B9 A6 
   690)     21369.5  Rx     19F8051C  8  22 98 06 E0 36 9C 41 66 
   691)     21370.1  Rx     19F8051C  8  23 92 CB 02 3E D4 47 08 
   692)     21370.7  Rx     19F8051C  8  24 00 00 00 00 40 00 0D 
   693)     21371.3  Rx     19F8051C  8  25 5F 00 A8 00 FC 0F 00 
   694)     21371.9  Rx     19F8051C  8  26 00 01 AF 02 F4 01 FF 
   695)     21382.9  Rx     18EFCD1C  8  A0 00 2A 00 00 00 00 00 
   696)     21402.9  Rx     18EFCD1C  8  A0 00 1B 00 00 00 00 00 
   697)     21421.9  Rx     18EFCD1C  8  A0 00 00 00 00 00 00 00 
   698)     21561.8  Rx     18EFCD1C  8  A0 00 14 00 00 00 00 00 
   699)     21581.8  Rx     18EFCD1C  8  A0 00 2A 00 00 00 00 00 
   700)     21603.0  Rx     18EFCD1C  8  A0 00 1B 00 00 00 00 00 
   701)     21623.1  Rx     18EFCD1C  8  A0 00 00 00 00 00 00 00 
   702)     21623.5  Rx     18EFCD1C  4  01 CE 1B 00 
   703)     21761.8  Rx     18EFCD1C  8  A0 00 14 00 00 00 00 00 
   704)     21781.7  Rx     18EFCD1C  8  A0 00 2A 00 00 00 00 00 
   705)     21801.8  Rx     18EFCD1C  8  A0 00 1B 00 00 00 00 00 
   706)     21823.3  Rx     18EFCD1C  8  A0 00 00 00 00 00 00 00 
   707)     21961.7  Rx     18EFCD1C  8  A0 00 14 00 00 00 00 00 
   708)     21981.6  Rx     18EFCD1C  8  A0 00 2A 00 00 00 00 00 
   709)     22001.7  Rx     18EFCD1C  8  A0 00 1B 00 00 00 00 00 
   710)     22021.7  Rx     18EFCD1C  8  A0 00 00 00 00 00 00 00 
   711)     22161.6  Rx     18EFCD1C  8  A0 00 14 00 00 00 00 00 
   712)     22181.5  Rx     18EFCD1C  8  A0 00 2A 00 00 00 00 00 
   713)     22201.5  Rx     18EFCD1C  8  A0 00 1B 00 00 00 00 00 
   714)     22221.5  Rx     18EFCD1C  8  A0 00 00 00 00 00 00 00 
   715)     22363.0  Rx     18FEF31C  8  B4 28 80 99 97 D0 2C 89 
   716)     22363.6  Rx     18FEE81C  8  FD 38 05 00 00 00 2F 51 
   717)     22364.2  Rx     18FEE61C  8  E1 20 0C 09 57 29 00 00 
   718)     22364.8  Rx     19F8021C  8  8A FC B5 4D 00 00 FF FF 
   719)     22365.4  Rx     18EFCD1C  8  A0 00 14 00 00 00 00 00 
   720)     22368.3  Rx     19F8051C  8  40 2F 8A EE 50 48 60 ED 
   721)     22368.9  Rx     19F8051C  8  41 1A 80 17 05 A1 B9 A6 
   722)     22369.5  Rx     19F8051C  8  42 98 06 20 F7 A6 2E 66 
   723)     22370.1  Rx     19F8051C  8  43 92 CB 02 73 C3 47 08 
   724)     22370.7  Rx     19F8051C  8  44 00 00 00 00 40 00 0D 
   725)     22371.3  Rx     19F8051C  8  45 5F 00 A8 00 FC 0F 00 
   726)     22371.9  Rx     19F8051C  8  46 00 01 AF 02 58 02 FF 
   727)     22381.5  Rx     18EFCD1C  8  A0 00 2A 00 00 00 00 00 
   728)     22401.5  Rx     18EFCD1C  8  A0 00 1B 00 00 00 00 00 
   729)     22421.5  Rx     18EFCD1C  8  A0 00 00 00 00 00 00 00 
   730)     22561.5  Rx     18EFCD1C  8  A0 00 14 00 00 00 00 00 
   731)     22581.4  Rx     18EFCD1C  8  A0 00 2A 00 00 00 00 00 
   732)     22601.4  Rx     18EFCD1C  8  A0 00 1B 00 00 00 00 00 
   733)     22621.4  Rx     18EFCD1C  8  A0 00 00 00 00 00 00 00 
   734)     22707.1  Rx     18EF8F1C  4  01 AF 22 00 
   735)     22761.4  Rx     18EFCD1C  8  A0 00 14 00 00 00 00 00 
   736)     22781.4  Rx     18EFCD1C  8  A0 00 2A 00 00 00 00 00 
   737)     22801.4  Rx     18EFCD1C  8  A0 00 1B 00 00 00 00 00 
   738)     22821.4  Rx     18EFCD1C  8  A0 00 00 00 00 00 00 00 
   739)     22961.4  Rx     18EFCD1C  8  A0 00 14 00 00 00 00 00 
   740)     22981.4  Rx     18EFCD1C  8  A0 00 2A 00 00 00 00 00 
   741)     23001.4  Rx     18EFCD1C  8  A0 00 1B 00 00 00 00 00 
   742)     23021.4  Rx     18EFCD1C  8  A0 00 00 00 00 00 00 00 
   743)     23161.4  Rx     18EFCD1C  8  A0 00 14 00 00 00 00 00 
   744)     23181.3  Rx     18EFCD1C  8  A0 00 2A 00 00 00 00 00 
   745)     23201.4  Rx     18EFCD1C  8  A0 00 1B 00 00 00 00 00 
   746)     23221.3  Rx     18EFCD1C  8  A0 00 00 00 00 00 00 00 
   747)     23364.0  Rx     18FEF31C  8  B4 28 80 99 97 D0 2C 89 
   748)     23364.6  Rx     18FEE81C  8  FD 38 08 00 00 00 2F 51 
   749)     23365.2  Rx     18FEE61C  8  E5 20 0C 09 57 29 00 00 
   750)     23365.8  Rx     19F8021C  8  8F FC B5 4D 00 00 FF FF 
   751)     23366.4  Rx     18EFCD1C  8  A0 00 14 00 00 00 00 00 
   752)     23368.4  Rx     19F8051C  8  60 2F 8F EE 50 58 87 ED 
   753)     23369.0  Rx     19F8051C  8  61 1A 00 45 7D 96 B9 A6 
   754)     23369.6  Rx     19F8051C  8  62 98 06 00 0E B6 1E 66 
   755)     23370.2  Rx     19F8051C  8  63 92 CB 02 9D BB 47 08 
   756)     23370.7  Rx     19F8051C  8  64 00 00 00 00 40 00 0D 
   757)     23371.3  Rx     19F8051C  8  65 5F 00 A8 00 FC 0F 00 
   758)     23371.9  Rx     19F8051C  8  66 00 01 AF 02 BC 02 FF 
   759)     23381.3  Rx     18EFCD1C  8  A0 00 2A 00 00 00 00 00 
   760)     23401.3  Rx     18EFCD1C  8  A0 00 1B 00 00 00 00 00 
   761)     23421.4  Rx     18EFCD1C  8  A0 00 00 00 00 00 00 00 
   762)     23562.4  Rx     18EFCD1C  8  A0 00 14 00 00 00 00 00 
   763)     23581.3  Rx     18EFCD1C  8  A0 00 2A 00 00 00 00 00 
   764)     23601.3  Rx     18EFCD1C  8  A0 00 1B 00 00 00 00 00 
   765)     23621.3  Rx     18EFCD1C  8  A0 00 00 00 00 00 00 00 
   766)     23641.1  Rx     18EFCD1C  4  01 CF 1B 00 
   767)     23762.2  Rx     18EFCD1C  8  A0 00 14 00 00 00 00 00 
   768)     23782.4  Rx     18EFCD1C  8  A0 00 2A 00 00 00 00 00 
   769)     23801.3  Rx     18EFCD1C  8  A0 00 1B 00 00 00 00 00 
   770)     23821.3  Rx     18EFCD1C  8  A0 00 00 00 00 00 00 00 
   771)     23961.9  Rx     18EFCD1C  8  A0 00 14 00 00 00 00 00 
   772)     23982.3  Rx     18EFCD1C  8  A0 00 2A 00 00 00 00 00 
   773)     24001.2  Rx     18EFCD1C  8  A0 00 1B 00 00 00 00 00 
   774)     24021.2  Rx     18EFCD1C  8  A0 00 00 00 00 00 00 00 
   775)     24161.1  Rx     18EFCD1C  8  A0 00 14 00 00 00 00 00 
   776)     24181.8  Rx     18EFCD1C  8  A0 00 2A 00 00 00 00 00 
   777)     24202.3  Rx     18EFCD1C  8  A0 00 1B 00 00 00 00 00 
   778)     24221.1  Rx     18EFCD1C  8  A0 00 00 00 00 00 00 00 
   779)     24362.5  Rx     18FEF31C  8  B4 28 80 99 96 D0 2C 89 
   780)     24363.1  Rx     18FEE81C  8  FD 38 0A 00 00 00 2F 51 
   781)     24363.7  Rx     18FEE61C  8  E9 20 0C 09 57 29 00 00 
   782)     24364.3  Rx     19F8021C  8  94 FC B5 4D 00 00 FF FF 
   783)     24364.9  Rx     18EFCD1C  8  A0 00 14 00 00 00 00 00 
   784)     24366.9  Rx     19F8051C  8  80 2F 94 EE 50 68 AE ED 
   785)     24367.5  Rx     19F8051C  8  81 1A 00 82 35 8B B9 A6 
   786)     24368.1  Rx     19F8051C  8  82 98 06 E0 59 48 EF 65 
   787)     24368.6  Rx     19F8051C  8  83 92 CB 02 89 96 47 08 
   788)     24369.3  Rx     19F8051C  8  84 00 00 00 00 40 00 0D 
   789)     24369.9  Rx     19F8051C  8  85 5F 00 A8 00 FC 0F 00 
   790)     24370.5  Rx     19F8051C  8  86 00 01 AF 02 20 03 FF 
   791)     24381.1  Rx     18EFCD1C  8  A0 00 2A 00 00 00 00 00 
   792)     24402.0  Rx     18EFCD1C  8  A0 00 1B 00 00 00 00 00 
   793)     24422.3  Rx     18EFCD1C  8  A0 00 00 00 00 00 00 00 
   794)     24561.0  Rx     18EFCD1C  8  A0 00 14 00 00 00 00 00 
   795)     24581.0  Rx     18EFCD1C  8  A0 00 2A 00 00 00 00 00 
   796)     24601.0  Rx     18EFCD1C  8  A0 00 1B 00 00 00 00 00 
   797)     24621.9  Rx     18EFCD1C  8  A0 00 00 00 00 00 00 00 
   798)     24761.0  Rx     18EFCD1C  8  A0 00 14 00 00 00 00 00 
   799)     24780.9  Rx     18EFCD1C  8  A0 00 2A 00 00 00 00 00 
   800)     24800.9  Rx     18EFCD1C  8  A0 00 1B 00 00 00 00 00 
   801)     24821.0  Rx     18EFCD1C  8  A0 00 00 00 00 00 00 00 
   802)     24907.3  Rx     18EF8F1C  4  01 B0 22 00 
   803)     24961.0  Rx     18EFCD1C  8  A0 00 14 00 00 00 00 00 
   804)     24980.9  Rx     18EFCD1C  8  A0 00 2A 00 00 00 00 00 
   805)     25001.0  Rx     18EFCD1C  8  A0 00 1B 00 00 00 00 00 
   806)     25020.9  Rx     18EFCD1C  8  A0 00 00 00 00 00 00 00 
   807)     25160.9  Rx     18EFCD1C  8  A0 00 14 00 00 00 00 00 
   808)     25180.9  Rx     18EFCD1C  8  A0 00 2A 00 00 00 00 00 
   809)     25200.9  Rx     18EFCD1C  8  A0 00 1B 00 00 00 00 00 
   810)     25220.9  Rx     18EFCD1C  8  A0 00 00 00 00 00 00 00 
   811)     25362.5  Rx     18FEF31C  8  B4 28 80 99 97 D0 2C 89 
   812)     25363.1  Rx     18FEE81C  8  FD 38 10 00 00 00 2F 51 
   813)     25363.7  Rx     18FEE61C  8  ED 20 0C 09 57 29 00 00 
   814)     25364.3  Rx     19F8021C  8  99 FC B5 4D 00 00 FF FF 
   815)     25364.9  Rx     18EFCD1C  8  A0 00 14 00 00 00 00 00 
   816)     25368.1  Rx     19F8051C  8  A0 2F 99 EE 50 78 D5 ED 
   817)     25368.6  Rx     19F8051C  8  A1 1A 80 3E FD 91 B9 A6 
   818)     25369.2  Rx     19F8051C  8  A2 98 06 80 FC DB 32 66 
   819)     25369.8  Rx     19F8051C  8  A3 92 CB 02 F7 B3 47 08 
   820)     25370.4  Rx     19F8051C  8  A4 00 00 00 00 40 00 0D 
   821)     25371.0  Rx     19F8051C  8  A5 5F 00 A8 00 FC 0F 00 
   822)     25371.6  Rx     19F8051C  8  A6 00 01 AF 02 F4 01 FF 
   823)     25380.9  Rx     18EFCD1C  8  A0 00 2A 00 00 00 00 00 
   824)     25400.9  Rx     18EFCD1C  8  A0 00 1B 00 00 00 00 00 
   825)     25420.9  Rx     18EFCD1C  8  A0 00 00 00 00 00 00 00 
   826)     25560.9  Rx     18EFCD1C  8  A0 00 14 00 00 00 00 00 
   827)     25580.9  Rx     18EFCD1C  8  A0 00 2A 00 00 00 00 00 
   828)     25600.9  Rx     18EFCD1C  8  A0 00 1B 00 00 00 00 00 
   829)     25620.9  Rx     18EFCD1C  8  A0 00 00 00 00 00 00 00 
   830)     25660.7  Rx     18EFCD1C  4  01 D0 1B 00 
   831)     25760.8  Rx     18EFCD1C  8  A0 00 14 00 00 00 00 00 
   832)     25780.9  Rx     18EFCD1C  8  A0 00 2A 00 00 00 00 00 
   833)     25800.9  Rx     18EFCD1C  8  A0 00 1B 00 00 00 00 00 
   834)     25820.9  Rx     18EFCD1C  8  A0 00 00 00 00 00 00 00 
   835)     25960.9  Rx     18EFCD1C  8  A0 00 14 00 00 00 00 00 
   836)     25980.9  Rx     18EFCD1C  8  A0 00 2A 00 00 00 00 00 
   837)     26000.8  Rx     18EFCD1C  8  A0 00 1B 00 00 00 00 00 
   838)     26020.8  Rx     18EFCD1C  8  A0 00 00 00 00 00 00 00 
   839)     26160.8  Rx     18EFCD1C  8  A0 00 14 00 00 00 00 00 
   840)     26180.8  Rx     18EFCD1C  8  A0 00 2A 00 00 00 00 00 
   841)     26200.8  Rx     18EFCD1C  8  A0 00 1B 00 00 00 00 00 
   842)     26220.8  Rx     18EFCD1C  8  A0 00 00 00 00 00 00 00 
   843)     26363.4  Rx     18FEF31C  8  B4 28 80 99 98 D0 2C 89 
   844)     26364.0  Rx     18FEE81C  8  FD 38 08 00 00 00 30 51 
   845)     26364.6  Rx     18FEE61C  8  01 21 0C 09 57 29 00 00 
   846)     26365.2  Rx     19F0101C  8  9E 00 EE 50 88 FC ED 1A 
   847)     26365.8  Rx     19F8021C  8  9E FC B5 4D 00 00 FF FF 
   848)     26366.4  Rx     18EFCD1C  8  A0 00 14 00 00 00 00 00 
   849)     26368.4  Rx     19F8051C  8  C0 2F 9E EE 50 88 FC ED 
   850)     26368.9  Rx     19F8051C  8  C1 1A 80 6D C4 A2 B9 A6 
   851)     26369.5  Rx     19F8051C  8  C2 98 06 40 93 83 43 66 
   852)     26370.1  Rx     19F8051C  8  C3 92 CB 02 8C F2 47 08 
   853)     26370.7  Rx     19F8051C  8  C4 00 00 00 00 40 00 0D 
   854)     26371.3  Rx     19F8051C  8  C5 5F 00 A8 00 FC 0F 00 
   855)     26371.9  Rx     19F8051C  8  C6 00 01 AF 02 58 02 FF 
   856)     26380.8  Rx     18EFCD1C  8  A0 00 2A 00 00 00 00 00 
   857)     26400.8  Rx     18EFCD1C  8  A0 00 1B 00 00 00 00 00 
   858)     26420.7  Rx     18EFCD1C  8  A0 00 00 00 00 00 00 00 
   859)     26561.2  Rx     18EFCD1C  8  A0 00 14 00 00 00 00 00 
   860)     26582.0  Rx     18EFCD1C  8  A0 00 2A 00 00 00 00 00 
   861)     26600.7  Rx     18EFCD1C  8  A0 00 1B 00 00 00 00 00 
   862)     26620.7  Rx     18EFCD1C  8  A0 00 00 00 00 00 00 00 
   863)     26760.7  Rx     18EFCD1C  8  A0 00 14 00 00 00 00 00 
   864)     26781.3  Rx     18EFCD1C  8  A0 00 2A 00 00 00 00 00 
   865)     26801.9  Rx     18EFCD1C  8  A0 00 1B 00 00 00 00 00 
   866)     26820.7  Rx     18EFCD1C  8  A0 00 00 00 00 00 00 00 
   867)     26960.7  Rx     18EFCD1C  8  A0 00 14 00 00 00 00 00 
   868)     26980.8  Rx     18EFCD1C  8  A0 00 2A 00 00 00 00 00 
   869)     27001.4  Rx     18EFCD1C  8  A0 00 1B 00 00 00 00 00 
   870)     27021.9  Rx     18EFCD1C  8  A0 00 00 00 00 00 00 00 
   871)     27106.3  Rx     18EF8F1C  4  01 B1 22 00 
   872)     27160.7  Rx     18EFCD1C  8  A0 00 14 00 00 00 00 00 
   873)     27180.6  Rx     18EFCD1C  8  A0 00 2A 00 00 00 00 00 
   874)     27201.1  Rx     18EFCD1C  8  A0 00 1B 00 00 00 00 00 
   875)     27221.7  Rx     18EFCD1C  8  A0 00 00 00 00 00 00 00 
   876)     27362.1  Rx     18FEF31C  8  B4 28 80 99 98 D0 2C 89 
   877)     27362.7  Rx     18FEE81C  8  FD 38 10 00 00 00 30 51 
   878)     27363.3  Rx     18FEE61C  8  05 21 0C 09 57 29 00 00 
   879)     27363.9  Rx     19F8021C  8  A3 FC B5 4D 00 00 FF FF 
   880)     27364.5  Rx     18EFCD1C  8  A0 00 14 00 00 00 00 00 
   881)     27366.5  Rx     19F8051C  8  E0 2F A3 EE 50 98 23 EE 
   882)     27367.6  Rx     19F8051C  8  E1 1A 80 01 01 8C B9 A6 
   883)     27368.2  Rx     19F8051C  8  E2 98 06 40 23 D5 33 66 
   884)     27368.7  Rx     19F8051C  8  E3 92 CB 02 99 D2 47 08 
   885)     27369.4  Rx     19F8051C  8  E4 00 00 00 00 40 00 0D 
   886)     27370.0  Rx     19F8051C  8  E5 5F 00 A8 00 FC 0F 00 
   887)     27370.6  Rx     19F8051C  8  E6 00 01 AF 02 BC 02 FF 
   888)     27380.6  Rx     18EFCD1C  8  A0 00 2A 00 00 00 00 00 
   889)     27400.6  Rx     18EFCD1C  8  A0 00 1B 00 00 00 00 00 
   890)     27421.1  Rx     18EFCD1C  8  A0 00 00 00 00 00 00 00 
   891)     27560.6  Rx     18EFCD1C  8  A0 00 14 00 00 00 00 00 
   892)     27580.6  Rx     18EFCD1C  8  A0 00 2A 00 00 00 00 00 
   893)     27600.6  Rx     18EFCD1C  8  A0 00 1B 00 00 00 00 00 
   894)     27620.6  Rx     18EFCD1C  8  A0 00 00 00 00 00 00 00 
   895)     27661.5  Rx     18EFCD1C  4  01 D1 1B 00 
   896)     27760.6  Rx     18EFCD1C  8  A0 00 14 00 00 00 00 00 
   897)     27780.5  Rx     18EFCD1C  8  A0 00 2A 00 00 00 00 00 
   898)     27800.6  Rx     18EFCD1C  8  A0 00 1B 00 00 00 00 00 
   899)     27820.6  Rx     18EFCD1C  8  A0 00 00 00 00 00 00 00 
   900)     27960.6  Rx     18EFCD1C  8  A0 00 14 00 00 00 00 00 
   901)     27980.6  Rx     18EFCD1C  8  A0 00 2A 00 00 00 00 00 
   902)     28000.6  Rx     18EFCD1C  8  A0 00 1B 00 00 00 00 00 
   903)     28020.6  Rx     18EFCD1C  8  A0 00 00 00 00 00 00 00 
   904)     28160.6  Rx     18EFCD1C  8  A0 00 14 00 00 00 00 00 
   905)     28180.6  Rx     18EFCD1C  8  A0 00 2A 00 00 00 00 00 
   906)     28200.6  Rx     18EFCD1C  8  A0 00 1B 00 00 00 00 00 
   907)     28220.6  Rx     18EFCD1C  8  A0 00 00 00 00 00 00 00 
   908)     28362.1  Rx     18FEF31C  8  B4 28 80 99 97 D0 2C 89 
   909)     28362.6  Rx     18FEE81C  8  FD 38 0C 00 00 00 30 51 
   910)     28363.2  Rx     18FEE61C  8  09 21 0C 09 57 29 00 00 
   911)     28363.8  Rx     19F8021C  8  A8 FC B5 4D 00 00 FF FF 
   912)     28364.4  Rx     18EFCD1C  8  A0 00 14 00 00 00 00 00 
   913)     28367.6  Rx     19F8051C  8  00 2F A8 EE 50 A8 4A EE 
   914)     28368.2  Rx     19F8051C  8  01 1A 80 58 21 90 B9 A6 
   915)     28368.8  Rx     19F8051C  8  02 98 06 80 CB 57 0B 66 
   916)     28369.4  Rx     19F8051C  8  03 92 CB 02 93 E7 47 08 
   917)     28370.0  Rx     19F8051C  8  04 00 00 00 00 40 00 0D 
   918)     28370.6  Rx     19F8051C  8  05 5F 00 A8 00 FC 0F 00 
   919)     28371.2  Rx     19F8051C  8  06 00 01 AF 02 20 03 FF 
   920)     28380.5  Rx     18EFCD1C  8  A0 00 2A 00 00 00 00 00 
   921)     28400.6  Rx     18EFCD1C  8  A0 00 1B 00 00 00 00 00 
   922)     28420.5  Rx     18EFCD1C  8  A0 00 00 00 00 00 00 00 
   923)     28560.5  Rx     18EFCD1C  8  A0 00 14 00 00 00 00 00 
   924)     28580.5  Rx     18EFCD1C  8  A0 00 2A 00 00 00 00 00 
   925)     28600.5  Rx     18EFCD1C  8  A0 00 1B 00 00 00 00 00 
   926)     28620.5  Rx     18EFCD1C  8  A0 00 00 00 00 00 00 00 
   927)     28760.5  Rx     18EFCD1C  8  A0 00 14 00 00 00 00 00 
   928)     28780.5  Rx     18EFCD1C  8  A0 00 2A 00 00 00 00 00 
   929)     28800.6  Rx     18EFCD1C  8  A0 00 1B 00 00 00 00 00 
   930)     28820.5  Rx     18EFCD1C  8  A0 00 00 00 00 00 00 00 
   931)     28962.4  Rx     18EFCD1C  8  A0 00 14 00 00 00 00 00 
   932)     28980.5  Rx     18EFCD1C  8  A0 00 2A 00 00 00 00 00 
   933)     29000.5  Rx     18EFCD1C  8  A0 00 1B 00 00 00 00 00 
   934)     29020.5  Rx     18EFCD1C  8  A0 00 00 00 00 00 00 00 
   935)     29161.4  Rx     18EFCD1C  8  A0 00 14 00 00 00 00 00 
   936)     29180.4  Rx     18EFCD1C  8  A0 00 2A 00 00 00 00 00 
   937)     29200.4  Rx     18EFCD1C  8  A0 00 1B 00 00 00 00 00 
   938)     29220.4  Rx     18EFCD1C  8  A0 00 00 00 00 00 00 00 
   939)     29304.8  Rx     18EF8F1C  4  01 B2 22 00 
   940)     29361.8  Rx     18FEF31C  8  B5 28 80 99 97 D0 2C 89 
   941)     29362.4  Rx     18FEE81C  8  FD 38 0D 00 00 00 30 51 
   942)     29363.0  Rx     18FEE61C  8  0D 21 0C 09 57 29 00 00 
   943)     29363.6  Rx     19F8021C  8  AD FC B5 4D 00 00 FF FF 
   944)     29364.2  Rx     18EFCD1C  8  A0 00 14 00 00 00 00 00 
   945)     29366.2  Rx     19F8051C  8  20 2F AD EE 50 B8 71 EE 
   946)     29366.8  Rx     19F8051C  8  21 1A 40 39 60 A8 B9 A6 
   947)     29367.4  Rx     19F8051C  8  22 98 06 A0 9A B3 1B 66 
   948)     29368.0  Rx     19F8051C  8  23 92 CB 02 8B 0F 48 08 
   949)     29368.6  Rx     19F8051C  8  24 00 00 00 00 40 00 0D 
   950)     29369.2  Rx     19F8051C  8  25 5F 00 A8 00 FC 0F 00 
   951)     29369.8  Rx     19F8051C  8  26 00 01 AF 02 F4 01 FF 
   952)     29381.4  Rx     18EFCD1C  8  A0 00 2A 00 00 00 00 00 
   953)     29400.4  Rx     18EFCD1C  8  A0 00 1B 00 00 00 00 00 
   954)     29420.3  Rx     18EFCD1C  8  A0 00 00 00 00 00 00 00 
   955)     29560.3  Rx     18EFCD1C  8  A0 00 14 00 00 00 00 00 
   956)     29580.3  Rx     18EFCD1C  8  A0 00 2A 00 00 00 00 00 
   957)     29601.4  Rx     18EFCD1C  8  A0 00 1B 00 00 00 00 00 
   958)     29620.3  Rx     18EFCD1C  8  A0 00 00 00 00 00 00 00 
   959)     29680.1  Rx     18EFCD1C  4  01 D2 1B 00 
   960)     29760.2  Rx     18EFCD1C  8  A0 00 14 00 00 00 00 00 
   961)     29780.3  Rx     18EFCD1C  8  A0 00 2A 00 00 00 00 00 
   962)     29800.5  Rx     18EFCD1C  8  A0 00 1B 00 00 00 00 00 
   963)     29821.3  Rx     18EFCD1C  8  A0 00 00 00 00 00 00 00 
   964)     29960.3  Rx     18EFCD1C  8  A0 00 14 00 00 00 00 00 
   965)     29980.3  Rx     18EFCD1C  8  A0 00 2A 00 00 00 00 00 
   966)     30000.5  Rx     18EFCD1C  8  A0 00 1B 00 00 00 00 00 
   967)     30021.2  Rx     18EFCD1C  8  A0 00 00 00 00 00 00 00 
   968)     30160.3  Rx     18EFCD1C  8  A0 00 14 00 00 00 00 00 
   969)     30180.3  Rx     18EFCD1C  8  A0 00 2A 00 00 00 00 00 
   970)     30200.3  Rx     18EFCD1C  8  A0 00 1B 00 00 00 00 00 
   971)     30220.9  Rx     18EFCD1C  8  A0 00 00 00 00 00 00 00 
   972)     30361.8  Rx     18FEF31C  8  B5 28 80 99 98 D0 2C 89 
   973)     30362.4  Rx     18FEE81C  8  FD 38 04 00 00 00 30 51 
   974)     30363.0  Rx     18FEE61C  8  11 21 0C 09 57 29 00 00 
   975)     30363.6  Rx     19F8021C  8  B2 FC B5 4D 00 00 FF FF 
   976)     30364.2  Rx     18EFCD1C  8  A0 00 14 00 00 00 00 00 
   977)     30367.3  Rx     19F8051C  8  40 2F B2 EE 50 C8 98 EE 
   978)     30367.9  Rx     19F8051C  8  41 1A 00 5F F9 B4 B9 A6 
   979)     30368.5  Rx     19F8051C  8  42 98 06 60 9D 40 3B 66 
   980)     30369.1  Rx     19F8051C  8  43 92 CB 02 49 FB 47 08 
   981)     30369.7  Rx     19F8051C  8  44 00 00 00 00 40 00 0D 
   982)     30370.2  Rx     19F8051C  8  45 5F 00 A8 00 FC 0F 00 
   983)     30370.8  Rx     19F8051C  8  46 00 01 AF 02 58 02 FF 
   984)     30380.3  Rx     18EFCD1C  8  A0 00 2A 00 00 00 00 00 
   985)     30400.2  Rx     18EFCD1C  8  A0 00 1B 00 00 00 00 00 
   986)     30420.2  Rx     18EFCD1C  8  A0 00 00 00 00 00 00 00 
   987)     30560.2  Rx     18EFCD1C  8  A0 00 14 00 00 00 00 00 
   988)     30580.2  Rx     18EFCD1C  8  A0 00 2A 00 00 00 00 00 
   989)     30600.2  Rx     18EFCD1C  8  A0 00 1B 00 00 00 00 00 
   990)     30620.2  Rx     18EFCD1C  8  A0 00 00 00 00 00 00 00 
   991)     30760.2  Rx     18EFCD1C  8  A0 00 14 00 00 00 00 00 
   992)     30780.2  Rx     18EFCD1C  8  A0 00 2A 00 00 00 00 00 
   993)     30800.2  Rx     18EFCD1C  8  A0 00 1B 00 00 00 00 00 
   994)     30820.2  Rx     18EFCD1C  8  A0 00 00 00 00 00 00 00 
   995)     30960.2  Rx     18EFCD1C  8  A0 00 14 00 00 00 00 00 
   996)     30980.2  Rx     18EFCD1C  8  A0 00 2A 00 00 00 00 00 
   997)     31000.2  Rx     18EFCD1C  8  A0 00 1B 00 00 00 00 00 
   998)     31020.2  Rx     18EFCD1C  8  A0 00 00 00 00 00 00 00 
   999)     31160.1  Rx     18EFCD1C  8  A0 00 14 00 00 00 00 00 
  1000)     31180.2  Rx     18EFCD1C  8  A0 00 2A 00 00 00 00 00 
  1001)     31200.1  Rx     18EFCD1C  8  A0 00 1B 00 00 00 00 00 
  1002)     31220.1  Rx     18EFCD1C  8  A0 00 00 00 00 00 00 00 
  1003)     31305.8  Rx     18EF8F1C  4  01 B3 22 00 
  1004)     31362.8  Rx     18FEF31C  8  B5 28 80 99 98 D0 2C 89 
  1005)     31363.4  Rx     18FEE81C  8  FD 38 01 00 00 00 30 51 
  1006)     31364.0  Rx     18FEE61C  8  15 21 0C 09 57 29 00 00 
  1007)     31364.6  Rx     19F0101C  8  B7 00 EE 50 D8 BF EE 1A 
  1008)     31365.2  Rx     19F8021C  8  B7 FC B5 4D 00 00 FF FF 
  1009)     31365.8  Rx     18EFCD1C  8  A0 00 14 00 00 00 00 00 
  1010)     31367.7  Rx     19F8051C  8  60 2F B7 EE 50 D8 BF EE 
  1011)     31368.3  Rx     19F8051C  8  61 1A 80 AA 4E B8 B9 A6 
  1012)     31368.9  Rx     19F8051C  8  62 98 06 80 44 CE 57 66 
  1013)     31369.5  Rx     19F8051C  8  63 92 CB 02 1D F2 47 08 
  1014)     31370.1  Rx     19F8051C  8  64 00 00 00 00 40 00 0D 
  1015)     31370.7  Rx     19F8051C  8  65 5F 00 A8 00 FC 0F 00 
  1016)     31371.3  Rx     19F8051C  8  66 00 01 AF 02 BC 02 FF 
  1017)     31380.1  Rx     18EFCD1C  8  A0 00 2A 00 00 00 00 00 
  1018)     31400.1  Rx     18EFCD1C  8  A0 00 1B 00 00 00 00 00 
  1019)     31420.1  Rx     18EFCD1C  8  A0 00 00 00 00 00 00 00 
  1020)     31560.1  Rx     18EFCD1C  8  A0 00 14 00 00 00 00 00 
  1021)     31580.0  Rx     18EFCD1C  8  A0 00 2A 00 00 00 00 00 
  1022)     31600.1  Rx     18EFCD1C  8  A0 00 1B 00 00 00 00 00 
  1023)     31620.0  Rx     18EFCD1C  8  A0 00 00 00 00 00 00 00 
  1024)     31706.3  Rx     18EFCD1C  4  01 D3 1B 00 
  1025)     31761.6  Rx     18EFCD1C  8  A0 00 14 00 00 00 00 00 
  1026)     31780.0  Rx     18EFCD1C  8  A0 00 2A 00 00 00 00 00 
  1027)     31800.0  Rx     18EFCD1C  8  A0 00 1B 00 00 00 00 00 
  1028)     31820.0  Rx     18EFCD1C  8  A0 00 00 00 00 00 00 00 
  1029)     31960.5  Rx     18EFCD1C  8  A0 00 14 00 00 00 00 00 
  1030)     31981.7  Rx     18EFCD1C  8  A0 00 2A 00 00 00 00 00 
  1031)     32000.0  Rx     18EFCD1C  8  A0 00 1B 00 00 00 00 00 
  1032)     32020.0  Rx     18EFCD1C  8  A0 00 00 00 00 00 00 00 
  1033)     32159.9  Rx     18EFCD1C  8  A0 00 14 00 00 00 00 00 
  1034)     32180.9  Rx     18EFCD1C  8  A0 00 2A 00 00 00 00 00 
  1035)     32201.6  Rx     18EFCD1C  8  A0 00 1B 00 00 00 00 00 
  1036)     32219.9  Rx     18EFCD1C  8  A0 00 00 00 00 00 00 00 
  1037)     32361.5  Rx     18FEF31C  8  B5 28 80 99 99 D0 2C 89 
  1038)     32362.1  Rx     18FEE81C  8  FD 38 0B 00 00 00 2F 51 
  1039)     32362.7  Rx     18FEE61C  8  19 21 0C 09 57 29 00 00 
  1040)     32363.3  Rx     19F8021C  8  BC FC B5 4D 00 00 FF FF 
  1041)     32363.9  Rx     18EFCD1C  8  A0 00 14 00 00 00 00 00 
  1042)     32365.9  Rx     19F8051C  8  80 2F BC EE 50 E8 E6 EE 
  1043)     32366.5  Rx     19F8051C  8  81 1A 00 74 AF AD B9 A6 
  1044)     32367.1  Rx     19F8051C  8  82 98 06 40 0D 6A 78 66 
  1045)     32367.7  Rx     19F8051C  8  83 92 CB 02 6A C9 47 08 
  1046)     32368.3  Rx     19F8051C  8  84 00 00 00 00 40 00 0D 
  1047)     32368.9  Rx     19F8051C  8  85 5F 00 A8 00 FC 0F 00 
  1048)     32369.5  Rx     19F8051C  8  86 00 01 AF 02 20 03 FF 
  1049)     32380.0  Rx     18EFCD1C  8  A0 00 2A 00 00 00 00 00 
  1050)     32401.0  Rx     18EFCD1C  8  A0 00 1B 00 00 00 00 00 
  1051)     32419.9  Rx     18EFCD1C  8  A0 00 00 00 00 00 00 00 
  1052)     32559.9  Rx     18EFCD1C  8  A0 00 14 00 00 00 00 00 
  1053)     32579.9  Rx     18EFCD1C  8  A0 00 2A 00 00 00 00 00 
  1054)     32600.0  Rx     18EFCD1C  8  A0 00 1B 00 00 00 00 00 
  1055)     32621.1  Rx     18EFCD1C  8  A0 00 00 00 00 00 00 00 
  1056)     32759.9  Rx     18EFCD1C  8  A0 00 14 00 00 00 00 00 
  1057)     32779.8  Rx     18EFCD1C  8  A0 00 2A 00 00 00 00 00 
  1058)     32799.9  Rx     18EFCD1C  8  A0 00 1B 00 00 00 00 00 
  1059)     32820.1  Rx     18EFCD1C  8  A0 00 00 00 00 00 00 00 
  1060)     32959.8  Rx     18EFCD1C  8  A0 00 14 00 00 00 00 00 
  1061)     32979.8  Rx     18EFCD1C  8  A0 00 2A 00 00 00 00 00 
  1062)     32999.8  Rx     18EFCD1C  8  A0 00 1B 00 00 00 00 00 
  1063)     33019.8  Rx     18EFCD1C  8  A0 00 00 00 00 00 00 00 
  1064)     33159.8  Rx     18EFCD1C  8  A0 00 14 00 00 00 00 00 
  1065)     33179.8  Rx     18EFCD1C  8  A0 00 2A 00 00 00 00 00 
  1066)     33199.8  Rx     18EFCD1C  8  A0 00 1B 00 00 00 00 00 
  1067)     33219.8  Rx     18EFCD1C  8  A0 00 00 00 00 00 00 00 
  1068)     33361.2  Rx     18FEF31C  8  B6 28 80 99 99 D0 2C 89 
  1069)     33361.8  Rx     18FEE81C  8  FD 38 0E 00 00 00 2F 51 
  1070)     33362.4  Rx     18FEE61C  8  1D 21 0C 09 57 29 00 00 
  1071)     33363.0  Rx     19F8021C  8  C1 FC B5 4D 00 00 FF FF 
  1072)     33363.6  Rx     18EFCD1C  8  A0 00 14 00 00 00 00 00 
  1073)     33366.9  Rx     19F8051C  8  A0 2F C1 EE 50 F8 0D EF 
  1074)     33367.5  Rx     19F8051C  8  A1 1A 80 26 A3 E9 B9 A6 
  1075)     33368.0  Rx     19F8051C  8  A2 98 06 60 CF 06 8F 66 
  1076)     33368.6  Rx     19F8051C  8  A3 92 CB 02 98 BA 47 08 
  1077)     33369.2  Rx     19F8051C  8  A4 00 00 00 00 40 00 0D 
  1078)     33369.8  Rx     19F8051C  8  A5 5F 00 A8 00 FC 0F 00 
  1079)     33370.4  Rx     19F8051C  8  A6 00 01 AF 02 F4 01 FF 
  1080)     33379.8  Rx     18EFCD1C  8  A0 00 2A 00 00 00 00 00 
  1081)     33399.8  Rx     18EFCD1C  8  A0 00 1B 00 00 00 00 00 
  1082)     33419.7  Rx     18EFCD1C  8  A0 00 00 00 00 00 00 00 
  1083)     33505.2  Rx     18EF8F1C  4  01 B4 22 00 
  1084)     33559.8  Rx     18EFCD1C  8  A0 00 14 00 00 00 00 00 
  1085)     33579.7  Rx     18EFCD1C  8  A0 00 2A 00 00 00 00 00 
  1086)     33599.7  Rx     18EFCD1C  8  A0 00 1B 00 00 00 00 00 
  1087)     33619.8  Rx     18EFCD1C  8  A0 00 00 00 00 00 00 00 
  1088)     33719.6  Rx     18EFCD1C  4  01 D4 1B 00 
  1089)     33759.7  Rx     18EFCD1C  8  A0 00 14 00 00 00 00 00 
  1090)     33779.8  Rx     18EFCD1C  8  A0 00 2A 00 00 00 00 00 
  1091)     33799.7  Rx     18EFCD1C  8  A0 00 1B 00 00 00 00 00 
  1092)     33819.8  Rx     18EFCD1C  8  A0 00 00 00 00 00 00 00 
  1093)     33959.8  Rx     18EFCD1C  8  A0 00 14 00 00 00 00 00 
  1094)     33979.8  Rx     18EFCD1C  8  A0 00 2A 00 00 00 00 00 
  1095)     33999.8  Rx     18EFCD1C  8  A0 00 1B 00 00 00 00 00 
  1096)     34019.8  Rx     18EFCD1C  8  A0 00 00 00 00 00 00 00 
  1097)     34159.8  Rx     18EFCD1C  8  A0 00 14 00 00 00 00 00 
  1098)     34179.8  Rx     18EFCD1C  8  A0 00 2A 00 00 00 00 00 
  1099)     34199.8  Rx     18EFCD1C  8  A0 00 1B 00 00 00 00 00 
  1100)     34219.8  Rx     18EFCD1C  8  A0 00 00 00 00 00 00 00 
  1101)     34362.1  Rx     18FEF31C  8  B6 28 80 99 99 D0 2C 89 
  1102)     34362.7  Rx     18FEE81C  8  FD 38 0F 00 00 00 2F 51 
  1103)     34363.3  Rx     18FEE61C  8  21 21 0C 09 57 29 00 00 
  1104)     34363.9  Rx     19F8021C  8  C6 FC B5 4D 00 00 FF FF 
  1105)     34364.5  Rx     18EFCD1C  8  A0 00 14 00 00 00 00 00 
  1106)     34366.5  Rx     19F8051C  8  C0 2F C6 EE 50 08 35 EF 
  1107)     34367.1  Rx     19F8051C  8  C1 1A 80 93 92 FC B9 A6 
  1108)     34367.7  Rx     19F8051C  8  C2 98 06 80 4F 48 A6 66 
  1109)     34368.3  Rx     19F8051C  8  C3 92 CB 02 7A 7D 47 08 
  1110)     34368.9  Rx     19F8051C  8  C4 00 00 00 00 40 00 0D 
  1111)     34369.5  Rx     19F8051C  8  C5 5F 00 A8 00 FC 0F 00 
  1112)     34370.1  Rx     19F8051C  8  C6 00 01 AF 02 58 02 FF 
  1113)     34379.7  Rx     18EFCD1C  8  A0 00 2A 00 00 00 00 00 
  1114)     34399.7  Rx     18EFCD1C  8  A0 00 1B 00 00 00 00 00 
  1115)     34419.7  Rx     18EFCD1C  8  A0 00 00 00 00 00 00 00 
  1116)     34561.4  Rx     18EFCD1C  8  A0 00 14 00 00 00 00 00 
  1117)     34579.7  Rx     18EFCD1C  8  A0 00 2A 00 00 00 00 00 
  1118)     34599.7  Rx     18EFCD1C  8  A0 00 1B 00 00 00 00 00 
  1119)     34619.8  Rx     18EFCD1C  8  A0 00 00 00 00 00 00 00 
  1120)     34760.0  Rx     18EFCD1C  8  A0 00 14 00 00 00 00 00 
  1121)     34781.6  Rx     18EFCD1C  8  A0 00 2A 00 00 00 00 00 
  1122)     34799.8  Rx     18EFCD1C  8  A0 00 1B 00 00 00 00 00 
  1123)     34819.8  Rx     18EFCD1C  8  A0 00 00 00 00 00 00 00 
  1124)     34959.8  Rx     18EFCD1C  8  A0 00 14 00 00 00 00 00 
  1125)     34980.4  Rx     18EFCD1C  8  A0 00 2A 00 00 00 00 00 
  1126)     35001.6  Rx     18EFCD1C  8  A0 00 1B 00 00 00 00 00 
  1127)     35019.8  Rx     18EFCD1C  8  A0 00 00 00 00 00 00 00 
  1128)     35159.9  Rx     18EFCD1C  8  A0 00 14 00 00 00 00 00 
  1129)     35179.8  Rx     18EFCD1C  8  A0 00 2A 00 00 00 00 00 
  1130)     35200.6  Rx     18EFCD1C  8  A0 00 1B 00 00 00 00 00 
  1131)     35221.7  Rx     18EFCD1C  8  A0 00 00 00 00 00 00 00 
  1132)     35361.3  Rx     18FEF31C  8  B6 28 80 99 99 D0 2C 89 
  1133)     35361.9  Rx     18FEE81C  8  FD 38 0B 00 00 00 2F 51 
  1134)     35362.5  Rx     18FEE61C  8  25 21 0C 09 57 29 00 00 
  1135)     35363.1  Rx     19F8021C  8  CB FC B5 4D 00 00 FF FF 
  1136)     35363.7  Rx     18EFCD1C  8  A0 00 14 00 00 00 00 00 
  1137)     35365.7  Rx     19F8051C  8  E0 2F CB EE 50 18 5C EF 
  1138)     35366.3  Rx     19F8051C  8  E1 1A C0 3C 9C 07 BA A6 
  1139)     35366.9  Rx     19F8051C  8  E2 98 06 40 B0 D4 A0 66 
  1140)     35367.5  Rx     19F8051C  8  E3 92 CB 02 E0 B2 47 08 
  1141)     35368.1  Rx     19F8051C  8  E4 00 00 00 00 40 00 0D 
  1142)     35368.7  Rx     19F8051C  8  E5 5F 00 A8 00 FC 0F 00 
  1143)     35369.3  Rx     19F8051C  8  E6 00 01 AF 02 BC 02 FF 
  1144)     35379.9  Rx     18EFCD1C  8  A0 00 2A 00 00 00 00 00 
  1145)     35399.9  Rx     18EFCD1C  8  A0 00 1B 00 00 00 00 00 
  1146)     35420.9  Rx     18EFCD1C  8  A0 00 00 00 00 00 00 00 
  1147)     35559.9  Rx     18EFCD1C  8  A0 00 14 00 00 00 00 00 
  1148)     35579.8  Rx     18EFCD1C  8  A0 00 2A 00 00 00 00 00 
  1149)     35599.9  Rx     18EFCD1C  8  A0 00 1B 00 00 00 00 00 
  1150)     35619.9  Rx     18EFCD1C  8  A0 00 00 00 00 00 00 00 
  1151)     35704.6  Rx     18EF8F1C  4  01 B5 22 00 
  1152)     35739.7  Rx     18EFCD1C  4  01 D5 1B 00 
  1153)     35759.9  Rx     18EFCD1C  8  A0 00 14 00 00 00 00 00 
  1154)     35779.9  Rx     18EFCD1C  8  A0 00 2A 00 00 00 00 00 
  1155)     35799.9  Rx     18EFCD1C  8  A0 00 1B 00 00 00 00 00 
  1156)     35819.9  Rx     18EFCD1C  8  A0 00 00 00 00 00 00 00 
  1157)     35959.8  Rx     18EFCD1C  8  A0 00 14 00 00 00 00 00 
  1158)     35979.8  Rx     18EFCD1C  8  A0 00 2A 00 00 00 00 00 
  1159)     35999.9  Rx     18EFCD1C  8  A0 00 1B 00 00 00 00 00 
  1160)     36019.8  Rx     18EFCD1C  8  A0 00 00 00 00 00 00 00 
  1161)     36159.9  Rx     18EFCD1C  8  A0 00 14 00 00 00 00 00 
  1162)     36179.9  Rx     18EFCD1C  8  A0 00 2A 00 00 00 00 00 
  1163)     36199.9  Rx     18EFCD1C  8  A0 00 1B 00 00 00 00 00 
  1164)     36219.9  Rx     18EFCD1C  8  A0 00 00 00 00 00 00 00 
  1165)     36361.6  Rx     18FEF31C  8  B6 28 80 99 99 D0 2C 89 
  1166)     36362.1  Rx     18FEE81C  8  FD 38 05 00 00 00 2F 51 
  1167)     36362.7  Rx     18FEE61C  8  29 21 0C 09 57 29 00 00 
  1168)     36363.3  Rx     19F0101C  8  D0 00 EE 50 28 83 EF 1A 
  1169)     36363.9  Rx     19F8021C  8  D0 FC B5 4D 00 00 FF FF 
  1170)     36364.5  Rx     18EFCD1C  8  A0 00 14 00 00 00 00 00 
  1171)     36367.6  Rx     19F8051C  8  00 2F D0 EE 50 28 83 EF 
  1172)     36368.1  Rx     19F8051C  8  01 1A C0 D9 EE FC B9 A6 
  1173)     36368.7  Rx     19F8051C  8  02 98 06 00 D6 9D 9A 66 
  1174)     36369.3  Rx     19F8051C  8  03 92 CB 02 3F C8 47 08 
  1175)     36369.9  Rx     19F8051C  8  04 00 00 00 00 40 00 0D 
  1176)     36370.5  Rx     19F8051C  8  05 5F 00 A8 00 FC 0F 00 
  1177)     36371.1  Rx     19F8051C  8  06 00 01 AF 02 20 03 FF 
  1178)     36379.9  Rx     18EFCD1C  8  A0 00 2A 00 00 00 00 00 
  1179)     36399.9  Rx     18EFCD1C  8  A0 00 1B 00 00 00 00 00 
  1180)     36419.9  Rx     18EFCD1C  8  A0 00 00 00 00 00 00 00 
  1181)     36559.9  Rx     18EFCD1C  8  A0 00 14 00 00 00 00 00 
  1182)     36579.9  Rx     18EFCD1C  8  A0 00 2A 00 00 00 00 00 
  1183)     36599.9  Rx     18EFCD1C  8  A0 00 1B 00 00 00 00 00 
  1184)     36619.9  Rx     18EFCD1C  8  A0 00 00 00 00 00 00 00 
  1185)     36759.9  Rx     18EFCD1C  8  A0 00 14 00 00 00 00 00 
  1186)     36779.9  Rx     18EFCD1C  8  A0 00 2A 00 00 00 00 00 
  1187)     36799.9  Rx     18EFCD1C  8  A0 00 1B 00 00 00 00 00 
  1188)     36819.9  Rx     18EFCD1C  8  A0 00 00 00 00 00 00 00 
  1189)     36959.9  Rx     18EFCD1C  8  A0 00 14 00 00 00 00 00 
  1190)     36979.9  Rx     18EFCD1C  8  A0 00 2A 00 00 00 00 00 
  1191)     36999.9  Rx     18EFCD1C  8  A0 00 1B 00 00 00 00 00 
  1192)     37019.9  Rx     18EFCD1C  8  A0 00 00 00 00 00 00 00 
  1193)     37161.1  Rx     18EFCD1C  8  A0 00 14 00 00 00 00 00 
  1194)     37179.9  Rx     18EFCD1C  8  A0 00 2A 00 00 00 00 00 
  1195)     37199.9  Rx     18EFCD1C  8  A0 00 1B 00 00 00 00 00 
  1196)     37219.9  Rx     18EFCD1C  8  A0 00 00 00 00 00 00 00 
  1197)     37362.3  Rx     18FEF31C  8  B6 28 80 99 98 D0 2C 89 
  1198)     37362.9  Rx     18FEE81C  8  FD 38 0E 00 00 00 2F 51 
  1199)     37363.5  Rx     18FEE61C  8  2D 21 0C 09 57 29 00 00 
  1200)     37364.1  Rx     19F8021C  8  D5 FC B5 4D 00 00 FF FF 
  1201)     37364.7  Rx     18EFCD1C  8  A0 00 14 00 00 00 00 00 
  1202)     37366.8  Rx     19F8051C  8  20 2F D5 EE 50 38 AA EF 
  1203)     37367.4  Rx     19F8051C  8  21 1A C0 FE 18 FB B9 A6 
  1204)     37367.9  Rx     19F8051C  8  22 98 06 C0 ED EF 65 66 
  1205)     37368.5  Rx     19F8051C  8  23 92 CB 02 AA CE 47 08 
  1206)     37369.1  Rx     19F8051C  8  24 00 00 00 00 40 00 0D 
  1207)     37369.7  Rx     19F8051C  8  25 5F 00 A8 00 FC 0F 00 
  1208)     37370.3  Rx     19F8051C  8  26 00 01 AF 02 F4 01 FF 
  1209)     37381.1  Rx     18EFCD1C  8  A0 00 2A 00 00 00 00 00 
  1210)     37399.8  Rx     18EFCD1C  8  A0 00 1B 00 00 00 00 00 
  1211)     37419.8  Rx     18EFCD1C  8  A0 00 00 00 00 00 00 00 
  1212)     37559.7  Rx     18EFCD1C  8  A0 00 14 00 00 00 00 00 
  1213)     37581.4  Rx     18EFCD1C  8  A0 00 2A 00 00 00 00 00 
  1214)     37599.8  Rx     18EFCD1C  8  A0 00 1B 00 00 00 00 00 
  1215)     37619.7  Rx     18EFCD1C  8  A0 00 00 00 00 00 00 00 
  1216)     37759.7  Rx     18EFCD1C  8  A0 00 14 00 00 00 00 00 
  1217)     37760.2  Rx     18EFCD1C  4  01 D6 1B 00 
  1218)     37779.7  Rx     18EFCD1C  8  A0 00 2A 00 00 00 00 00 
  1219)     37801.3  Rx     18EFCD1C  8  A0 00 1B 00 00 00 00 00 
  1220)     37819.8  Rx     18EFCD1C  8  A0 00 00 00 00 00 00 00 
  1221)     37907.3  Rx     18EF8F1C  4  01 B6 22 00 
  1222)     37959.7  Rx     18EFCD1C  8  A0 00 14 00 00 00 00 00 
  1223)     37979.7  Rx     18EFCD1C  8  A0 00 2A 00 00 00 00 00 
  1224)     37999.8  Rx     18EFCD1C  8  A0 00 1B 00 00 00 00 00 
  1225)     38021.3  Rx     18EFCD1C  8  A0 00 00 00 00 00 00 00 
  1226)     38159.6  Rx     18EFCD1C  8  A0 00 14 00 00 00 00 00 
  1227)     38179.7  Rx     18EFCD1C  8  A0 00 2A 00 00 00 00 00 
  1228)     38199.6  Rx     18EFCD1C  8  A0 00 1B 00 00 00 00 00 
  1229)     38220.2  Rx     18EFCD1C  8  A0 00 00 00 00 00 00 00 
  1230)     38361.1  Rx     18FEF31C  8  B6 28 80 99 99 D0 2C 89 
  1231)     38361.7  Rx     18FEE81C  8  FD 38 13 00 00 00 2F 51 
  1232)     38362.3  Rx     18FEE61C  8  31 21 0C 09 57 29 00 00 
  1233)     38362.9  Rx     19F8021C  8  DA FC B5 4D 00 00 FF FF 
  1234)     38363.5  Rx     18EFCD1C  8  A0 00 14 00 00 00 00 00 
  1235)     38366.8  Rx     19F8051C  8  40 2F DA EE 50 48 D1 EF 
  1236)     38367.3  Rx     19F8051C  8  41 1A C0 C9 02 F4 B9 A6 
  1237)     38367.9  Rx     19F8051C  8  42 98 06 80 49 42 AA 66 
  1238)     38368.5  Rx     19F8051C  8  43 92 CB 02 EA CD 47 08 
  1239)     38369.1  Rx     19F8051C  8  44 00 00 00 00 40 00 0D 
  1240)     38369.7  Rx     19F8051C  8  45 5F 00 A8 00 FC 0F 00 
  1241)     38370.3  Rx     19F8051C  8  46 00 01 AF 02 58 02 FF 
  1242)     38379.6  Rx     18EFCD1C  8  A0 00 2A 00 00 00 00 00 
  1243)     38399.6  Rx     18EFCD1C  8  A0 00 1B 00 00 00 00 00 
  1244)     38419.6  Rx     18EFCD1C  8  A0 00 00 00 00 00 00 00 
  1245)     38559.6  Rx     18EFCD1C  8  A0 00 14 00 00 00 00 00 
  1246)     38579.6  Rx     18EFCD1C  8  A0 00 2A 00 00 00 00 00 
  1247)     38599.6  Rx     18EFCD1C  8  A0 00 1B 00 00 00 00 00 
  1248)     38619.6  Rx     18EFCD1C  8  A0 00 00 00 00 00 00 00 
  1249)     38759.7  Rx     18EFCD1C  8  A0 00 14 00 00 00 00 00 
  1250)     38779.7  Rx     18EFCD1C  8  A0 00 2A 00 00 00 00 00 
  1251)     38799.7  Rx     18EFCD1C  8  A0 00 1B 00 00 00 00 00 
  1252)     38819.7  Rx     18EFCD1C  8  A0 00 00 00 00 00 00 00 
  1253)     38959.7  Rx     18EFCD1C  8  A0 00 14 00 00 00 00 00 
  1254)     38979.7  Rx     18EFCD1C  8  A0 00 2A 00 00 00 00 00 
  1255)     38999.7  Rx     18EFCD1C  8  A0 00 1B 00 00 00 00 00 
  1256)     39019.7  Rx     18EFCD1C  8  A0 00 00 00 00 00 00 00 
  1257)     39159.7  Rx     18EFCD1C  8  A0 00 14 00 00 00 00 00 
  1258)     39179.7  Rx     18EFCD1C  8  A0 00 2A 00 00 00 00 00 
  1259)     39199.7  Rx     18EFCD1C  8  A0 00 1B 00 00 00 00 00 
  1260)     39219.7  Rx     18EFCD1C  8  A0 00 00 00 00 00 00 00 
  1261)     39361.2  Rx     18FEF31C  8  B6 28 80 99 9A D0 2C 89 
  1262)     39361.8  Rx     18FEE81C  8  FD 38 07 00 00 00 30 51 
  1263)     39362.4  Rx     18FEE61C  8  35 21 0C 09 57 29 00 00 
  1264)     39363.0  Rx     19F8021C  8  DF FC B5 4D 00 00 FF FF 
  1265)     39363.6  Rx     18EFCD1C  8  A0 00 14 00 00 00 00 00 
  1266)     39366.5  Rx     19F8051C  8  60 2F DF EE 50 58 F8 EF 
  1267)     39367.1  Rx     19F8051C  8  61 1A 40 F5 00 E7 B9 A6 
  1268)     39367.7  Rx     19F8051C  8  62 98 06 40 5F 27 B9 66 
  1269)     39368.2  Rx     19F8051C  8  63 92 CB 02 E7 E5 47 08 
  1270)     39368.9  Rx     19F8051C  8  64 00 00 00 00 40 00 0D 
  1271)     39369.5  Rx     19F8051C  8  65 5F 00 A8 00 FC 0F 00 
  1272)     39370.0  Rx     19F8051C  8  66 00 01 AF 02 BC 02 FF 
  1273)     39379.7  Rx     18EFCD1C  8  A0 00 2A 00 00 00 00 00 
  1274)     39399.7  Rx     18EFCD1C  8  A0 00 1B 00 00 00 00 00 
  1275)     39419.7  Rx     18EFCD1C  8  A0 00 00 00 00 00 00 00 
  1276)     39559.7  Rx     18EFCD1C  8  A0 00 14 00 00 00 00 00 
  1277)     39579.7  Rx     18EFCD1C  8  A0 00 2A 00 00 00 00 00 
  1278)     39599.7  Rx     18EFCD1C  8  A0 00 1B 00 00 00 00 00 
  1279)     39619.7  Rx     18EFCD1C  8  A0 00 00 00 00 00 00 00 
  1280)     39759.7  Rx     18EFCD1C  8  A0 00 14 00 00 00 00 00 
  1281)     39779.8  Rx     18EFCD1C  8  A0 00 2A 00 00 00 00 00 
  1282)     39780.2  Rx     18EFCD1C  4  01 D7 1B 00 
  1283)     39799.8  Rx     18EFCD1C  8  A0 00 1B 00 00 00 00 00 
  1284)     39819.8  Rx     18EFCD1C  8  A0 00 00 00 00 00 00 00 
  1285)     39908.5  Rx     18EF8F1C  4  01 B7 22 00 
  1286)     39960.9  Rx     18EFCD1C  8  A0 00 14 00 00 00 00 00 
  1287)     39979.8  Rx     18EFCD1C  8  A0 00 2A 00 00 00 00 00 
  1288)     39999.8  Rx     18EFCD1C  8  A0 00 1B 00 00 00 00 00 
  1289)     40019.8  Rx     18EFCD1C  8  A0 00 00 00 00 00 00 00 
  1290)     40160.5  Rx     18EFCD1C  8  A0 00 14 00 00 00 00 00 
  1291)     40180.9  Rx     18EFCD1C  8  A0 00 2A 00 00 00 00 00 
  1292)     40199.8  Rx     18EFCD1C  8  A0 00 1B 00 00 00 00 00 
  1293)     40219.8  Rx     18EFCD1C  8  A0 00 00 00 00 00 00 00 
  1294)     40361.4  Rx     18FEF31C  8  B5 28 80 99 9A D0 2C 89 
  1295)     40362.0  Rx     18FEE81C  8  FD 38 07 00 00 00 30 51 
  1296)     40362.6  Rx     18FEE61C  8  39 21 0C 09 57 29 00 00 
  1297)     40363.2  Rx     19F8021C  8  E4 FC B5 4D 00 00 FF FF 
  1298)     40363.8  Rx     18EFCD1C  8  A0 00 14 00 00 00 00 00 
  1299)     40365.9  Rx     19F8051C  8  80 2F E4 EE 50 68 1F F0 
  1300)     40366.5  Rx     19F8051C  8  81 1A C0 AC BD CE B9 A6 
  1301)     40367.1  Rx     19F8051C  8  82 98 06 00 29 61 DE 66 
  1302)     40367.7  Rx     19F8051C  8  83 92 CB 02 62 F5 47 08 
  1303)     40368.3  Rx     19F8051C  8  84 00 00 00 00 40 00 0D 
  1304)     40368.9  Rx     19F8051C  8  85 5F 00 A8 00 FC 0F 00 
  1305)     40369.5  Rx     19F8051C  8  86 00 01 AF 02 20 03 FF 
  1306)     40380.9  Rx     18EFCD1C  8  A0 00 2A 00 00 00 00 00 
  1307)     40400.9  Rx     18EFCD1C  8  A0 00 1B 00 00 00 00 00 
  1308)     40419.9  Rx     18EFCD1C  8  A0 00 00 00 00 00 00 00 
  1309)     40559.8  Rx     18EFCD1C  8  A0 00 14 00 00 00 00 00 
  1310)     40579.8  Rx     18EFCD1C  8  A0 00 2A 00 00 00 00 00 
  1311)     40601.0  Rx     18EFCD1C  8  A0 00 1B 00 00 00 00 00 
  1312)     40619.8  Rx     18EFCD1C  8  A0 00 00 00 00 00 00 00 
  1313)     40759.9  Rx     18EFCD1C  8  A0 00 14 00 00 00 00 00 
  1314)     40779.9  Rx     18EFCD1C  8  A0 00 2A 00 00 00 00 00 
  1315)     40800.1  Rx     18EFCD1C  8  A0 00 1B 00 00 00 00 00 
  1316)     40821.6  Rx     18EFCD1C  8  A0 00 00 00 00 00 00 00 
  1317)     40960.0  Rx     18EFCD1C  8  A0 00 14 00 00 00 00 00 
  1318)     40979.9  Rx     18EFCD1C  8  A0 00 2A 00 00 00 00 00 
  1319)     40999.9  Rx     18EFCD1C  8  A0 00 1B 00 00 00 00 00 
  1320)     41020.1  Rx     18EFCD1C  8  A0 00 00 00 00 00 00 00 
  1321)     41160.0  Rx     18EFCD1C  8  A0 00 14 00 00 00 00 00 
  1322)     41180.0  Rx     18EFCD1C  8  A0 00 2A 00 00 00 00 00 
  1323)     41200.0  Rx     18EFCD1C  8  A0 00 1B 00 00 00 00 00 
  1324)     41220.0  Rx     18EFCD1C  8  A0 00 00 00 00 00 00 00 
  1325)     41361.7  Rx     18FEF31C  8  B4 28 80 99 98 D0 2C 89 
  1326)     41362.3  Rx     18FEE81C  8  FD 38 05 00 00 00 30 51 
  1327)     41362.9  Rx     18FEE61C  8  3D 21 0C 09 57 29 00 00 
  1328)     41363.5  Rx     19F0101C  8  E9 00 EE 50 78 46 F0 1A 
  1329)     41364.1  Rx     19F8021C  8  E9 FC B5 4D 00 00 FF FF 
  1330)     41364.6  Rx     18EFCD1C  8  A0 00 14 00 00 00 00 00 
  1331)     41367.6  Rx     19F8051C  8  A0 2F E9 EE 50 78 46 F0 
  1332)     41368.2  Rx     19F8051C  8  A1 1A 80 22 17 9A B9 A6 
  1333)     41368.8  Rx     19F8051C  8  A2 98 06 40 D4 E6 6A 66 
  1334)     41369.3  Rx     19F8051C  8  A3 92 CB 02 C1 F5 47 08 
  1335)     41370.0  Rx     19F8051C  8  A4 00 00 00 00 40 00 0D 
  1336)     41370.6  Rx     19F8051C  8  A5 5F 00 A8 00 FC 0F 00 
  1337)     41371.2  Rx     19F8051C  8  A6 00 01 AF 02 F4 01 FF 
  1338)     41380.0  Rx     18EFCD1C  8  A0 00 2A 00 00 00 00 00 
  1339)     41400.0  Rx     18EFCD1C  8  A0 00 1B 00 00 00 00 00 
  1340)     41420.0  Rx     18EFCD1C  8  A0 00 00 00 00 00 00 00 
  1341)     41560.0  Rx     18EFCD1C  8  A0 00 14 00 00 00 00 00 
  1342)     41580.1  Rx     18EFCD1C  8  A0 00 2A 00 00 00 00 00 
  1343)     41600.0  Rx     18EFCD1C  8  A0 00 1B 00 00 00 00 00 
  1344)     41620.1  Rx     18EFCD1C  8  A0 00 00 00 00 00 00 00 
  1345)     41760.1  Rx     18EFCD1C  8  A0 00 14 00 00 00 00 00 
  1346)     41780.1  Rx     18EFCD1C  8  A0 00 2A 00 00 00 00 00 
  1347)     41800.1  Rx     18EFCD1C  8  A0 00 1B 00 00 00 00 00 
  1348)     41800.6  Rx     18EFCD1C  4  01 D8 1B 00 
  1349)     41820.2  Rx     18EFCD1C  8  A0 00 00 00 00 00 00 00 
  1350)     41960.2  Rx     18EFCD1C  8  A0 00 14 00 00 00 00 00 
  1351)     41980.2  Rx     18EFCD1C  8  A0 00 2A 00 00 00 00 00 
  1352)     42000.2  Rx     18EFCD1C  8  A0 00 1B 00 00 00 00 00 
  1353)     42020.2  Rx     18EFCD1C  8  A0 00 00 00 00 00 00 00 
  1354)     42105.2  Rx     18EF8F1C  4  01 B8 22 00 
  1355)     42160.2  Rx     18EFCD1C  8  A0 00 14 00 00 00 00 00 
  1356)     42180.2  Rx     18EFCD1C  8  A0 00 2A 00 00 00 00 00 
  1357)     42200.2  Rx     18EFCD1C  8  A0 00 1B 00 00 00 00 00 
  1358)     42220.2  Rx     18EFCD1C  8  A0 00 00 00 00 00 00 00 
  1359)     42363.0  Rx     18FEF31C  8  B4 28 80 99 99 D0 2C 89 
  1360)     42363.7  Rx     18FEE81C  8  FD 38 0C 00 00 00 30 51 
  1361)     42364.2  Rx     18FEE61C  8  41 21 0C 09 57 29 00 00 
  1362)     42364.8  Rx     19F8021C  8  EE FC B5 4D 00 00 FF FF 
  1363)     42365.4  Rx     18EFCD1C  8  A0 00 14 00 00 00 00 00 
  1364)     42367.6  Rx     19F8051C  8  C0 2F EE EE 50 FE 6D F0 
  1365)     42368.2  Rx     19F8051C  8  C1 1A 80 0A 96 7C B9 A6 
  1366)     42368.8  Rx     19F8051C  8  C2 98 06 C0 44 63 86 66 
  1367)     42369.4  Rx     19F8051C  8  C3 92 CB 02 D9 07 48 08 
  1368)     42370.0  Rx     19F8051C  8  C4 00 00 00 00 40 00 0D 
  1369)     42370.6  Rx     19F8051C  8  C5 5F 00 A8 00 FC 0F 00 
  1370)     42371.2  Rx     19F8051C  8  C6 00 01 AF 02 58 02 FF 
  1371)     42380.2  Rx     18EFCD1C  8  A0 00 2A 00 00 00 00 00 
  1372)     42400.2  Rx     18EFCD1C  8  A0 00 1B 00 00 00 00 00 
  1373)     42420.2  Rx     18EFCD1C  8  A0 00 00 00 00 00 00 00 
  1374)     42561.2  Rx     18EFCD1C  8  A0 00 14 00 00 00 00 00 
  1375)     42580.1  Rx     18EFCD1C  8  A0 00 2A 00 00 00 00 00 
  1376)     42600.1  Rx     18EFCD1C  8  A0 00 1B 00 00 00 00 00 
  1377)     42620.2  Rx     18EFCD1C  8  A0 00 00 00 00 00 00 00 
  1378)     42761.1  Rx     18EFCD1C  8  A0 00 14 00 00 00 00 00 
  1379)     42780.2  Rx     18EFCD1C  8  A0 00 2A 00 00 00 00 00 
  1380)     42800.2  Rx     18EFCD1C  8  A0 00 1B 00 00 00 00 00 
  1381)     42820.2  Rx     18EFCD1C  8  A0 00 00 00 00 00 00 00 
  1382)     42960.9  Rx     18EFCD1C  8  A0 00 14 00 00 00 00 00 
  1383)     42981.4  Rx     18EFCD1C  8  A0 00 2A 00 00 00 00 00 
  1384)     43000.2  Rx     18EFCD1C  8  A0 00 1B 00 00 00 00 00 
  1385)     43020.3  Rx     18EFCD1C  8  A0 00 00 00 00 00 00 00 
  1386)     43160.3  Rx     18EFCD1C  8  A0 00 14 00 00 00 00 00 
  1387)     43181.1  Rx     18EFCD1C  8  A0 00 2A 00 00 00 00 00 
  1388)     43201.5  Rx     18EFCD1C  8  A0 00 1B 00 00 00 00 00 
  1389)     43220.3  Rx     18EFCD1C  8  A0 00 00 00 00 00 00 00 
  1390)     43361.8  Rx     18FEF31C  8  B4 28 80 99 99 D0 2C 89 
  1391)     43362.4  Rx     18FEE81C  8  FD 38 0F 00 00 00 30 51 
  1392)     43363.0  Rx     18FEE61C  8  45 21 0C 09 57 29 00 00 
  1393)     43363.6  Rx     19F8021C  8  F3 FC B5 4D 00 00 FF FF 
  1394)     43364.2  Rx     18EFCD1C  8  A0 00 14 00 00 00 00 00 
  1395)     43366.2  Rx     19F8051C  8  E0 2F F3 EE 50 98 94 F0 
  1396)     43366.7  Rx     19F8051C  8  E1 1A C0 72 CC 75 B9 A6 
  1397)     43367.3  Rx     19F8051C  8  E2 98 06 60 2B 8A A9 66 
  1398)     43367.9  Rx     19F8051C  8  E3 92 CB 02 F6 27 48 08 
  1399)     43368.5  Rx     19F8051C  8  E4 00 00 00 00 40 00 0D 
  1400)     43369.1  Rx     19F8051C  8  E5 5F 00 A8 00 FC 0F 00 
  1401)     43369.7  Rx     19F8051C  8  E6 00 01 AF 02 BC 02 FF 
  1402)     43380.3  Rx     18EFCD1C  8  A0 00 2A 00 00 00 00 00 
  1403)     43401.4  Rx     18EFCD1C  8  A0 00 1B 00 00 00 00 00 
  1404)     43421.5  Rx     18EFCD1C  8  A0 00 00 00 00 00 00 00 
  1405)     43560.4  Rx     18EFCD1C  8  A0 00 14 00 00 00 00 00 
  1406)     43580.4  Rx     18EFCD1C  8  A0 00 2A 00 00 00 00 00 
  1407)     43600.4  Rx     18EFCD1C  8  A0 00 1B 00 00 00 00 00 
  1408)     43621.6  Rx     18EFCD1C  8  A0 00 00 00 00 00 00 00 
  1409)     43760.4  Rx     18EFCD1C  8  A0 00 14 00 00 00 00 00 
  1410)     43780.4  Rx     18EFCD1C  8  A0 00 2A 00 00 00 00 00 
  1411)     43800.4  Rx     18EFCD1C  8  A0 00 1B 00 00 00 00 00 
  1412)     43820.4  Rx     18EFCD1C  8  A0 00 00 00 00 00 00 00 
  1413)     43820.9  Rx     18EFCD1C  4  01 D9 1B 00 
  1414)     43960.5  Rx     18EFCD1C  8  A0 00 14 00 00 00 00 00 
  1415)     43980.4  Rx     18EFCD1C  8  A0 00 2A 00 00 00 00 00 
  1416)     44000.5  Rx     18EFCD1C  8  A0 00 1B 00 00 00 00 00 
  1417)     44020.4  Rx     18EFCD1C  8  A0 00 00 00 00 00 00 00 
  1418)     44160.6  Rx     18EFCD1C  8  A0 00 14 00 00 00 00 00 
  1419)     44180.5  Rx     18EFCD1C  8  A0 00 2A 00 00 00 00 00 
  1420)     44200.5  Rx     18EFCD1C  8  A0 00 1B 00 00 00 00 00 
  1421)     44220.5  Rx     18EFCD1C  8  A0 00 00 00 00 00 00 00 
  1422)     44305.1  Rx     18EF8F1C  4  01 B9 22 00 
  1423)     44362.0  Rx     18FEF31C  8  B4 28 80 99 9A D0 2C 89 
  1424)     44362.6  Rx     18FEE81C  8  FD 38 1A 00 00 00 30 51 
  1425)     44363.2  Rx     18FEE61C  8  49 21 0C 09 57 29 00 00 
  1426)     44363.8  Rx     19F8021C  8  F8 FC B5 4D 00 00 FF FF 
  1427)     44364.4  Rx     18EFCD1C  8  A0 00 14 00 00 00 00 00 
  1428)     44367.5  Rx     19F8051C  8  00 2F F8 EE 50 A8 BB F0 
  1429)     44368.1  Rx     19F8051C  8  01 1A 80 07 8B 6E B9 A6 
  1430)     44368.7  Rx     19F8051C  8  02 98 06 E0 6D EC C1 66 
  1431)     44369.2  Rx     19F8051C  8  03 92 CB 02 31 2D 48 08 
  1432)     44369.9  Rx     19F8051C  8  04 00 00 00 00 40 00 0D 
  1433)     44370.5  Rx     19F8051C  8  05 5F 00 A8 00 FC 0F 00 
  1434)     44371.1  Rx     19F8051C  8  06 00 01 AF 02 20 03 FF 
  1435)     44380.5  Rx     18EFCD1C  8  A0 00 2A 00 00 00 00 00 
  1436)     44400.5  Rx     18EFCD1C  8  A0 00 1B 00 00 00 00 00 
  1437)     44420.6  Rx     18EFCD1C  8  A0 00 00 00 00 00 00 00 
  1438)     44560.6  Rx     18EFCD1C  8  A0 00 14 00 00 00 00 00 
  1439)     44580.6  Rx     18EFCD1C  8  A0 00 2A 00 00 00 00 00 
  1440)     44600.6  Rx     18EFCD1C  8  A0 00 1B 00 00 00 00 00 
  1441)     44620.6  Rx     18EFCD1C  8  A0 00 00 00 00 00 00 00 
  1442)     44760.7  Rx     18EFCD1C  8  A0 00 14 00 00 00 00 00 
  1443)     44780.7  Rx     18EFCD1C  8  A0 00 2A 00 00 00 00 00 
  1444)     44800.7  Rx     18EFCD1C  8  A0 00 1B 00 00 00 00 00 
  1445)     44820.7  Rx     18EFCD1C  8  A0 00 00 00 00 00 00 00 
  1446)     44960.8  Rx     18EFCD1C  8  A0 00 14 00 00 00 00 00 
  1447)     44980.7  Rx     18EFCD1C  8  A0 00 2A 00 00 00 00 00 
  1448)     45000.7  Rx     18EFCD1C  8  A0 00 1B 00 00 00 00 00 
  1449)     45020.7  Rx     18EFCD1C  8  A0 00 00 00 00 00 00 00 
  1450)     45160.8  Rx     18EFCD1C  8  A0 00 14 00 00 00 00 00 
  1451)     45180.8  Rx     18EFCD1C  8  A0 00 2A 00 00 00 00 00 
  1452)     45200.8  Rx     18EFCD1C  8  A0 00 1B 00 00 00 00 00 
  1453)     45220.8  Rx     18EFCD1C  8  A0 00 00 00 00 00 00 00 
  1454)     45363.4  Rx     18FEF31C  8  B4 28 80 99 99 D0 2C 89 
  1455)     45363.9  Rx     18FEE81C  8  FD 38 0A 00 00 00 30 51 
  1456)     45364.5  Rx     18FEE61C  8  4D 21 0C 09 57 29 00 00 
  1457)     45365.1  Rx     19F8021C  8  02 FC B5 4D 00 00 FF FF 
  1458)     45365.7  Rx     18EFCD1C  8  A0 00 14 00 00 00 00 00 
  1459)     45367.8  Rx     19F8051C  8  20 2F 02 EE 50 2E E3 F0 
  1460)     45368.4  Rx     19F8051C  8  21 1A 80 CB FF 86 B9 A6 
  1461)     45368.9  Rx     19F8051C  8  22 98 06 E0 35 85 87 66 
  1462)     45369.5  Rx     19F8051C  8  23 92 CB 02 87 E3 47 08 
  1463)     45370.2  Rx     19F8051C  8  24 00 00 00 00 40 00 0D 
  1464)     45370.8  Rx     19F8051C  8  25 5F 00 A8 00 FC 0F 00 
  1465)     45371.4  Rx     19F8051C  8  26 00 01 AF 02 F4 01 FF 
  1466)     45380.8  Rx     18EFCD1C  8  A0 00 2A 00 00 00 00 00 
  1467)     45400.8  Rx     18EFCD1C  8  A0 00 1B 00 00 00 00 00 
  1468)     45420.9  Rx     18EFCD1C  8  A0 00 00 00 00 00 00 00 
  1469)     45561.5  Rx     18EFCD1C  8  A0 00 14 00 00 00 00 00 
  1470)     45582.2  Rx     18EFCD1C  8  A0 00 2A 00 00 00 00 00 
  1471)     45600.9  Rx     18EFCD1C  8  A0 00 1B 00 00 00 00 00 
  1472)     45620.9  Rx     18EFCD1C  8  A0 00 00 00 00 00 00 00 
  1473)     45761.4  Rx     18EFCD1C  8  A0 00 14 00 00 00 00 00 
  1474)     45782.0  Rx     18EFCD1C  8  A0 00 2A 00 00 00 00 00 
  1475)     45802.2  Rx     18EFCD1C  8  A0 00 1B 00 00 00 00 00 
  1476)     45820.9  Rx     18EFCD1C  8  A0 00 00 00 00 00 00 00 
  1477)     45840.8  Rx     18EFCD1C  4  01 DA 1B 00 
  1478)     45961.0  Rx     18EFCD1C  8  A0 00 14 00 00 00 00 00 
  1479)     45981.3  Rx     18EFCD1C  8  A0 00 2A 00 00 00 00 00 
  1480)     46002.1  Rx     18EFCD1C  8  A0 00 1B 00 00 00 00 00 
  1481)     46021.0  Rx     18EFCD1C  8  A0 00 00 00 00 00 00 00 
  1482)     46161.0  Rx     18EFCD1C  8  A0 00 14 00 00 00 00 00 
  1483)     46181.0  Rx     18EFCD1C  8  A0 00 2A 00 00 00 00 00 
  1484)     46201.6  Rx     18EFCD1C  8  A0 00 1B 00 00 00 00 00 
  1485)     46222.3  Rx     18EFCD1C  8  A0 00 00 00 00 00 00 00 
  1486)     46362.8  Rx     18FEF31C  8  B4 28 80 99 97 D0 2C 89 
  1487)     46363.4  Rx     18FEE81C  8  FD 38 15 00 00 00 2F 51 
  1488)     46364.0  Rx     18FEE61C  8  51 21 0C 09 57 29 00 00 
  1489)     46364.5  Rx     19F0101C  8  07 00 EE 50 C8 09 F1 1A 
  1490)     46365.1  Rx     19F8021C  8  07 FC B5 4D 00 00 FF FF 
  1491)     46365.7  Rx     18EFCD1C  8  A0 00 14 00 00 00 00 00 
  1492)     46368.6  Rx     19F8051C  8  40 2F 07 EE 50 C8 09 F1 
  1493)     46369.2  Rx     19F8051C  8  41 1A 80 90 FB 91 B9 A6 
  1494)     46369.7  Rx     19F8051C  8  42 98 06 80 D4 C8 30 66 
  1495)     46370.3  Rx     19F8051C  8  43 92 CB 02 45 C7 47 08 
  1496)     46370.9  Rx     19F8051C  8  44 00 00 00 00 40 00 0D 
  1497)     46371.5  Rx     19F8051C  8  45 5F 00 A8 00 FC 0F 00 
  1498)     46372.1  Rx     19F8051C  8  46 00 01 AF 02 58 02 FF 
  1499)     46381.1  Rx     18EFCD1C  8  A0 00 2A 00 00 00 00 00 
  1500)     46401.1  Rx     18EFCD1C  8  A0 00 1B 00 00 00 00 00 
  1501)     46421.8  Rx     18EFCD1C  8  A0 00 00 00 00 00 00 00 
  1502)     46506.7  Rx     18EF8F1C  4  01 BA 22 00 
  1503)     46561.2  Rx     18EFCD1C  8  A0 00 14 00 00 00 00 00 
  1504)     46581.1  Rx     18EFCD1C  8  A0 00 2A 00 00 00 00 00 
  1505)     46601.2  Rx     18EFCD1C  8  A0 00 1B 00 00 00 00 00 
  1506)     46621.2  Rx     18EFCD1C  8  A0 00 00 00 00 00 00 00 
  1507)     46761.2  Rx     18EFCD1C  8  A0 00 14 00 00 00 00 00 
  1508)     46781.2  Rx     18EFCD1C  8  A0 00 2A 00 00 00 00 00 
  1509)     46801.3  Rx     18EFCD1C  8  A0 00 1B 00 00 00 00 00 
  1510)     46821.3  Rx     18EFCD1C  8  A0 00 00 00 00 00 00 00 
  1511)     46961.4  Rx     18EFCD1C  8  A0 00 14 00 00 00 00 00 
  1512)     46981.3  Rx     18EFCD1C  8  A0 00 2A 00 00 00 00 00 
  1513)     47001.3  Rx     18EFCD1C  8  A0 00 1B 00 00 00 00 00 
  1514)     47021.4  Rx     18EFCD1C  8  A0 00 00 00 00 00 00 00 
  1515)     47161.3  Rx     18EFCD1C  8  A0 00 14 00 00 00 00 00 
  1516)     47181.4  Rx     18EFCD1C  8  A0 00 2A 00 00 00 00 00 
