;$FILEVERSION=1.1
;$STARTTIME=46287.6155822454
;
;   Start time: 9/22/2026 14:46:26.306.0
;   Generated by PCAN-View v5.3.3.958
;
;   Message Number
;   |         Time Offset (ms)
;   |         |        Type
;   |         |        |        ID (hex)
;   |         |        |        |     Data Length
;   |         |        |        |     |   Data Bytes (hex) ...
;   |         |        |        |     |   |
;---+--   ----+----  --+--  ----+---  +  -+ -- -- -- -- -- -- --
     1)         6.4  Rx     18EF1CCD  8  A3 00 00 00 00 00 00 00 
     2)         8.0  Rx     18EF1C8F  8  0D 80 00 95 76 9E 55 FB 
     3)         8.9  Rx     18EF1C8F  8  0D 81 FA FF 1F 00 81 03 
     4)         9.6  Rx     18EFCD1C  8  A0 00 2A 00 00 00 00 00 
     5)        10.2  Rx     18EF1C8F  8  0D 82 19 00 03 00 11 00 
     6)        10.7  Rx     18EF1CCD  8  A0 00 2A 00 47 06 00 00 
     7)        26.5  Rx     18EF1CCD  8  A1 40 00 00 00 00 00 00 
     8)        27.7  Rx     18EFCD1C  8  A0 00 1B 00 00 00 00 00 
     9)        28.3  Rx     18EF1C8F  8  0D 90 00 B5 C4 9E 56 FB 
    10)        28.9  Rx     18EF1CCD  8  A0 00 1B 00 00 00 00 00 
    11)        29.4  Rx     18EF1C8F  8  0D 91 FB FF 23 00 88 03 
    12)        30.0  Rx     18EF1C8F  8  0D 92 15 00 0A 00 0E 00 
    13)        47.7  Rx     18EFCD1C  8  A0 00 00 00 00 00 00 00 
    14)        48.2  Rx     18EF1C8F  8  0D A0 00 D7 12 9F 55 FB 
    15)        48.8  Rx     18EF1CCD  8  A0 00 00 00 01 00 00 00 
    16)        49.4  Rx     18EF1C8F  8  0D A1 00 00 1E 00 80 03 
    17)        49.9  Rx     18EF1C8F  8  0D A2 1A 00 0E 00 0F 00 
    18)        68.0  Rx     18EF1C8F  8  0D B0 00 F5 60 9F 55 FB 
    19)        68.9  Rx     18EF1C8F  8  0D B1 F6 FF 21 00 87 03 
    20)        70.0  Rx     18EF1C8F  8  0D B2 18 00 0C 00 0D 00 
    21)        86.6  Rx     18EF1CCD  8  A2 00 00 00 00 00 00 00 
    22)        88.0  Rx     18EF1C8F  8  0D C0 00 15 AF 9F 55 FB 
    23)        89.0  Rx     18EF1C8F  8  0D C1 09 00 1D 00 82 03 
    24)        89.5  Rx     18FEF31C  8  B5 2B 80 99 16 C7 2C 89 
    25)        90.0  Rx     18EF1C8F  8  0D C2 19 00 11 00 10 00 
    26)        90.6  Rx     18FEE81C  8  33 8A 04 00 00 00 2C 51 
    27)        91.1  Rx     18FEE61C  8  67 2E 0C 09 57 29 00 00 
    28)        91.7  Rx     19F8021C  8  7C FC 70 BC 00 00 FF FF 
    29)        92.4  Rx     18EFCD1C  8  A1 01 00 00 00 00 00 00 
    30)        96.2  Rx     19F8051C  8  A0 2F 7C EE 50 69 E1 68 
    31)        96.7  Rx     19F8051C  8  A1 1B 40 DC 2E 8C 6C A7 
    32)        97.3  Rx     19F8051C  8  A2 98 06 C0 96 24 A3 2F 
    33)        97.8  Rx     19F8051C  8  A3 90 CB 02 B7 D9 41 08 
    34)        98.4  Rx     19F8051C  8  A4 00 00 00 00 40 00 0C 
    35)        98.9  Rx     19F8051C  8  A5 5E 00 BF 00 FC 0F 00 
    36)        99.5  Rx     19F8051C  8  A6 00 01 AF 02 BC 02 FF 
    37)       106.7  Rx     18EF1CCD  8  A3 00 00 00 00 00 00 00 
    38)       108.1  Rx     18EF1C8F  8  0D D0 00 37 FD 9F 56 FB 
    39)       108.9  Rx     18EF1C8F  8  0D D1 F2 FF 21 00 85 03 
    40)       110.0  Rx     18EF1C8F  8  0D D2 15 00 06 00 0E 00 
    41)       126.7  Rx     18EF1CCD  8  A1 40 00 00 00 00 00 00 
    42)       128.0  Rx     18EF1C8F  8  0D E0 00 55 4B A0 56 FB 
    43)       129.0  Rx     18EF1C8F  8  0D E1 0B 00 1F 00 83 03 
    44)       130.0  Rx     18EF1C8F  8  0D E2 16 00 13 00 0F 00 
    45)       148.1  Rx     18EF1C8F  8  0D F0 00 75 99 A0 55 FB 
    46)       149.0  Rx     18EF1C8F  8  0D F1 F1 FF 23 00 84 03 
    47)       150.0  Rx     18EF1C8F  8  0D F2 16 00 00 00 0D 00 
    48)       168.0  Rx     18EF1C8F  8  0D 00 00 95 E7 A0 55 FB 
    49)       169.0  Rx     18EF1C8F  8  0D 01 0C 00 1D 00 81 03 
    50)       170.0  Rx     18EF1C8F  8  0D 02 18 00 15 00 0E 00 
    51)       186.9  Rx     18EF1CCD  8  A2 00 00 00 00 00 00 00 
    52)       188.1  Rx     18EF1C8F  8  0D 10 00 B5 35 A1 55 FB 
    53)       189.0  Rx     18EF1C8F  8  0D 11 F2 FF 24 00 82 03 
    54)       189.9  Rx     18EF1C8F  8  0D 12 16 00 FE FF 0E 00 
    55)       193.8  Rx     18EFCD1C  8  A0 00 14 00 00 00 00 00 
    56)       194.4  Rx     18EF1CCD  8  A0 00 14 00 B4 07 00 00 
    57)       206.9  Rx     18EF1CCD  8  A3 00 00 00 00 00 00 00 
    58)       208.1  Rx     18EF1C8F  8  0D 20 00 D7 83 A1 56 FB 
    59)       209.0  Rx     18EF1C8F  8  0D 21 09 00 1C 00 84 03 
    60)       210.0  Rx     18EF1C8F  8  0D 22 16 00 13 00 10 00 
    61)       212.3  Rx     18EFCD1C  8  A0 00 2A 00 00 00 00 00 
    62)       213.0  Rx     18EF1CCD  8  A0 00 2A 00 41 06 00 00 
    63)       227.0  Rx     18EF1CCD  8  A1 40 00 00 00 00 00 00 
    64)       228.1  Rx     18EF1C8F  8  0D 30 00 F5 D1 A1 55 FB 
    65)       229.0  Rx     18EF1C8F  8  0D 31 F5 FF 25 00 82 03 
    66)       229.6  Rx     18EFCD1C  8  A0 00 1B 00 00 00 00 00 
    67)       230.1  Rx     18EF1C8F  8  0D 32 16 00 00 00 10 00 
    68)       230.7  Rx     18EF1CCD  8  A0 00 1B 00 00 00 00 00 
    69)       247.7  Rx     18EFCD1C  8  A0 00 00 00 00 00 00 00 
    70)       248.3  Rx     18EF1C8F  8  0D 40 00 15 20 A2 55 FB 
    71)       248.8  Rx     18EF1CCD  8  A0 00 00 00 01 00 00 00 
    72)       249.4  Rx     18EF1C8F  8  0D 41 04 00 1F 00 88 03 
    73)       250.0  Rx     18EF1C8F  8  0D 42 17 00 10 00 0D 00 
    74)       268.1  Rx     18EF1C8F  8  0D 50 00 37 6E A2 55 FB 
    75)       269.0  Rx     18EF1C8F  8  0D 51 F9 FF 21 00 7F 03 
    76)       270.0  Rx     18EF1C8F  8  0D 52 17 00 03 00 11 00 
    77)       287.1  Rx     18EF1CCD  8  A2 00 00 00 00 00 00 00 
    78)       287.9  Rx     18EFCD1C  8  A1 01 00 00 00 00 00 00 
    79)       288.5  Rx     18EF1C8F  8  0D 60 00 55 BC A2 56 FB 
    80)       289.0  Rx     18EF1C8F  8  0D 61 FE FF 21 00 87 03 
    81)       290.0  Rx     18EF1C8F  8  0D 62 16 00 0F 00 0F 00 
    82)       307.2  Rx     18EF1CCD  8  A3 00 00 00 00 00 00 00 
    83)       308.1  Rx     18EF1C8F  8  0D 70 00 75 0A A3 55 FB 
    84)       309.0  Rx     18EF1C8F  8  0D 71 FE FF 1E 00 80 03 
    85)       310.0  Rx     18EF1C8F  8  0D 72 1A 00 0B 00 11 00 
    86)       327.2  Rx     18EF1CCD  8  A1 40 00 00 00 00 00 00 
    87)       328.1  Rx     18EF1C8F  8  0D 80 00 95 58 A3 55 FB 
    88)       329.0  Rx     18EF1C8F  8  0D 81 F9 FF 24 00 89 03 
    89)       330.0  Rx     18EF1C8F  8  0D 82 17 00 0A 00 0E 00 
    90)       348.1  Rx     18EF1C8F  8  0D 90 00 B5 A6 A3 56 FB 
    91)       349.0  Rx     18EF1C8F  8  0D 91 04 00 1C 00 80 03 
    92)       350.0  Rx     18EF1C8F  8  0D 92 18 00 0D 00 12 00 
    93)       368.1  Rx     18EF1C8F  8  0D A0 00 D5 F4 A3 55 FB 
    94)       369.0  Rx     18EF1C8F  8  0D A1 F5 FF 24 00 87 03 
    95)       370.0  Rx     18EF1C8F  8  0D A2 13 00 04 00 0D 00 
    96)       387.4  Rx     18EF1CCD  8  A2 00 00 00 00 00 00 00 
    97)       388.1  Rx     18EF1C8F  8  0D B0 00 F5 42 A4 55 FB 
    98)       389.0  Rx     18EF1C8F  8  0D B1 0B 00 1A 00 7F 03 
    99)       390.0  Rx     18EF1C8F  8  0D B2 17 00 13 00 12 00 
   100)       392.3  Rx     18EF8F1C  4  01 2B 2B 00 
   101)       393.0  Rx     18EF1C8F  4  01 2C 2B 00 
   102)       393.5  Rx     18EFCD1C  8  A0 00 14 00 00 00 00 00 
   103)       394.2  Rx     18EF1CCD  8  A0 00 14 00 B5 07 00 00 
   104)       407.4  Rx     18EF1CCD  8  A3 00 00 00 00 00 00 00 
   105)       408.1  Rx     18EF1C8F  8  0D C0 00 17 91 A4 55 FB 
   106)       409.0  Rx     18EF1C8F  8  0D C1 F2 FF 26 00 85 03 
   107)       409.8  Rx     18EFCD1C  8  A0 00 2A 00 00 00 00 00 
   108)       410.4  Rx     18EF1C8F  8  0D C2 19 00 04 00 0D 00 
   109)       411.0  Rx     18EF1CCD  8  A0 00 2A 00 3E 06 00 00 
   110)       427.5  Rx     18EF1CCD  8  A1 40 00 00 00 00 00 00 
   111)       428.1  Rx     18EF1C8F  8  0D D0 00 35 DF A4 55 FB 
   112)       428.7  Rx     18EFCD1C  8  A0 00 1B 00 00 00 00 00 
   113)       429.2  Rx     18EF1C8F  8  0D D1 0B 00 1B 00 82 03 
   114)       429.8  Rx     18EF1CCD  8  A0 00 1B 00 00 00 00 00 
   115)       430.4  Rx     18EF1C8F  8  0D D2 18 00 18 00 0F 00 
   116)       448.1  Rx     18EF1C8F  8  0D E0 00 55 2D A5 55 FB 
   117)       449.0  Rx     18EF1C8F  8  0D E1 F1 FF 23 00 81 03 
   118)       449.6  Rx     18EFCD1C  8  A0 00 00 00 00 00 00 00 
   119)       450.2  Rx     18EF1C8F  8  0D E2 15 00 02 00 10 00 
   120)       450.7  Rx     18EF1CCD  8  A0 00 00 00 01 00 00 00 
   121)       468.1  Rx     18EF1C8F  8  0D F0 00 75 7B A5 55 FB 
   122)       469.0  Rx     18EF1C8F  8  0D F1 0C 00 1D 00 85 03 
   123)       470.0  Rx     18EF1C8F  8  0D F2 17 00 12 00 0E 00 
   124)       487.5  Rx     18EF1CCD  8  A2 00 00 00 00 00 00 00 
   125)       488.1  Rx     18EF1C8F  8  0D 00 00 95 C9 A5 55 FB 
   126)       488.6  Rx     18EFCD1C  8  A1 01 00 00 00 00 00 00 
   127)       489.2  Rx     18EF1C8F  8  0D 01 F0 FF 23 00 80 03 
   128)       489.9  Rx     18EF1C8F  8  0D 02 17 00 FD FF 0F 00 
   129)       507.5  Rx     18EF1CCD  8  A3 00 00 00 00 00 00 00 
   130)       508.1  Rx     18EF1C8F  8  0D 10 00 B5 17 A6 55 FB 
   131)       508.9  Rx     18EF1C8F  8  0D 11 08 00 20 00 86 03 
   132)       509.9  Rx     18EF1C8F  8  0D 12 19 00 10 00 0F 00 
   133)       527.6  Rx     18EF1CCD  8  A1 40 00 00 00 00 00 00 
   134)       528.2  Rx     18EF1C8F  8  0D 20 00 D5 65 A6 55 FB 
   135)       528.9  Rx     18EF1C8F  8  0D 21 F6 FF 21 00 81 03 
   136)       529.9  Rx     18EF1C8F  8  0D 22 17 00 04 00 10 00 
   137)       548.0  Rx     18EF1C8F  8  0D 30 00 F5 B3 A6 55 FB 
   138)       548.9  Rx     18EF1C8F  8  0D 31 00 00 21 00 87 03 
   139)       549.9  Rx     18EF1C8F  8  0D 32 16 00 0C 00 0F 00 
   140)       568.0  Rx     18EF1C8F  8  0D 40 00 15 02 A7 56 FB 
   141)       568.9  Rx     18EF1C8F  8  0D 41 FE FF 1F 00 82 03 
   142)       569.9  Rx     18EF1C8F  8  0D 42 18 00 07 00 10 00 
   143)       587.7  Rx     18EF1CCD  8  A2 00 00 00 00 00 00 00 
   144)       588.3  Rx     18EF1C8F  8  0D 50 00 35 50 A7 56 FB 
   145)       588.9  Rx     18EF1C8F  8  0D 51 FA FF 21 00 87 03 
   146)       590.0  Rx     18EF1C8F  8  0D 52 18 00 0C 00 0E 00 
   147)       593.0  Rx     18EFCD1C  8  A0 00 14 00 00 00 00 00 
   148)       593.6  Rx     18EF1CCD  8  A0 00 14 00 B5 07 00 00 
   149)       607.8  Rx     18EF1CCD  8  A3 00 00 00 00 00 00 00 
   150)       608.4  Rx     18EF1C8F  8  0D 60 00 55 9E A7 56 FB 
   151)       609.0  Rx     18EF1C8F  8  0D 61 04 00 1C 00 81 03 
   152)       609.7  Rx     18EFCD1C  8  A0 00 2A 00 00 00 00 00 
   153)       610.3  Rx     18EF1C8F  8  0D 62 18 00 0E 00 12 00 
   154)       610.9  Rx     18EF1CCD  8  A0 00 2A 00 4B 06 00 00 
   155)       627.6  Rx     18EFCD1C  8  A0 00 1B 00 00 00 00 00 
   156)       628.2  Rx     18EF1C8F  8  0D 70 00 77 EC A7 56 FB 
   157)       628.7  Rx     18EF1CCD  8  A1 40 00 00 00 00 00 00 
   158)       629.3  Rx     18EF1C8F  8  0D 71 F7 FF 22 00 86 03 
   159)       629.9  Rx     18EF1CCD  8  A0 00 1B 00 00 00 00 00 
   160)       630.4  Rx     18EF1C8F  8  0D 72 13 00 09 00 0F 00 
   161)       648.0  Rx     18EF1C8F  8  0D 80 00 95 3A A8 56 FB 
   162)       648.6  Rx     18EFCD1C  8  A0 00 00 00 00 00 00 00 
   163)       649.1  Rx     18EF1C8F  8  0D 81 05 00 1C 00 82 03 
   164)       649.7  Rx     18EF1CCD  8  A0 00 00 00 01 00 00 00 
   165)       650.3  Rx     18EF1C8F  8  0D 82 19 00 13 00 10 00 
   166)       668.0  Rx     18EF1C8F  8  0D 90 00 B7 88 A8 56 FB 
   167)       668.9  Rx     18EF1C8F  8  0D 91 F4 FF 24 00 86 03 
   168)       669.9  Rx     18EF1C8F  8  0D 92 15 00 05 00 0D 00 
   169)       687.6  Rx     18EFCD1C  8  A1 01 00 00 00 00 00 00 
   170)       688.2  Rx     18EF1C8F  8  0D A0 00 D2 D6 A8 56 FB 
   171)       688.8  Rx     18EF1CCD  8  A2 00 00 00 00 00 00 00 
   172)       689.3  Rx     18EF1C8F  8  0D A1 0B 00 1A 00 83 03 
   173)       690.0  Rx     18EF1C8F  8  0D A2 18 00 15 00 10 00 
   174)       708.0  Rx     18EF1C8F  8  0D B0 00 F7 24 A9 56 FB 
   175)       708.6  Rx     18EF1CCD  8  A3 00 00 00 00 00 00 00 
   176)       709.1  Rx     18EF1C8F  8  0D B1 F2 FF 25 00 84 03 
   177)       709.9  Rx     18EF1C8F  8  0D B2 16 00 01 00 0E 00 
   178)       728.1  Rx     18EF1C8F  8  0D C0 00 15 73 A9 56 FB 
   179)       728.6  Rx     18EF1CCD  8  A1 40 00 00 00 00 00 00 
   180)       729.2  Rx     18EF1C8F  8  0D C1 09 00 1B 00 82 03 
   181)       729.9  Rx     18EF1C8F  8  0D C2 17 00 13 00 0E 00 
   182)       748.0  Rx     18EF1C8F  8  0D D0 00 35 C1 A9 56 FB 
   183)       748.9  Rx     18EF1C8F  8  0D D1 F4 FF 27 00 81 03 
   184)       750.0  Rx     18EF1C8F  8  0D D2 16 00 02 00 0F 00 
   185)       768.0  Rx     18EF1C8F  8  0D E0 00 55 0F AA 56 FB 
   186)       769.0  Rx     18EF1C8F  8  0D E1 07 00 1D 00 85 03 
   187)       769.9  Rx     18EF1C8F  8  0D E2 18 00 13 00 0F 00 
   188)       788.0  Rx     18EF1C8F  8  0D F0 00 72 5D AA 56 FB 
   189)       788.6  Rx     18EF1CCD  8  A2 00 00 00 00 00 00 00 
   190)       789.2  Rx     18EF1C8F  8  0D F1 F7 FF 22 00 7F 03 
   191)       790.0  Rx     18EF1C8F  8  0D F2 17 00 03 00 0E 00 
   192)       792.5  Rx     18EFCD1C  8  A0 00 14 00 00 00 00 00 
   193)       793.1  Rx     18EF1CCD  8  A0 00 14 00 B4 07 00 00 
   194)       807.9  Rx     18EFCD1C  8  A0 00 2A 00 00 00 00 00 
   195)       808.5  Rx     18EF1C8F  8  0D 00 00 97 AB AA 56 FB 
   196)       809.0  Rx     18EF1C8F  8  0D 01 03 00 20 00 87 03 
   197)       809.6  Rx     18EF1CCD  8  A3 00 00 00 00 00 00 00 
   198)       810.2  Rx     18EF1C8F  8  0D 02 16 00 10 00 0F 00 
   199)       810.7  Rx     18EF1CCD  8  A0 00 2A 00 46 06 00 00 
   200)       827.7  Rx     18EFCD1C  8  A0 00 1B 00 00 00 00 00 
   201)       828.2  Rx     18EF1C8F  8  0D 10 00 B5 F9 AA 56 FB 
   202)       828.8  Rx     18EF1CCD  8  A1 40 00 00 00 00 00 00 
   203)       829.3  Rx     18EF1C8F  8  0D 11 FA FF 1D 00 7D 03 
   204)       829.9  Rx     18EF1CCD  8  A0 00 1B 00 00 00 00 00 
   205)       830.5  Rx     18EF1C8F  8  0D 12 19 00 08 00 13 00 
   206)       847.9  Rx     18EFCD1C  8  A0 00 00 00 00 00 00 00 
   207)       848.5  Rx     18EF1C8F  8  0D 20 00 D5 47 AB 56 FB 
   208)       849.0  Rx     18EF1C8F  8  0D 21 FD FF 22 00 8A 03 
   209)       849.6  Rx     18EF1CCD  8  A0 00 00 00 01 00 00 00 
   210)       850.1  Rx     18EF1C8F  8  0D 22 16 00 0C 00 0C 00 
   211)       868.1  Rx     18EF1C8F  8  0D 30 00 F7 95 AB 56 FB 
   212)       869.0  Rx     18EF1C8F  8  0D 31 00 00 1E 00 7F 03 
   213)       870.0  Rx     18EF1C8F  8  0D 32 1A 00 0D 00 11 00 
   214)       887.7  Rx     18EFCD1C  8  A1 01 00 00 00 00 00 00 
   215)       888.3  Rx     18EF1C8F  8  0D 40 00 12 E4 AB 57 FB 
   216)       888.8  Rx     18EF1CCD  8  A2 00 00 00 00 00 00 00 
   217)       889.4  Rx     18EF1C8F  8  0D 41 F6 FF 23 00 8A 03 
   218)       890.0  Rx     18EF1C8F  8  0D 42 15 00 09 00 0E 00 
   219)       908.0  Rx     18EF1C8F  8  0D 50 00 35 32 AC 56 FB 
   220)       908.6  Rx     18EF1CCD  8  A3 00 00 00 00 00 00 00 
   221)       909.2  Rx     18EF1C8F  8  0D 51 07 00 1E 00 81 03 
   222)       910.0  Rx     18EF1C8F  8  0D 52 16 00 10 00 10 00 
   223)       928.1  Rx     18EF1C8F  8  0D 60 00 55 80 AC 56 FB 
   224)       928.7  Rx     18EF1CCD  8  A1 40 00 00 00 00 00 00 
   225)       929.2  Rx     18EF1C8F  8  0D 61 F2 FF 23 00 87 03 
   226)       930.0  Rx     18EF1C8F  8  0D 62 17 00 06 00 0A 00 
   227)       948.1  Rx     18EF1C8F  8  0D 70 00 75 CE AC 56 FB 
   228)       949.0  Rx     18EF1C8F  8  0D 71 0B 00 1E 00 82 03 
   229)       950.0  Rx     18EF1C8F  8  0D 72 16 00 13 00 0D 00 
   230)       968.1  Rx     18EF1C8F  8  0D 80 00 95 1C AD 56 FB 
   231)       969.0  Rx     18EF1C8F  8  0D 81 F1 FF 23 00 83 03 
   232)       970.0  Rx     18EF1C8F  8  0D 82 17 00 04 00 0E 00 
   233)       988.1  Rx     18EF1C8F  8  0D 90 00 B2 6A AD 56 FB 
   234)       988.8  Rx     18EF1CCD  8  A2 00 00 00 00 00 00 00 
   235)       989.3  Rx     18EF1C8F  8  0D 91 0E 00 1E 00 83 03 
   236)       990.0  Rx     18EF1C8F  8  0D 92 1B 00 17 00 0F 00 
   237)       991.8  Rx     18EFCD1C  8  A0 00 14 00 00 00 00 00 
   238)       992.4  Rx     18EF1CCD  8  A0 00 14 00 B5 07 00 00 
   239)      1007.7  Rx     18EFCD1C  8  A0 00 2A 00 00 00 00 00 
   240)      1008.3  Rx     18EF1C8F  8  0D A0 00 D7 B8 AD 56 FB 
   241)      1008.9  Rx     18EF1CCD  8  A0 00 2A 00 48 06 00 00 
   242)      1009.4  Rx     18EF1C8F  8  0D A1 EF FF 20 00 82 03 
   243)      1010.0  Rx     18EF1CCD  8  A3 00 00 00 00 00 00 00 
   244)      1010.5  Rx     18EF1C8F  8  0D A2 18 00 00 00 0E 00 
   245)      1027.6  Rx     18EFCD1C  8  A0 00 1B 00 00 00 00 00 
   246)      1028.2  Rx     18EF1C8F  8  0D B0 00 F5 06 AE 56 FB 
   247)      1028.8  Rx     18EF1CCD  8  A0 00 1B 00 00 00 00 00 
   248)      1029.4  Rx     18EF1C8F  8  0D B1 0B 00 1F 00 84 03 
   249)      1029.9  Rx     18EF1CCD  8  A1 40 00 00 00 00 00 00 
   250)      1030.5  Rx     18EF1C8F  8  0D B2 17 00 11 00 0E 00 
   251)      1047.7  Rx     18EFCD1C  8  A0 00 00 00 00 00 00 00 
   252)      1048.3  Rx     18EF1C8F  8  0D C0 00 15 55 AE 56 FB 
   253)      1048.8  Rx     18EF1CCD  8  A0 00 00 00 01 00 00 00 
   254)      1049.4  Rx     18EF1C8F  8  0D C1 F3 FF 22 00 83 03 
   255)      1050.0  Rx     18EF1C8F  8  0D C2 15 00 00 00 0F 00 
   256)      1068.1  Rx     18EF1C8F  8  0D D0 00 35 A3 AE 56 FB 
   257)      1069.0  Rx     18EF1C8F  8  0D D1 03 00 21 00 85 03 
   258)      1070.0  Rx     18EF1C8F  8  0D D2 18 00 0D 00 0E 00 
   259)      1088.1  Rx     18EF1C8F  8  0D E0 00 55 F1 AE 56 FB 
   260)      1089.0  Rx     18EF1CCD  8  A2 00 00 00 00 00 00 00 
   261)      1089.6  Rx     18EF1C8F  8  0D E1 F9 FF 1F 00 83 03 
   262)      1090.1  Rx     18EF1C8F  8  0D E2 1A 00 03 00 10 00 
   263)      1090.6  Rx     18FEF31C  8  B5 2B 80 99 16 C7 2C 89 
   264)      1091.2  Rx     18FEE81C  8  33 8A 0F 00 00 00 2C 51 
   265)      1091.8  Rx     18FEE61C  8  6B 2E 0C 09 57 29 00 00 
   266)      1092.3  Rx     19F8021C  8  81 FC 70 BC 00 00 FF FF 
   267)      1092.9  Rx     18EFCD1C  8  A1 01 00 00 00 00 00 00 
   268)      1095.4  Rx     19F8051C  8  C0 2F 81 EE 50 79 08 69 
   269)      1095.9  Rx     19F8051C  8  C1 1B 40 76 3D 86 6C A7 
   270)      1096.5  Rx     19F8051C  8  C2 98 06 00 61 FE A5 2F 
   271)      1097.0  Rx     19F8051C  8  C3 90 CB 02 A6 D5 41 08 
   272)      1097.6  Rx     19F8051C  8  C4 00 00 00 00 40 00 0C 
   273)      1098.2  Rx     19F8051C  8  C5 5E 00 BF 00 FC 0F 00 
   274)      1098.7  Rx     19F8051C  8  C6 00 01 AF 02 20 03 FF 
   275)      1108.1  Rx     18EF1C8F  8  0D F0 00 7A 3F AF 57 FB 
   276)      1109.0  Rx     18EF1C8F  8  0D F1 FD FF 20 00 86 03 
   277)      1109.6  Rx     18EF1CCD  8  A3 00 00 00 00 00 00 00 
   278)      1110.2  Rx     18EF1C8F  8  0D F2 18 00 0E 00 0C 00 
   279)      1128.1  Rx     18EF1C8F  8  0D 00 00 95 8D AF 56 FB 
   280)      1129.0  Rx     18EF1C8F  8  0D 01 FE FF 1F 00 81 03 
   281)      1129.6  Rx     18EF1CCD  8  A1 40 00 00 00 00 00 00 
   282)      1130.2  Rx     18EF1C8F  8  0D 02 19 00 0C 00 0F 00 
   283)      1148.1  Rx     18EF1C8F  8  0D 10 00 B5 DB AF 56 FB 
   284)      1149.0  Rx     18EF1C8F  8  0D 11 F7 FF 22 00 89 03 
   285)      1150.0  Rx     18EF1C8F  8  0D 12 16 00 0B 00 0E 00 
   286)      1168.1  Rx     18EF1C8F  8  0D 20 00 D5 29 B0 57 FB 
   287)      1169.0  Rx     18EF1C8F  8  0D 21 03 00 1E 00 85 03 
   288)      1170.0  Rx     18EF1C8F  8  0D 22 17 00 10 00 12 00 
   289)      1188.1  Rx     18EF1C8F  8  0D 30 00 F5 77 B0 56 FB 
   290)      1189.0  Rx     18EF1C8F  8  0D 31 F8 FF 23 00 87 03 
   291)      1189.6  Rx     18EF1CCD  8  A2 00 00 00 00 00 00 00 
   292)      1190.2  Rx     18EF1C8F  8  0D 32 14 00 05 00 0C 00 
   293)      1194.3  Rx     18EFCD1C  8  A0 00 14 00 00 00 00 00 
   294)      1194.9  Rx     18EF1CCD  8  A0 00 14 00 B5 07 00 00 
   295)      1208.1  Rx     18EF1C8F  8  0D 40 00 15 C6 B0 57 FB 
   296)      1209.0  Rx     18EF1C8F  8  0D 41 09 00 1B 00 83 03 
   297)      1209.6  Rx     18EF1CCD  8  A3 00 00 00 00 00 00 00 
   298)      1210.2  Rx     18EF1C8F  8  0D 42 18 00 14 00 0F 00 
   299)      1211.4  Rx     18EFCD1C  8  A0 00 2A 00 00 00 00 00 
   300)      1212.1  Rx     18EF1CCD  8  A0 00 2A 00 45 06 00 00 
   301)      1227.7  Rx     18EFCD1C  8  A0 00 1B 00 00 00 00 00 
   302)      1228.3  Rx     18EF1C8F  8  0D 50 00 37 14 B1 57 FB 
   303)      1228.9  Rx     18EF1CCD  8  A0 00 1B 00 00 00 00 00 
   304)      1229.4  Rx     18EF1C8F  8  0D 51 F3 FF 25 00 85 03 
   305)      1230.0  Rx     18EF1CCD  8  A1 40 00 00 00 00 00 00 
   306)      1230.6  Rx     18EF1C8F  8  0D 52 16 00 01 00 0C 00 
   307)      1247.8  Rx     18EFCD1C  8  A0 00 00 00 00 00 00 00 
   308)      1248.3  Rx     18EF1C8F  8  0D 60 00 55 62 B1 56 FB 
   309)      1248.9  Rx     18EF1CCD  8  A0 00 00 00 01 00 00 00 
   310)      1249.4  Rx     18EF1C8F  8  0D 61 0B 00 1B 00 81 03 
   311)      1250.1  Rx     18EF1C8F  8  0D 62 17 00 13 00 10 00 
   312)      1268.1  Rx     18EF1C8F  8  0D 70 00 75 B0 B1 57 FB 
   313)      1269.0  Rx     18EF1C8F  8  0D 71 F1 FF 27 00 83 03 
   314)      1270.1  Rx     18EF1C8F  8  0D 72 16 00 01 00 10 00 
   315)      1288.1  Rx     18EF1C8F  8  0D 80 00 95 FE B1 57 FB 
   316)      1288.7  Rx     18EFCD1C  8  A1 01 00 00 00 00 00 00 
   317)      1289.3  Rx     18EF1C8F  8  0D 81 0C 00 1D 00 86 03 
   318)      1289.9  Rx     18EF1CCD  8  A2 00 00 00 00 00 00 00 
   319)      1290.4  Rx     18EF1C8F  8  0D 82 18 00 17 00 0E 00 
   320)      1308.1  Rx     18EF1C8F  8  0D 90 00 B5 4C B2 57 FB 
   321)      1309.0  Rx     18EF1C8F  8  0D 91 F5 FF 22 00 81 03 
   322)      1309.6  Rx     18EF1CCD  8  A3 00 00 00 00 00 00 00 
   323)      1310.2  Rx     18EF1C8F  8  0D 92 17 00 01 00 0F 00 
   324)      1328.1  Rx     18EF1C8F  8  0D A0 00 D5 9A B2 56 FB 
   325)      1329.1  Rx     18EF1C8F  8  0D A1 09 00 20 00 87 03 
   326)      1329.6  Rx     18EF1CCD  8  A1 40 00 00 00 00 00 00 
   327)      1330.2  Rx     18EF1C8F  8  0D A2 18 00 13 00 0E 00 
   328)      1348.2  Rx     18EF1C8F  8  0D B0 00 F5 E8 B2 57 FB 
   329)      1349.1  Rx     18EF1C8F  8  0D B1 F6 FF 21 00 7C 03 
   330)      1350.1  Rx     18EF1C8F  8  0D B2 1A 00 02 00 12 00 
   331)      1368.1  Rx     18EF1C8F  8  0D C0 00 15 37 B3 56 FB 
   332)      1369.1  Rx     18EF1C8F  8  0D C1 01 00 22 00 89 03 
   333)      1370.1  Rx     18EF1C8F  8  0D C2 18 00 0F 00 0D 00 
   334)      1388.1  Rx     18EF1C8F  8  0D D0 00 35 85 B3 57 FB 
   335)      1389.1  Rx     18EF1C8F  8  0D D1 FD FF 1F 00 82 03 
   336)      1389.7  Rx     18EF1CCD  8  A2 00 00 00 00 00 00 00 
   337)      1390.3  Rx     18EF1C8F  8  0D D2 17 00 08 00 12 00 
   338)      1393.2  Rx     18EFCD1C  8  A0 00 14 00 00 00 00 00 
   339)      1393.8  Rx     18EF1CCD  8  A0 00 14 00 B4 07 00 00 
   340)      1407.8  Rx     18EFCD1C  8  A0 00 2A 00 00 00 00 00 
   341)      1408.3  Rx     18EF1C8F  8  0D E0 00 55 D3 B3 57 FB 
   342)      1408.9  Rx     18EF1CCD  8  A0 00 2A 00 3D 06 00 00 
   343)      1409.5  Rx     18EF1C8F  8  0D E1 F9 FF 23 00 87 03 
   344)      1410.0  Rx     18EF1CCD  8  A3 00 00 00 00 00 00 00 
   345)      1410.6  Rx     18EF1C8F  8  0D E2 15 00 09 00 0E 00 
   346)      1427.8  Rx     18EFCD1C  8  A0 00 1B 00 00 00 00 00 
   347)      1428.4  Rx     18EF1C8F  8  0D F0 00 77 21 B4 57 FB 
   348)      1428.9  Rx     18EF1CCD  8  A0 00 1B 00 00 00 00 00 
   349)      1429.5  Rx     18EF1C8F  8  0D F1 03 00 1E 00 80 03 
   350)      1430.1  Rx     18EF1CCD  8  A1 40 00 00 00 00 00 00 
   351)      1430.7  Rx     18EF1C8F  8  0D F2 18 00 0F 00 11 00 
   352)      1447.7  Rx     18EFCD1C  8  A0 00 00 00 00 00 00 00 
   353)      1448.3  Rx     18EF1C8F  8  0D 00 00 95 6F B4 57 FB 
   354)      1448.9  Rx     18EF1CCD  8  A0 00 00 00 01 00 00 00 
   355)      1449.4  Rx     18EF1C8F  8  0D 01 F5 FF 21 00 86 03 
   356)      1450.1  Rx     18EF1C8F  8  0D 02 16 00 07 00 0E 00 
   357)      1467.6  Rx     18EFCD1C  4  01 2F 2F 00 
   358)      1468.0  Rx     18EF1CCD  4  01 30 2F 00 
   359)      1468.6  Rx     18EF1C8F  8  0D 10 00 B5 BD B4 57 FB 
   360)      1469.2  Rx     18EF1C8F  8  0D 11 09 00 1C 00 82 03 
   361)      1470.0  Rx     18EF1C8F  8  0D 12 19 00 12 00 0E 00 
   362)      1487.9  Rx     18EFCD1C  8  A1 01 00 00 00 00 00 00 
   363)      1488.5  Rx     18EF1C8F  8  0D 20 00 D5 0B B5 57 FB 
   364)      1489.0  Rx     18EF1C8F  8  0D 21 F3 FF 23 00 84 03 
   365)      1489.8  Rx     18EF1CCD  8  A2 00 00 00 00 00 00 00 
   366)      1490.4  Rx     18EF1C8F  8  0D 22 15 00 05 00 0B 00 
   367)      1508.1  Rx     18EF1C8F  8  0D 30 00 F7 59 B5 57 FB 
   368)      1509.0  Rx     18EF1C8F  8  0D 31 08 00 1F 00 81 03 
   369)      1509.9  Rx     18EF1CCD  8  A3 00 00 00 00 00 00 00 
   370)      1510.4  Rx     18EF1C8F  8  0D 32 19 00 17 00 11 00 
   371)      1528.0  Rx     18EF1C8F  8  0D 40 00 15 A8 B5 57 FB 
   372)      1529.0  Rx     18EF1C8F  8  0D 41 EF FF 23 00 85 03 
   373)      1529.9  Rx     18EF1CCD  8  A1 40 00 00 00 00 00 00 
   374)      1530.5  Rx     18EF1C8F  8  0D 42 14 00 01 00 0E 00 
   375)      1548.0  Rx     18EF1C8F  8  0D 50 00 35 F6 B5 57 FB 
   376)      1549.0  Rx     18EF1C8F  8  0D 51 0A 00 1E 00 83 03 
   377)      1549.9  Rx     18EF1C8F  8  0D 52 16 00 16 00 0D 00 
   378)      1568.0  Rx     18EF1C8F  8  0D 60 00 55 44 B6 56 FB 
   379)      1568.9  Rx     18EF1C8F  8  0D 61 F0 FF 24 00 82 03 
   380)      1569.9  Rx     18EF1C8F  8  0D 62 17 00 FE FF 10 00 
   381)      1588.0  Rx     18EF1C8F  8  0D 70 00 75 92 B6 57 FB 
   382)      1588.9  Rx     18EF1C8F  8  0D 71 06 00 1D 00 84 03 
   383)      1590.0  Rx     18EF1C8F  8  0D 72 18 00 10 00 0F 00 
   384)      1590.5  Rx     18EF1CCD  8  A2 00 00 00 00 00 00 00 
   385)      1593.0  Rx     18EFCD1C  8  A0 00 14 00 00 00 00 00 
   386)      1593.6  Rx     18EF1CCD  8  A0 00 14 00 B4 07 00 00 
   387)      1607.6  Rx     18EFCD1C  8  A0 00 2A 00 00 00 00 00 
   388)      1608.2  Rx     18EF1C8F  8  0D 80 00 95 E0 B6 57 FB 
   389)      1608.7  Rx     18EF1CCD  8  A0 00 2A 00 46 06 00 00 
   390)      1609.3  Rx     18EF1C8F  8  0D 81 F7 FF 20 00 81 03 
   391)      1609.9  Rx     18EF1C8F  8  0D 82 16 00 01 00 11 00 
   392)      1610.5  Rx     18EF1CCD  8  A3 00 00 00 00 00 00 00 
   393)      1627.6  Rx     18EFCD1C  8  A0 00 1B 00 00 00 00 00 
   394)      1628.1  Rx     18EF1C8F  8  0D 90 00 B5 2E B7 57 FB 
   395)      1628.7  Rx     18EF1CCD  8  A0 00 1B 00 00 00 00 00 
   396)      1629.3  Rx     18EF1C8F  8  0D 91 03 00 20 00 84 03 
   397)      1629.9  Rx     18EF1C8F  8  0D 92 17 00 11 00 0F 00 
   398)      1630.5  Rx     18EF1CCD  8  A1 40 00 00 00 00 00 00 
   399)      1647.6  Rx     18EFCD1C  8  A0 00 00 00 00 00 00 00 
   400)      1648.1  Rx     18EF1C8F  8  0D A0 00 D5 7C B7 57 FB 
   401)      1648.7  Rx     18EF1CCD  8  A0 00 00 00 01 00 00 00 
   402)      1649.3  Rx     18EF1C8F  8  0D A1 FC FF 20 00 82 03 
   403)      1650.0  Rx     18EF1C8F  8  0D A2 1A 00 05 00 11 00 
   404)      1668.0  Rx     18EF1C8F  8  0D B0 00 F5 CA B7 57 FB 
   405)      1668.9  Rx     18EF1C8F  8  0D B1 FC FF 22 00 85 03 
   406)      1669.9  Rx     18EF1C8F  8  0D B2 15 00 0D 00 0E 00 
   407)      1687.6  Rx     18EFCD1C  8  A1 01 00 00 00 00 00 00 
   408)      1688.1  Rx     18EF1C8F  8  0D C0 00 15 19 B8 57 FB 
   409)      1688.9  Rx     18EF1C8F  8  0D C1 FF FF 1F 00 80 03 
   410)      1689.9  Rx     18EF1C8F  8  0D C2 17 00 09 00 10 00 
   411)      1690.5  Rx     18EF1CCD  8  A2 00 00 00 00 00 00 00 
   412)      1708.0  Rx     18EF1C8F  8  0D D0 00 35 67 B8 57 FB 
   413)      1708.9  Rx     18EF1C8F  8  0D D1 FA FF 23 00 89 03 
   414)      1709.9  Rx     18EF1C8F  8  0D D2 16 00 0A 00 0C 00 
   415)      1710.5  Rx     18EF1CCD  8  A3 00 00 00 00 00 00 00 
   416)      1728.0  Rx     18EF1C8F  8  0D E0 00 55 B5 B8 57 FB 
   417)      1728.9  Rx     18EF1C8F  8  0D E1 04 00 1A 00 81 03 
   418)      1729.9  Rx     18EF1C8F  8  0D E2 18 00 0D 00 10 00 
   419)      1730.5  Rx     18EF1CCD  8  A1 40 00 00 00 00 00 00 
   420)      1748.0  Rx     18EF1C8F  8  0D F0 00 72 03 B9 57 FB 
   421)      1748.9  Rx     18EF1C8F  8  0D F1 F5 FF 23 00 87 03 
   422)      1749.9  Rx     18EF1C8F  8  0D F2 15 00 07 00 0D 00 
   423)      1768.0  Rx     18EF1C8F  8  0D 00 00 95 51 B9 57 FB 
   424)      1768.9  Rx     18EF1C8F  8  0D 01 0A 00 1A 00 84 03 
   425)      1769.9  Rx     18EF1C8F  8  0D 02 18 00 11 00 10 00 
   426)      1788.0  Rx     18EF1C8F  8  0D 10 00 B5 9F B9 57 FB 
   427)      1788.9  Rx     18EF1C8F  8  0D 11 F4 FF 25 00 85 03 
   428)      1789.9  Rx     18EF1C8F  8  0D 12 16 00 02 00 0B 00 
   429)      1790.5  Rx     18EF1CCD  8  A2 00 00 00 00 00 00 00 
   430)      1792.4  Rx     18EFCD1C  8  A0 00 14 00 00 00 00 00 
   431)      1793.0  Rx     18EF1CCD  8  A0 00 14 00 B5 07 00 00 
   432)      1807.9  Rx     18EFCD1C  8  A0 00 2A 00 00 00 00 00 
   433)      1808.4  Rx     18EF1C8F  8  0D 20 00 D5 ED B9 57 FB 
   434)      1809.0  Rx     18EF1C8F  8  0D 21 0A 00 1C 00 82 03 
   435)      1809.5  Rx     18EF1CCD  8  A0 00 2A 00 48 06 00 00 
   436)      1810.1  Rx     18EF1C8F  8  0D 22 17 00 13 00 0F 00 
   437)      1810.7  Rx     18EF1CCD  8  A3 00 00 00 00 00 00 00 
   438)      1827.6  Rx     18EFCD1C  8  A0 00 1B 00 00 00 00 00 
   439)      1828.1  Rx     18EF1C8F  8  0D 30 00 F7 3B BA 58 FB 
   440)      1828.7  Rx     18EF1CCD  8  A0 00 1B 00 00 00 00 00 
   441)      1829.3  Rx     18EF1C8F  8  0D 31 F2 FF 23 00 83 03 
   442)      1829.9  Rx     18EF1C8F  8  0D 32 15 00 01 00 11 00 
   443)      1830.5  Rx     18EF1CCD  8  A1 40 00 00 00 00 00 00 
   444)      1847.5  Rx     18EFCD1C  8  A0 00 00 00 00 00 00 00 
   445)      1848.1  Rx     18EF1C8F  8  0D 40 00 15 8A BA 58 FB 
   446)      1848.7  Rx     18EF1CCD  8  A0 00 00 00 01 00 00 00 
   447)      1849.2  Rx     18EF1C8F  8  0D 41 0A 00 1F 00 84 03 
   448)      1849.9  Rx     18EF1C8F  8  0D 42 14 00 15 00 0D 00 
   449)      1867.9  Rx     18EF1C8F  8  0D 50 00 35 D8 BA 58 FB 
   450)      1868.9  Rx     18EF1C8F  8  0D 51 F3 FF 21 00 7E 03 
   451)      1869.9  Rx     18EF1C8F  8  0D 52 16 00 01 00 0F 00 
   452)      1887.5  Rx     18EFCD1C  8  A1 01 00 00 00 00 00 00 
   453)      1888.1  Rx     18EF1C8F  8  0D 60 00 55 26 BB 58 FB 
   454)      1888.9  Rx     18EF1C8F  8  0D 61 05 00 1F 00 87 03 
   455)      1889.9  Rx     18EF1C8F  8  0D 62 1D 00 10 00 0D 00 
   456)      1890.7  Rx     18EF1CCD  8  A2 00 00 00 00 00 00 00 
   457)      1908.0  Rx     18EF1C8F  8  0D 70 00 75 74 BB 58 FB 
   458)      1908.9  Rx     18EF1C8F  8  0D 71 F8 FF 20 00 81 03 
   459)      1909.9  Rx     18EF1C8F  8  0D 72 1B 00 02 00 0F 00 
   460)      1910.7  Rx     18EF1CCD  8  A3 00 00 00 00 00 00 00 
   461)      1927.9  Rx     18EF1C8F  8  0D 80 00 95 C2 BB 58 FB 
   462)      1928.9  Rx     18EF1C8F  8  0D 81 FF FF 22 00 86 03 
   463)      1929.9  Rx     18EF1C8F  8  0D 82 17 00 0B 00 10 00 
   464)      1930.7  Rx     18EF1CCD  8  A1 40 00 00 00 00 00 00 
   465)      1948.0  Rx     18EF1C8F  8  0D 90 00 B5 10 BC 58 FB 
   466)      1948.9  Rx     18EF1C8F  8  0D 91 FE FF 1D 00 81 03 
   467)      1949.9  Rx     18EF1C8F  8  0D 92 18 00 07 00 13 00 
   468)      1967.9  Rx     18EF1C8F  8  0D A0 00 D5 5E BC 58 FB 
   469)      1968.9  Rx     18EF1C8F  8  0D A1 FA FF 23 00 85 03 
   470)      1969.9  Rx     18EF1C8F  8  0D A2 18 00 0B 00 0E 00 
   471)      1988.0  Rx     18EF1C8F  8  0D B0 00 F5 AC BC 58 FB 
   472)      1988.9  Rx     18EF1C8F  8  0D B1 04 00 1D 00 81 03 
   473)      1989.9  Rx     18EF1C8F  8  0D B2 18 00 0B 00 11 00 
   474)      1990.9  Rx     18EF1CCD  8  A2 00 00 00 00 00 00 00 
   475)      1992.6  Rx     18EFCD1C  8  A0 00 14 00 00 00 00 00 
   476)      1993.2  Rx     18EF1CCD  8  A0 00 14 00 B4 07 00 00 
   477)      2007.6  Rx     18EFCD1C  8  A0 00 2A 00 00 00 00 00 
   478)      2008.1  Rx     18EF1C8F  8  0D C0 00 15 FB BC 58 FB 
   479)      2008.7  Rx     18EF1CCD  8  A0 00 2A 00 46 06 00 00 
   480)      2009.2  Rx     18EF1C8F  8  0D C1 F6 FF 22 00 88 03 
   481)      2009.9  Rx     18EF1C8F  8  0D C2 15 00 08 00 0D 00 
   482)      2010.9  Rx     18EF1CCD  8  A3 00 00 00 00 00 00 00 
   483)      2027.6  Rx     18EFCD1C  8  A0 00 1B 00 00 00 00 00 
   484)      2028.1  Rx     18EF1C8F  8  0D D0 00 37 49 BD 57 FB 
   485)      2028.7  Rx     18EF1CCD  8  A0 00 1B 00 00 00 00 00 
   486)      2029.3  Rx     18EF1C8F  8  0D D1 08 00 1E 00 85 03 
   487)      2029.9  Rx     18EF1C8F  8  0D D2 18 00 13 00 10 00 
   488)      2031.0  Rx     18EF1CCD  8  A1 40 00 00 00 00 00 00 
   489)      2047.5  Rx     18EFCD1C  8  A0 00 00 00 00 00 00 00 
   490)      2048.1  Rx     18EF1C8F  8  0D E0 00 55 97 BD 58 FB 
   491)      2048.7  Rx     18EF1CCD  8  A0 00 00 00 01 00 00 00 
   492)      2049.2  Rx     18EF1C8F  8  0D E1 F5 FF 22 00 84 03 
   493)      2049.9  Rx     18EF1C8F  8  0D E2 16 00 05 00 10 00 
   494)      2068.0  Rx     18EF1C8F  8  0D F0 00 75 E5 BD 57 FB 
   495)      2068.9  Rx     18EF1C8F  8  0D F1 0C 00 1B 00 81 03 
   496)      2069.9  Rx     18EF1C8F  8  0D F2 17 00 16 00 0E 00 
   497)      2088.0  Rx     18EF1C8F  8  0D 00 00 95 33 BE 58 FB 
   498)      2088.6  Rx     18FEF31C  8  B6 2B 80 99 15 C7 2C 89 
   499)      2089.2  Rx     18EF1C8F  8  0D 01 F2 FF 26 00 85 03 
   500)      2089.7  Rx     18FEE81C  8  33 8A 08 00 00 00 2C 51 
   501)      2090.3  Rx     18EF1C8F  8  0D 02 18 00 00 00 0F 00 
   502)      2090.8  Rx     18FEE61C  8  6F 2E 0C 09 57 29 00 00 
   503)      2091.4  Rx     18EF1CCD  8  A2 00 00 00 00 00 00 00 
   504)      2092.0  Rx     19F8021C  8  86 FC 70 BC 00 00 FF FF 
   505)      2092.5  Rx     18EFCD1C  8  A1 01 00 00 00 00 00 00 
   506)      2095.5  Rx     19F8051C  8  E0 2F 86 EE 50 89 2F 69 
   507)      2096.0  Rx     19F8051C  8  E1 1B 80 F0 68 CB 6C A7 
   508)      2096.6  Rx     19F8051C  8  E2 98 06 80 8F A3 7B 2F 
   509)      2097.1  Rx     19F8051C  8  E3 90 CB 02 E1 B5 41 08 
   510)      2097.7  Rx     19F8051C  8  E4 00 00 00 00 40 00 0C 
   511)      2098.3  Rx     19F8051C  8  E5 5E 00 BF 00 FC 0F 00 
   512)      2098.8  Rx     19F8051C  8  E6 00 01 AF 02 F4 01 FF 
   513)      2108.0  Rx     18EF1C8F  8  0D 10 00 BA 81 BE 58 FB 
   514)      2108.9  Rx     18EF1C8F  8  0D 11 09 00 1A 00 82 03 
   515)      2109.9  Rx     18EF1C8F  8  0D 12 19 00 0F 00 0F 00 
   516)      2111.2  Rx     18EF1CCD  8  A3 00 00 00 00 00 00 00 
   517)      2128.0  Rx     18EF1C8F  8  0D 20 00 D5 CF BE 58 FB 
   518)      2128.9  Rx     18EF1C8F  8  0D 21 F4 FF 24 00 83 03 
   519)      2129.9  Rx     18EF1C8F  8  0D 22 15 00 01 00 0F 00 
   520)      2131.2  Rx     18EF1CCD  8  A1 40 00 00 00 00 00 00 
   521)      2148.0  Rx     18EF1C8F  8  0D 30 00 F5 1D BF 58 FB 
   522)      2148.9  Rx     18EF1C8F  8  0D 31 08 00 1D 00 86 03 
   523)      2149.9  Rx     18EF1C8F  8  0D 32 18 00 15 00 0E 00 
   524)      2168.0  Rx     18EF1C8F  8  0D 40 00 17 6C BF 58 FB 
   525)      2168.9  Rx     18EF1C8F  8  0D 41 F7 FF 24 00 81 03 
   526)      2169.9  Rx     18EF1C8F  8  0D 42 15 00 03 00 10 00 
   527)      2188.0  Rx     18EF1C8F  8  0D 50 00 32 BA BF 58 FB 
   528)      2188.9  Rx     18EF1C8F  8  0D 51 02 00 20 00 87 03 
   529)      2189.9  Rx     18EF1C8F  8  0D 52 16 00 0F 00 0E 00 
   530)      2191.4  Rx     18EF1CCD  8  A2 00 00 00 00 00 00 00 
   531)      2194.5  Rx     18EFCD1C  8  A0 00 14 00 00 00 00 00 
   532)      2195.1  Rx     18EF1CCD  8  A0 00 14 00 B4 07 00 00 
   533)      2208.0  Rx     18EF1C8F  8  0D 60 00 55 08 C0 58 FB 
   534)      2208.9  Rx     18EF1C8F  8  0D 61 F8 FF 20 00 7E 03 
   535)      2209.9  Rx     18EF1C8F  8  0D 62 1A 00 08 00 10 00 
   536)      2211.4  Rx     18EF1CCD  8  A3 00 00 00 00 00 00 00 
   537)      2212.3  Rx     18EFCD1C  8  A0 00 2A 00 00 00 00 00 
   538)      2213.0  Rx     18EF1CCD  8  A0 00 2A 00 47 06 00 00 
   539)      2227.6  Rx     18EFCD1C  8  A0 00 1B 00 00 00 00 00 
   540)      2228.1  Rx     18EF1C8F  8  0D 70 00 77 56 C0 58 FB 
   541)      2228.7  Rx     18EF1CCD  8  A0 00 1B 00 00 00 00 00 
   542)      2229.2  Rx     18EF1C8F  8  0D 71 FD FF 23 00 8A 03 
   543)      2229.9  Rx     18EF1C8F  8  0D 72 16 00 0D 00 0E 00 
   544)      2231.5  Rx     18EF1CCD  8  A1 40 00 00 00 00 00 00 
   545)      2247.6  Rx     18EFCD1C  8  A0 00 00 00 00 00 00 00 
   546)      2248.1  Rx     18EF1C8F  8  0D 80 00 95 A4 C0 58 FB 
   547)      2248.7  Rx     18EF1CCD  8  A0 00 00 00 01 00 00 00 
   548)      2249.3  Rx     18EF1C8F  8  0D 81 00 00 1D 00 7F 03 
   549)      2249.9  Rx     18EF1C8F  8  0D 82 18 00 0C 00 11 00 
   550)      2268.0  Rx     18EF1C8F  8  0D 90 00 B2 F2 C0 58 FB 
   551)      2268.9  Rx     18EF1C8F  8  0D 91 F5 FF 22 00 88 03 
   552)      2269.9  Rx     18EF1C8F  8  0D 92 15 00 07 00 0C 00 
   553)      2287.5  Rx     18EFCD1C  8  A1 01 00 00 00 00 00 00 
   554)      2288.1  Rx     18EF1C8F  8  0D A0 00 D5 40 C1 58 FB 
   555)      2288.9  Rx     18EF1C8F  8  0D A1 07 00 1C 00 81 03 
   556)      2289.9  Rx     18EF1C8F  8  0D A2 18 00 11 00 12 00 
   557)      2291.6  Rx     18EF1CCD  8  A2 00 00 00 00 00 00 00 
   558)      2308.0  Rx     18EF1C8F  8  0D B0 00 F5 8E C1 58 FB 
   559)      2308.9  Rx     18EF1C8F  8  0D B1 F1 FF 23 00 86 03 
   560)      2309.9  Rx     18EF1C8F  8  0D B2 17 00 07 00 10 00 
   561)      2311.6  Rx     18EF1CCD  8  A3 00 00 00 00 00 00 00 
   562)      2328.0  Rx     18EF1C8F  8  0D C0 00 15 DD C1 58 FB 
   563)      2328.9  Rx     18EF1C8F  8  0D C1 0C 00 1B 00 82 03 
   564)      2329.9  Rx     18EF1C8F  8  0D C2 17 00 15 00 0E 00 
   565)      2331.7  Rx     18EF1CCD  8  A1 40 00 00 00 00 00 00 
   566)      2347.9  Rx     18EF1C8F  8  0D D0 00 32 2B C2 58 FB 
   567)      2348.9  Rx     18EF1C8F  8  0D D1 F1 FF 24 00 84 03 
   568)      2349.9  Rx     18EF1C8F  8  0D D2 14 00 04 00 0E 00 
   569)      2368.0  Rx     18EF1C8F  8  0D E0 00 55 79 C2 58 FB 
   570)      2368.9  Rx     18EF1C8F  8  0D E1 0E 00 1E 00 82 03 
   571)      2369.9  Rx     18EF1C8F  8  0D E2 17 00 17 00 0E 00 
   572)      2388.0  Rx     18EF1C8F  8  0D F0 00 75 C7 C2 58 FB 
   573)      2388.9  Rx     18EF1C8F  8  0D F1 F0 FF 22 00 83 03 
   574)      2389.9  Rx     18EF1C8F  8  0D F2 16 00 02 00 0F 00 
   575)      2391.8  Rx     18EF1CCD  8  A2 00 00 00 00 00 00 00 
   576)      2392.4  Rx     18EFCD1C  8  A0 00 14 00 00 00 00 00 
   577)      2393.0  Rx     18EF1CCD  8  A0 00 14 00 B4 07 00 00 
   578)      2407.6  Rx     18EFCD1C  8  A0 00 2A 00 00 00 00 00 
   579)      2408.1  Rx     18EF1C8F  8  0D 00 00 97 15 C3 58 FB 
   580)      2408.7  Rx     18EF1CCD  8  A0 00 2A 00 3F 06 00 00 
   581)      2409.2  Rx     18EF1C8F  8  0D 01 0A 00 1E 00 83 03 
   582)      2409.9  Rx     18EF1C8F  8  0D 02 19 00 16 00 0E 00 
   583)      2411.8  Rx     18EF1CCD  8  A3 00 00 00 00 00 00 00 
   584)      2427.5  Rx     18EFCD1C  8  A0 00 1B 00 00 00 00 00 
   585)      2428.0  Rx     18EF1C8F  8  0D 10 00 B5 63 C3 58 FB 
   586)      2428.6  Rx     18EF1CCD  8  A0 00 1B 00 00 00 00 00 
   587)      2429.2  Rx     18EF1C8F  8  0D 11 F4 FF 23 00 82 03 
   588)      2429.8  Rx     18EF1C8F  8  0D 12 19 00 00 00 0F 00 
   589)      2431.9  Rx     18EF1CCD  8  A1 40 00 00 00 00 00 00 
   590)      2447.5  Rx     18EFCD1C  8  A0 00 00 00 00 00 00 00 
   591)      2448.0  Rx     18EF1C8F  8  0D 20 00 D7 B1 C3 58 FB 
   592)      2448.6  Rx     18EF1CCD  8  A0 00 00 00 01 00 00 00 
   593)      2449.2  Rx     18EF1C8F  8  0D 21 04 00 20 00 86 03 
   594)      2449.9  Rx     18EF1C8F  8  0D 22 19 00 0F 00 0E 00 
   595)      2467.9  Rx     18EF1C8F  8  0D 30 00 F5 FF C3 58 FB 
   596)      2468.9  Rx     18EF1C8F  8  0D 31 F7 FF 1F 00 81 03 
   597)      2469.9  Rx     18EF1C8F  8  0D 32 18 00 04 00 12 00 
   598)      2487.5  Rx     18EFCD1C  8  A1 01 00 00 00 00 00 00 
   599)      2488.1  Rx     18EF1C8F  8  0D 40 00 12 4E C4 58 FB 
   600)      2488.9  Rx     18EF1C8F  8  0D 41 FB FF 20 00 85 03 
   601)      2489.9  Rx     18EF1C8F  8  0D 42 17 00 0C 00 0D 00 
   602)      2492.0  Rx     18EF1CCD  8  A2 00 00 00 00 00 00 00 
   603)      2507.9  Rx     18EF1C8F  8  0D 50 00 37 9C C4 58 FB 
   604)      2508.9  Rx     18EF1C8F  8  0D 51 FE FF 1E 00 82 03 
   605)      2509.8  Rx     18EF1C8F  8  0D 52 19 00 06 00 10 00 
   606)      2512.1  Rx     18EF1CCD  8  A3 00 00 00 00 00 00 00 
   607)      2527.9  Rx     18EF1C8F  8  0D 60 00 55 EA C4 58 FB 
   608)      2528.9  Rx     18EF1C8F  8  0D 61 FA FF 22 00 85 03 
   609)      2529.8  Rx     18EF1C8F  8  0D 62 14 00 0B 00 0E 00 
   610)      2532.1  Rx     18EF1CCD  8  A1 40 00 00 00 00 00 00 
   611)      2547.9  Rx     18EF1C8F  8  0D 70 00 75 38 C5 58 FB 
   612)      2548.8  Rx     18EF1C8F  8  0D 71 02 00 1D 00 82 03 
   613)      2549.9  Rx     18EF1C8F  8  0D 72 1A 00 0F 00 11 00 
   614)      2567.9  Rx     18EF1C8F  8  0D 80 00 95 86 C5 58 FB 
   615)      2568.9  Rx     18EF1C8F  8  0D 81 F7 FF 24 00 88 03 
   616)      2569.8  Rx     18EF1C8F  8  0D 82 14 00 06 00 0D 00 
   617)      2587.9  Rx     18EF1C8F  8  0D 90 00 B5 D4 C5 58 FB 
   618)      2588.8  Rx     18EF1C8F  8  0D 91 08 00 1B 00 83 03 
   619)      2589.8  Rx     18EF1C8F  8  0D 92 17 00 13 00 0E 00 
   620)      2591.7  Rx     18EF8F1C  4  01 2C 2C 00 
   621)      2592.3  Rx     18EF1CCD  8  A2 00 00 00 00 00 00 00 
   622)      2592.9  Rx     18EFCD1C  8  A0 00 14 00 00 00 00 00 
   623)      2593.3  Rx     18EF1C8F  4  01 2D 2C 00 
   624)      2593.9  Rx     18EF1CCD  8  A0 00 14 00 B4 07 00 00 
   625)      2607.9  Rx     18EF1C8F  8  0D A0 00 D7 22 C6 58 FB 
   626)      2608.8  Rx     18EF1C8F  8  0D A1 F4 FF 24 00 86 03 
   627)      2609.4  Rx     18EFCD1C  8  A0 00 2A 00 00 00 00 00 
   628)      2610.0  Rx     18EF1C8F  8  0D A2 14 00 02 00 0B 00 
   629)      2610.5  Rx     18EF1CCD  8  A0 00 2A 00 4D 06 00 00 
   630)      2612.2  Rx     18EF1CCD  8  A3 00 00 00 00 00 00 00 
   631)      2627.5  Rx     18EFCD1C  8  A0 00 1B 00 00 00 00 00 
   632)      2628.0  Rx     18EF1C8F  8  0D B0 00 F5 70 C6 58 FB 
   633)      2628.6  Rx     18EF1CCD  8  A0 00 1B 00 00 00 00 00 
   634)      2629.2  Rx     18EF1C8F  8  0D B1 09 00 1B 00 82 03 
   635)      2629.8  Rx     18EF1C8F  8  0D B2 18 00 15 00 0D 00 
   636)      2632.3  Rx     18EF1CCD  8  A1 40 00 00 00 00 00 00 
   637)      2647.4  Rx     18EFCD1C  8  A0 00 00 00 00 00 00 00 
   638)      2648.0  Rx     18EF1C8F  8  0D C0 00 15 BF C6 58 FB 
   639)      2648.6  Rx     18EF1CCD  8  A0 00 00 00 01 00 00 00 
   640)      2649.1  Rx     18EF1C8F  8  0D C1 F3 FF 28 00 84 03 
   641)      2649.8  Rx     18EF1C8F  8  0D C2 15 00 00 00 10 00 
   642)      2667.9  Rx     18EF1C8F  8  0D D0 00 35 0D C7 58 FB 
   643)      2668.8  Rx     18EF1C8F  8  0D D1 0B 00 1E 00 87 03 
   644)      2669.8  Rx     18EF1C8F  8  0D D2 1A 00 14 00 0F 00 
   645)      2687.4  Rx     18EFCD1C  8  A1 01 00 00 00 00 00 00 
   646)      2688.0  Rx     18EF1C8F  8  0D E0 00 55 5B C7 58 FB 
   647)      2688.8  Rx     18EF1C8F  8  0D E1 F3 FF 23 00 7F 03 
   648)      2689.8  Rx     18EF1C8F  8  0D E2 17 00 02 00 0D 00 
   649)      2692.4  Rx     18EF1CCD  8  A2 00 00 00 00 00 00 00 
   650)      2707.9  Rx     18EF1C8F  8  0D F0 00 75 A9 C7 58 FB 
   651)      2708.8  Rx     18EF1C8F  8  0D F1 0A 00 1F 00 86 03 
   652)      2709.8  Rx     18EF1C8F  8  0D F2 18 00 12 00 0D 00 
   653)      2712.5  Rx     18EF1CCD  8  A3 00 00 00 00 00 00 00 
   654)      2727.9  Rx     18EF1C8F  8  0D 00 00 95 F7 C7 58 FB 
   655)      2728.8  Rx     18EF1C8F  8  0D 01 F5 FF 21 00 7D 03 
   656)      2729.8  Rx     18EF1C8F  8  0D 02 19 00 02 00 11 00 
   657)      2732.5  Rx     18EF1CCD  8  A1 40 00 00 00 00 00 00 
   658)      2747.9  Rx     18EF1C8F  8  0D 10 00 B2 45 C8 59 FB 
   659)      2748.8  Rx     18EF1C8F  8  0D 11 02 00 22 00 89 03 
   660)      2749.8  Rx     18EF1C8F  8  0D 12 19 00 0D 00 0F 00 
   661)      2767.9  Rx     18EF1C8F  8  0D 20 00 D5 93 C8 59 FB 
   662)      2768.8  Rx     18EF1C8F  8  0D 21 FE FF 1F 00 7F 03 
   663)      2769.9  Rx     18EF1C8F  8  0D 22 18 00 07 00 12 00 
   664)      2787.9  Rx     18EF1C8F  8  0D 30 00 F5 E1 C8 59 FB 
   665)      2788.8  Rx     18EF1C8F  8  0D 31 FD FF 22 00 89 03 
   666)      2789.8  Rx     18EF1C8F  8  0D 32 15 00 09 00 12 00 
   667)      2792.4  Rx     18EFCD1C  8  A0 00 14 00 00 00 00 00 
   668)      2793.0  Rx     18EF1CCD  8  A2 00 00 00 00 00 00 00 
   669)      2793.7  Rx     18EF1CCD  8  A0 00 14 00 B3 07 00 00 
   670)      2807.9  Rx     18EF1C8F  8  0D 40 00 17 30 C9 58 FB 
   671)      2808.8  Rx     18EF1C8F  8  0D 41 02 00 1C 00 81 03 
   672)      2809.4  Rx     18EFCD1C  8  A0 00 2A 00 00 00 00 00 
   673)      2810.0  Rx     18EF1C8F  8  0D 42 17 00 0D 00 12 00 
   674)      2810.5  Rx     18EF1CCD  8  A0 00 2A 00 4B 06 00 00 
   675)      2812.7  Rx     18EF1CCD  8  A3 00 00 00 00 00 00 00 
   676)      2827.5  Rx     18EFCD1C  8  A0 00 1B 00 00 00 00 00 
   677)      2828.1  Rx     18EF1C8F  8  0D 50 00 35 7E C9 59 FB 
   678)      2828.6  Rx     18EF1CCD  8  A0 00 1B 00 00 00 00 00 
   679)      2829.2  Rx     18EF1C8F  8  0D 51 F6 FF 22 00 86 03 
   680)      2829.9  Rx     18EF1C8F  8  0D 52 15 00 08 00 09 00 
   681)      2832.7  Rx     18EF1CCD  8  A1 40 00 00 00 00 00 00 
   682)      2847.4  Rx     18EFCD1C  8  A0 00 00 00 00 00 00 00 
   683)      2848.0  Rx     18EF1C8F  8  0D 60 00 55 CC C9 58 FB 
   684)      2848.6  Rx     18EF1CCD  8  A0 00 00 00 01 00 00 00 
   685)      2849.1  Rx     18EF1C8F  8  0D 61 0A 00 1C 00 81 03 
   686)      2849.8  Rx     18EF1C8F  8  0D 62 18 00 10 00 0B 00 
   687)      2867.9  Rx     18EF1C8F  8  0D 70 00 75 1A CA 58 FB 
   688)      2868.8  Rx     18EF1C8F  8  0D 71 F4 FF 22 00 87 03 
   689)      2869.8  Rx     18EF1C8F  8  0D 72 16 00 05 00 0E 00 
   690)      2887.4  Rx     18EFCD1C  8  A1 01 00 00 00 00 00 00 
   691)      2888.0  Rx     18EF1C8F  8  0D 80 00 95 68 CA 58 FB 
   692)      2888.8  Rx     18EF1C8F  8  0D 81 0A 00 1D 00 83 03 
   693)      2889.8  Rx     18EF1C8F  8  0D 82 17 00 16 00 10 00 
   694)      2892.9  Rx     18EF1CCD  8  A2 00 00 00 00 00 00 00 
   695)      2907.9  Rx     18EF1C8F  8  0D 90 00 B5 B6 CA 58 FB 
   696)      2908.8  Rx     18EF1C8F  8  0D 91 F1 FF 24 00 85 03 
   697)      2909.8  Rx     18EF1C8F  8  0D 92 16 00 01 00 0E 00 
   698)      2912.9  Rx     18EF1CCD  8  A3 00 00 00 00 00 00 00 
   699)      2927.9  Rx     18EF1C8F  8  0D A0 00 D5 04 CB 58 FB 
   700)      2928.8  Rx     18EF1C8F  8  0D A1 0B 00 1D 00 83 03 
   701)      2929.8  Rx     18EF1C8F  8  0D A2 18 00 16 00 0C 00 
   702)      2933.0  Rx     18EF1CCD  8  A1 40 00 00 00 00 00 00 
   703)      2947.9  Rx     18EF1C8F  8  0D B0 00 F5 52 CB 59 FB 
   704)      2948.8  Rx     18EF1C8F  8  0D B1 F0 FF 24 00 83 03 
   705)      2949.8  Rx     18EF1C8F  8  0D B2 15 00 00 00 0F 00 
   706)      2967.9  Rx     18EF1C8F  8  0D C0 00 15 A1 CB 59 FB 
   707)      2968.8  Rx     18EF1C8F  8  0D C1 05 00 1F 00 83 03 
   708)      2969.8  Rx     18EF1C8F  8  0D C2 1A 00 11 00 10 00 
   709)      2987.9  Rx     18EF1C8F  8  0D D0 00 35 EF CB 58 FB 
   710)      2988.8  Rx     18EF1C8F  8  0D D1 F4 FF 21 00 82 03 
   711)      2989.8  Rx     18EF1C8F  8  0D D2 16 00 01 00 10 00 
   712)      2992.2  Rx     18EFCD1C  8  A0 00 14 00 00 00 00 00 
   713)      2992.8  Rx     18EF1CCD  8  A0 00 14 00 B4 07 00 00 
   714)      2993.4  Rx     18EF1CCD  8  A2 00 00 00 00 00 00 00 
   715)      3007.9  Rx     18EF1C8F  8  0D E0 00 57 3D CC 59 FB 
   716)      3008.8  Rx     18EF1C8F  8  0D E1 03 00 21 00 86 03 
   717)      3009.4  Rx     18EFCD1C  8  A0 00 2A 00 00 00 00 00 
   718)      3010.0  Rx     18EF1C8F  8  0D E2 17 00 12 00 0E 00 
   719)      3010.5  Rx     18EF1CCD  8  A0 00 2A 00 45 06 00 00 
   720)      3013.2  Rx     18EF1CCD  8  A3 00 00 00 00 00 00 00 
   721)      3027.9  Rx     18EF1C8F  8  0D F0 00 75 8B CC 59 FB 
   722)      3028.8  Rx     18EF1C8F  8  0D F1 FB FF 20 00 83 03 
   723)      3029.4  Rx     18EFCD1C  8  A0 00 1B 00 00 00 00 00 
   724)      3030.0  Rx     18EF1C8F  8  0D F2 18 00 04 00 10 00 
   725)      3030.6  Rx     18EF1CCD  8  A0 00 1B 00 00 00 00 00 
   726)      3033.2  Rx     18EF1CCD  8  A1 40 00 00 00 00 00 00 
   727)      3047.4  Rx     18EFCD1C  8  A0 00 00 00 00 00 00 00 
   728)      3048.0  Rx     18EF1C8F  8  0D 00 00 95 D9 CC 59 FB 
   729)      3048.6  Rx     18EF1CCD  8  A0 00 00 00 01 00 00 00 
   730)      3049.1  Rx     18EF1C8F  8  0D 01 FB FF 21 00 86 03 
   731)      3049.8  Rx     18EF1C8F  8  0D 02 17 00 09 00 0F 00 
   732)      3067.9  Rx     18EF1C8F  8  0D 10 00 B5 27 CD 59 FB 
   733)      3068.8  Rx     18EF1C8F  8  0D 11 FE FF 1E 00 82 03 
   734)      3069.8  Rx     18EF1C8F  8  0D 12 19 00 09 00 14 00 
   735)      3087.9  Rx     18EF1C8F  8  0D 20 00 D5 75 CD 59 FB 
   736)      3088.5  Rx     18FEF31C  8  B6 2B 80 99 15 C7 2C 89 
   737)      3089.0  Rx     18EF1C8F  8  0D 21 FA FF 23 00 8A 03 
   738)      3089.6  Rx     18FEE81C  8  33 8A 01 00 00 00 2C 51 
   739)      3090.2  Rx     18EF1C8F  8  0D 22 14 00 0B 00 0C 00 
   740)      3090.7  Rx     18FEE61C  8  73 2E 0C 09 57 29 00 00 
   741)      3091.3  Rx     19F8021C  8  8B FC 70 BC 00 00 FF FF 
   742)      3091.9  Rx     18EFCD1C  8  A1 01 00 00 00 00 00 00 
   743)      3093.3  Rx     18EF1CCD  8  A2 00 00 00 00 00 00 00 
   744)      3095.7  Rx     19F8051C  8  00 2F 8B EE 50 99 56 69 
   745)      3096.3  Rx     19F8051C  8  01 1B 00 DB F2 CD 6C A7 
   746)      3096.8  Rx     19F8051C  8  02 98 06 60 EA C6 6F 2F 
   747)      3097.4  Rx     19F8051C  8  03 90 CB 02 CD A4 41 08 
   748)      3098.0  Rx     19F8051C  8  04 00 00 00 00 40 00 0C 
   749)      3098.5  Rx     19F8051C  8  05 5E 00 BF 00 FC 0F 00 
   750)      3099.1  Rx     19F8051C  8  06 00 01 AF 02 58 02 FF 
   751)      3107.9  Rx     18EF1C8F  8  0D 30 00 F7 C3 CD 59 FB 
   752)      3108.8  Rx     18EF1C8F  8  0D 31 04 00 1C 00 7F 03 
   753)      3109.8  Rx     18EF1C8F  8  0D 32 17 00 11 00 0F 00 
   754)      3113.4  Rx     18EF1CCD  8  A3 00 00 00 00 00 00 00 
   755)      3127.9  Rx     18EF1C8F  8  0D 40 00 15 12 CE 59 FB 
   756)      3128.8  Rx     18EF1C8F  8  0D 41 F3 FF 25 00 87 03 
   757)      3129.8  Rx     18EF1C8F  8  0D 42 12 00 07 00 0D 00 
   758)      3133.4  Rx     18EF1CCD  8  A1 40 00 00 00 00 00 00 
   759)      3147.9  Rx     18EF1C8F  8  0D 50 00 35 60 CE 59 FB 
   760)      3148.8  Rx     18EF1C8F  8  0D 51 0A 00 1B 00 80 03 
   761)      3149.8  Rx     18EF1C8F  8  0D 52 17 00 12 00 12 00 
   762)      3167.9  Rx     18EF1C8F  8  0D 60 00 55 AE CE 59 FB 
   763)      3168.8  Rx     18EF1C8F  8  0D 61 F3 FF 26 00 85 03 
   764)      3169.8  Rx     18EF1C8F  8  0D 62 16 00 00 00 0C 00 
   765)      3187.9  Rx     18EF1C8F  8  0D 70 00 75 FC CE 59 FB 
   766)      3188.8  Rx     18EF1C8F  8  0D 71 0D 00 1D 00 83 03 
   767)      3189.8  Rx     18EF1C8F  8  0D 72 17 00 15 00 0D 00 
   768)      3193.6  Rx     18EF1CCD  8  A2 00 00 00 00 00 00 00 
   769)      3194.3  Rx     18EFCD1C  8  A0 00 14 00 00 00 00 00 
   770)      3195.0  Rx     18EF1CCD  8  A0 00 14 00 B4 07 00 00 
   771)      3207.9  Rx     18EF1C8F  8  0D 80 00 95 4A CF 59 FB 
   772)      3208.8  Rx     18EF1C8F  8  0D 81 F2 FF 23 00 81 03 
   773)      3209.8  Rx     18EF1C8F  8  0D 82 16 00 00 00 0D 00 
   774)      3211.4  Rx     18EFCD1C  8  A0 00 2A 00 00 00 00 00 
   775)      3212.0  Rx     18EF1CCD  8  A0 00 2A 00 47 06 00 00 
   776)      3213.6  Rx     18EF1CCD  8  A3 00 00 00 00 00 00 00 
   777)      3227.9  Rx     18EF1C8F  8  0D 90 00 B5 98 CF 59 FB 
   778)      3228.5  Rx     18EFCD1C  8  A0 00 1B 00 00 00 00 00 
   779)      3229.0  Rx     18EF1C8F  8  0D 91 0B 00 1F 00 85 03 
   780)      3229.6  Rx     18EF1CCD  8  A0 00 1B 00 00 00 00 00 
   781)      3230.2  Rx     18EF1C8F  8  0D 92 18 00 14 00 0F 00 
   782)      3233.6  Rx     18EF1CCD  8  A1 40 00 00 00 00 00 00 
   783)      3247.9  Rx     18EF1C8F  8  0D A0 00 D7 E6 CF 59 FB 
   784)      3248.8  Rx     18EF1C8F  8  0D A1 F1 FF 1F 00 7F 03 
   785)      3249.4  Rx     18EFCD1C  8  A0 00 00 00 00 00 00 00 
   786)      3249.9  Rx     18EF1C8F  8  0D A2 16 00 00 00 0F 00 
   787)      3250.5  Rx     18EF1CCD  8  A0 00 00 00 01 00 00 00 
   788)      3267.9  Rx     18EF1C8F  8  0D B0 00 F5 34 D0 58 FB 
   789)      3268.8  Rx     18EF1C8F  8  0D B1 05 00 20 00 87 03 
   790)      3269.8  Rx     18EF1C8F  8  0D B2 17 00 11 00 0D 00 
   791)      3287.4  Rx     18EFCD1C  8  A1 01 00 00 00 00 00 00 
   792)      3288.0  Rx     18EF1C8F  8  0D C0 00 15 83 D0 59 FB 
   793)      3288.8  Rx     18EF1C8F  8  0D C1 F6 FF 1F 00 80 03 
   794)      3289.8  Rx     18EF1C8F  8  0D C2 18 00 02 00 11 00 
   795)      3293.7  Rx     18EF1CCD  8  A2 00 00 00 00 00 00 00 
   796)      3307.9  Rx     18EF1C8F  8  0D D0 00 35 D1 D0 59 FB 
   797)      3308.8  Rx     18EF1C8F  8  0D D1 FD FF 22 00 85 03 
   798)      3309.8  Rx     18EF1C8F  8  0D D2 16 00 0C 00 0F 00 
   799)      3313.8  Rx     18EF1CCD  8  A3 00 00 00 00 00 00 00 
   800)      3327.9  Rx     18EF1C8F  8  0D E0 00 55 1F D1 59 FB 
   801)      3328.8  Rx     18EF1C8F  8  0D E1 FF FF 1D 00 81 03 
   802)      3329.8  Rx     18EF1C8F  8  0D E2 1A 00 07 00 0F 00 
   803)      3333.8  Rx     18EF1CCD  8  A1 40 00 00 00 00 00 00 
   804)      3347.9  Rx     18EF1C8F  8  0D F0 00 75 6D D1 59 FB 
   805)      3348.8  Rx     18EF1C8F  8  0D F1 F8 FF 23 00 85 03 
   806)      3349.8  Rx     18EF1C8F  8  0D F2 16 00 0B 00 0C 00 
   807)      3367.9  Rx     18EF1C8F  8  0D 00 00 95 BB D1 59 FB 
   808)      3368.8  Rx     18EF1C8F  8  0D 01 01 00 1C 00 82 03 
   809)      3369.8  Rx     18EF1C8F  8  0D 02 1B 00 0E 00 10 00 
   810)      3387.9  Rx     18EF1C8F  8  0D 10 00 B5 09 D2 59 FB 
   811)      3388.8  Rx     18EF1C8F  8  0D 11 F5 FF 21 00 86 03 
   812)      3389.8  Rx     18EF1C8F  8  0D 12 17 00 08 00 0D 00 
   813)      3392.3  Rx     18EFCD1C  8  A0 00 14 00 00 00 00 00 
   814)      3393.0  Rx     18EF1CCD  8  A0 00 14 00 B4 07 00 00 
   815)      3394.0  Rx     18EF1CCD  8  A2 00 00 00 00 00 00 00 
   816)      3407.7  Rx     18EFCD1C  8  A0 00 2A 00 00 00 00 00 
   817)      3408.3  Rx     18EF1C8F  8  0D 20 00 D7 57 D2 59 FB 
   818)      3408.8  Rx     18EF1C8F  8  0D 21 07 00 1D 00 83 03 
   819)      3409.4  Rx     18EF1CCD  8  A0 00 2A 00 45 06 00 00 
   820)      3409.9  Rx     18EF1C8F  8  0D 22 19 00 13 00 10 00 
   821)      3414.0  Rx     18EF1CCD  8  A3 00 00 00 00 00 00 00 
   822)      3427.5  Rx     18EFCD1C  8  A0 00 1B 00 00 00 00 00 
   823)      3428.0  Rx     18EF1C8F  8  0D 30 00 F5 A5 D2 59 FB 
   824)      3428.6  Rx     18EF1CCD  8  A0 00 1B 00 00 00 00 00 
   825)      3429.1  Rx     18EF1C8F  8  0D 31 F4 FF 23 00 84 03 
   826)      3429.8  Rx     18EF1C8F  8  0D 32 14 00 03 00 0C 00 
   827)      3434.1  Rx     18EF1CCD  8  A1 40 00 00 00 00 00 00 
   828)      3447.9  Rx     18EF1C8F  8  0D 40 00 15 F4 D2 59 FB 
   829)      3448.5  Rx     18EFCD1C  8  A0 00 00 00 00 00 00 00 
   830)      3449.0  Rx     18EF1C8F  8  0D 41 0B 00 1B 00 83 03 
   831)      3449.6  Rx     18EF1CCD  8  A0 00 00 00 01 00 00 00 
   832)      3450.1  Rx     18EF1C8F  8  0D 42 18 00 16 00 10 00 
   833)      3467.8  Rx     18EF1C8F  8  0D 50 00 37 42 D3 59 FB 
   834)      3468.8  Rx     18EF1C8F  8  0D 51 F2 FF 26 00 82 03 
   835)      3469.2  Rx     18EFCD1C  4  01 30 30 00 
   836)      3469.7  Rx     18EF1C8F  8  0D 52 16 00 00 00 0C 00 
   837)      3470.2  Rx     18EF1CCD  4  01 31 30 00 
   838)      3487.4  Rx     18EFCD1C  8  A1 01 00 00 00 00 00 00 
   839)      3487.9  Rx     18EF1C8F  8  0D 60 00 52 90 D3 59 FB 
   840)      3488.8  Rx     18EF1C8F  8  0D 61 09 00 1B 00 80 03 
   841)      3489.7  Rx     18EF1C8F  8  0D 62 17 00 13 00 0F 00 
   842)      3494.2  Rx     18EF1CCD  8  A2 00 00 00 00 00 00 00 
   843)      3507.8  Rx     18EF1C8F  8  0D 70 00 77 DE D3 59 FB 
   844)      3508.7  Rx     18EF1C8F  8  0D 71 F3 FF 26 00 82 03 
   845)      3509.8  Rx     18EF1C8F  8  0D 72 17 00 01 00 0F 00 
   846)      3514.2  Rx     18EF1CCD  8  A3 00 00 00 00 00 00 00 
   847)      3527.8  Rx     18EF1C8F  8  0D 80 00 95 2C D4 59 FB 
   848)      3528.7  Rx     18EF1C8F  8  0D 81 09 00 1D 00 89 03 
   849)      3529.7  Rx     18EF1C8F  8  0D 82 18 00 13 00 0C 00 
   850)      3534.3  Rx     18EF1CCD  8  A1 40 00 00 00 00 00 00 
   851)      3547.8  Rx     18EF1C8F  8  0D 90 00 B5 7A D4 59 FB 
   852)      3548.7  Rx     18EF1C8F  8  0D 91 F8 FF 23 00 7F 03 
   853)      3549.7  Rx     18EF1C8F  8  0D 92 19 00 03 00 13 00 
   854)      3567.8  Rx     18EF1C8F  8  0D A0 00 D5 C8 D4 59 FB 
   855)      3568.7  Rx     18EF1C8F  8  0D A1 02 00 20 00 88 03 
   856)      3569.8  Rx     18EF1C8F  8  0D A2 16 00 10 00 0E 00 
   857)      3587.8  Rx     18EF1C8F  8  0D B0 00 F5 16 D5 59 FB 
   858)      3588.8  Rx     18EF1C8F  8  0D B1 F9 FF 20 00 7D 03 
   859)      3589.7  Rx     18EF1C8F  8  0D B2 18 00 07 00 0F 00 
   860)      3591.2  Rx     18EFCD1C  8  A0 00 14 00 00 00 00 00 
   861)      3591.9  Rx     18EF1CCD  8  A0 00 14 00 B4 07 00 00 
   862)      3594.4  Rx     18EF1CCD  8  A2 00 00 00 00 00 00 00 
   863)      3607.6  Rx     18EFCD1C  8  A0 00 2A 00 00 00 00 00 
   864)      3608.1  Rx     18EF1C8F  8  0D C0 00 15 65 D5 59 FB 
   865)      3608.7  Rx     18EF1CCD  8  A0 00 2A 00 3E 06 00 00 
   866)      3609.3  Rx     18EF1C8F  8  0D C1 FD FF 21 00 8A 03 
   867)      3609.8  Rx     18EF1C8F  8  0D C2 17 00 0D 00 0D 00 
   868)      3614.4  Rx     18EF1CCD  8  A3 00 00 00 00 00 00 00 
   869)      3627.4  Rx     18EFCD1C  8  A0 00 1B 00 00 00 00 00 
   870)      3627.9  Rx     18EF1C8F  8  0D D0 00 35 B3 D5 59 FB 
   871)      3628.5  Rx     18EF1CCD  8  A0 00 1B 00 00 00 00 00 
   872)      3629.0  Rx     18EF1C8F  8  0D D1 00 00 1C 00 80 03 
   873)      3629.7  Rx     18EF1C8F  8  0D D2 1A 00 09 00 11 00 
   874)      3634.5  Rx     18EF1CCD  8  A1 40 00 00 00 00 00 00 
   875)      3647.3  Rx     18EFCD1C  8  A0 00 00 00 00 00 00 00 
   876)      3647.9  Rx     18EF1C8F  8  0D E0 00 55 01 D6 59 FB 
   877)      3648.5  Rx     18EF1CCD  8  A0 00 00 00 01 00 00 00 
   878)      3649.0  Rx     18EF1C8F  8  0D E1 F5 FF 23 00 89 03 
   879)      3649.7  Rx     18EF1C8F  8  0D E2 14 00 05 00 10 00 
   880)      3667.8  Rx     18EF1C8F  8  0D F0 00 75 4F D6 59 FB 
   881)      3668.7  Rx     18EF1C8F  8  0D F1 06 00 1B 00 81 03 
   882)      3669.7  Rx     18EF1C8F  8  0D F2 17 00 11 00 10 00 
   883)      3687.8  Rx     18EF1C8F  8  0D 00 00 95 9D D6 59 FB 
   884)      3688.7  Rx     18EF1C8F  8  0D 01 F5 FF 22 00 88 03 
   885)      3689.5  Rx     18EFCD1C  8  A1 01 00 00 00 00 00 00 
   886)      3690.1  Rx     18EF1C8F  8  0D 02 17 00 07 00 0D 00 
   887)      3694.6  Rx     18EF1CCD  8  A2 00 00 00 00 00 00 00 
   888)      3707.8  Rx     18EF1C8F  8  0D 10 00 B5 EB D6 59 FB 
   889)      3708.7  Rx     18EF1C8F  8  0D 11 08 00 1B 00 81 03 
   890)      3709.7  Rx     18EF1C8F  8  0D 12 19 00 14 00 11 00 
   891)      3714.6  Rx     18EF1CCD  8  A3 00 00 00 00 00 00 00 
   892)      3727.8  Rx     18EF1C8F  8  0D 20 00 D7 39 D7 59 FB 
   893)      3728.7  Rx     18EF1C8F  8  0D 21 F0 FF 23 00 84 03 
   894)      3729.7  Rx     18EF1C8F  8  0D 22 17 00 03 00 0D 00 
   895)      3734.7  Rx     18EF1CCD  8  A1 40 00 00 00 00 00 00 
   896)      3747.8  Rx     18EF1C8F  8  0D 30 00 F5 87 D7 59 FB 
   897)      3748.7  Rx     18EF1C8F  8  0D 31 0C 00 1E 00 81 03 
   898)      3749.7  Rx     18EF1C8F  8  0D 32 17 00 16 00 10 00 
   899)      3767.8  Rx     18EF1C8F  8  0D 40 00 15 D6 D7 5A FB 
   900)      3768.7  Rx     18EF1C8F  8  0D 41 F0 FF 22 00 83 03 
   901)      3769.7  Rx     18EF1C8F  8  0D 42 13 00 02 00 0F 00 
   902)      3787.8  Rx     18EF1C8F  8  0D 50 00 35 24 D8 5A FB 
   903)      3788.7  Rx     18EF1C8F  8  0D 51 0A 00 1D 00 82 03 
   904)      3789.7  Rx     18EF1C8F  8  0D 52 19 00 13 00 0F 00 
   905)      3791.4  Rx     18EFCD1C  8  A0 00 14 00 00 00 00 00 
   906)      3792.1  Rx     18EF1CCD  8  A0 00 14 00 B4 07 00 00 
   907)      3794.8  Rx     18EF1CCD  8  A2 00 00 00 00 00 00 00 
   908)      3807.3  Rx     18EFCD1C  8  A0 00 2A 00 00 00 00 00 
   909)      3807.9  Rx     18EF1C8F  8  0D 60 00 55 72 D8 5A FB 
   910)      3808.5  Rx     18EF1CCD  8  A0 00 2A 00 45 06 00 00 
   911)      3809.0  Rx     18EF1C8F  8  0D 61 F3 FF 24 00 82 03 
   912)      3809.7  Rx     18EF1C8F  8  0D 62 16 00 00 00 11 00 
   913)      3814.8  Rx     18EF1CCD  8  A3 00 00 00 00 00 00 00 
   914)      3827.3  Rx     18EFCD1C  8  A0 00 1B 00 00 00 00 00 
   915)      3827.8  Rx     18EF1C8F  8  0D 70 00 75 C0 D8 59 FB 
   916)      3828.4  Rx     18EF1CCD  8  A0 00 1B 00 00 00 00 00 
   917)      3829.0  Rx     18EF1C8F  8  0D 71 04 00 1F 00 86 03 
   918)      3829.7  Rx     18EF1C8F  8  0D 72 16 00 0E 00 0E 00 
   919)      3834.9  Rx     18EF1CCD  8  A1 40 00 00 00 00 00 00 
   920)      3847.3  Rx     18EFCD1C  8  A0 00 00 00 00 00 00 00 
   921)      3847.9  Rx     18EF1C8F  8  0D 80 00 95 0E D9 59 FB 
   922)      3848.4  Rx     18EF1CCD  8  A0 00 00 00 01 00 00 00 
   923)      3849.0  Rx     18EF1C8F  8  0D 81 FA FF 1F 00 80 03 
   924)      3849.7  Rx     18EF1C8F  8  0D 82 17 00 03 00 10 00 
   925)      3867.8  Rx     18EF1C8F  8  0D 90 00 B5 5C D9 5A FB 
   926)      3868.7  Rx     18EF1C8F  8  0D 91 FF FF 21 00 85 03 
   927)      3869.7  Rx     18EF1C8F  8  0D 92 17 00 0D 00 0F 00 
   928)      3887.8  Rx     18EF1C8F  8  0D A0 00 D5 AA D9 59 FB 
   929)      3888.4  Rx     18EFCD1C  8  A1 01 00 00 00 00 00 00 
   930)      3888.9  Rx     18EF1C8F  8  0D A1 FE FF 1E 00 82 03 
   931)      3889.7  Rx     18EF1C8F  8  0D A2 1A 00 09 00 10 00 
   932)      3895.0  Rx     18EF1CCD  8  A2 00 00 00 00 00 00 00 
   933)      3907.8  Rx     18EF1C8F  8  0D B0 00 F5 F8 D9 5A FB 
   934)      3908.7  Rx     18EF1C8F  8  0D B1 F9 FF 22 00 86 03 
   935)      3909.7  Rx     18EF1C8F  8  0D B2 16 00 09 00 0E 00 
   936)      3915.1  Rx     18EF1CCD  8  A3 00 00 00 00 00 00 00 
   937)      3927.8  Rx     18EF1C8F  8  0D C0 00 17 47 DA 59 FB 
   938)      3928.7  Rx     18EF1C8F  8  0D C1 03 00 1E 00 84 03 
   939)      3929.7  Rx     18EF1C8F  8  0D C2 1A 00 0F 00 10 00 
   940)      3935.1  Rx     18EF1CCD  8  A1 40 00 00 00 00 00 00 
   941)      3947.7  Rx     18EF1C8F  8  0D D0 00 32 95 DA 5A FB 
   942)      3948.7  Rx     18EF1C8F  8  0D D1 F6 FF 25 00 8A 03 
   943)      3949.7  Rx     18EF1C8F  8  0D D2 15 00 06 00 0D 00 
   944)      3967.7  Rx     18EF1C8F  8  0D E0 00 55 E3 DA 5A FB 
   945)      3968.7  Rx     18EF1C8F  8  0D E1 08 00 1C 00 82 03 
   946)      3969.7  Rx     18EF1C8F  8  0D E2 19 00 12 00 0F 00 
   947)      3987.8  Rx     18EF1C8F  8  0D F0 00 75 31 DB 5A FB 
   948)      3988.7  Rx     18EF1C8F  8  0D F1 F3 FF 24 00 85 03 
   949)      3989.7  Rx     18EF1C8F  8  0D F2 14 00 02 00 0C 00 
   950)      3991.0  Rx     18EFCD1C  8  A0 00 14 00 00 00 00 00 
   951)      3991.6  Rx     18EF1CCD  8  A0 00 14 00 B4 07 00 00 
   952)      3995.2  Rx     18EF1CCD  8  A2 00 00 00 00 00 00 00 
   953)      4007.3  Rx     18EFCD1C  8  A0 00 2A 00 00 00 00 00 
   954)      4007.8  Rx     18EF1C8F  8  0D 00 00 97 7F DB 59 FB 
   955)      4008.4  Rx     18EF1CCD  8  A0 00 2A 00 47 06 00 00 
   956)      4008.9  Rx     18EF1C8F  8  0D 01 09 00 18 00 81 03 
   957)      4009.7  Rx     18EF1C8F  8  0D 02 17 00 14 00 11 00 
   958)      4015.3  Rx     18EF1CCD  8  A3 00 00 00 00 00 00 00 
   959)      4027.3  Rx     18EFCD1C  8  A0 00 1B 00 00 00 00 00 
   960)      4027.9  Rx     18EF1C8F  8  0D 10 00 B2 CD DB 5A FB 
   961)      4028.5  Rx     18EF1CCD  8  A0 00 1B 00 00 00 00 00 
   962)      4029.0  Rx     18EF1C8F  8  0D 11 F3 FF 26 00 86 03 
   963)      4029.6  Rx     18EF1C8F  8  0D 12 18 00 02 00 0E 00 
   964)      4035.3  Rx     18EF1CCD  8  A1 40 00 00 00 00 00 00 
   965)      4047.3  Rx     18EFCD1C  8  A0 00 00 00 00 00 00 00 
   966)      4047.8  Rx     18EF1C8F  8  0D 20 00 D5 1B DC 5A FB 
   967)      4048.4  Rx     18EF1CCD  8  A0 00 00 00 01 00 00 00 
   968)      4048.9  Rx     18EF1C8F  8  0D 21 0A 00 1B 00 85 03 
   969)      4049.7  Rx     18EF1C8F  8  0D 22 18 00 16 00 0F 00 
   970)      4067.7  Rx     18EF1C8F  8  0D 30 00 F5 69 DC 5A FB 
   971)      4068.7  Rx     18EF1C8F  8  0D 31 F4 FF 25 00 81 03 
   972)      4069.7  Rx     18EF1C8F  8  0D 32 16 00 01 00 12 00 
   973)      4087.7  Rx     18EF1C8F  8  0D 40 00 15 B8 DC 5A FB 
   974)      4088.7  Rx     18EF1C8F  8  0D 41 09 00 20 00 85 03 
   975)      4089.2  Rx     18FEF31C  8  B6 2B 80 99 15 C7 2C 89 
   976)      4089.8  Rx     18EF1C8F  8  0D 42 18 00 14 00 0E 00 
   977)      4090.3  Rx     18FEE81C  8  33 8A 05 00 00 00 2C 51 
   978)      4090.9  Rx     18FEE61C  8  77 2E 0C 09 57 29 00 00 
   979)      4091.4  Rx     19F0101C  8  90 00 EE 50 A9 7D 69 1B 
   980)      4092.0  Rx     19F8021C  8  90 FC 70 BC 00 00 FF FF 
   981)      4092.6  Rx     18EFCD1C  8  A1 01 00 00 00 00 00 00 
   982)      4094.5  Rx     19F8051C  8  20 2F 90 EE 50 A9 7D 69 
   983)      4095.1  Rx     19F8051C  8  21 1B 40 41 D0 CD 6C A7 
   984)      4095.6  Rx     18EF1CCD  8  A2 00 00 00 00 00 00 00 
   985)      4096.2  Rx     19F8051C  8  22 98 06 00 B6 76 5A 2F 
   986)      4096.7  Rx     19F8051C  8  23 90 CB 02 95 91 41 08 
   987)      4097.3  Rx     19F8051C  8  24 00 00 00 00 40 00 0C 
   988)      4097.9  Rx     19F8051C  8  25 5E 00 BF 00 FC 0F 00 
   989)      4098.5  Rx     19F8051C  8  26 00 01 AF 02 BC 02 FF 
   990)      4107.7  Rx     18EF1C8F  8  0D 50 00 3C 06 DD 5A FB 
   991)      4108.6  Rx     18EF1C8F  8  0D 51 F4 FF 21 00 7E 03 
   992)      4109.7  Rx     18EF1C8F  8  0D 52 18 00 02 00 0D 00 
   993)      4115.5  Rx     18EF1CCD  8  A3 00 00 00 00 00 00 00 
   994)      4127.7  Rx     18EF1C8F  8  0D 60 00 55 54 DD 59 FB 
   995)      4128.7  Rx     18EF1C8F  8  0D 61 02 00 21 00 87 03 
   996)      4129.7  Rx     18EF1C8F  8  0D 62 18 00 0F 00 10 00 
   997)      4135.5  Rx     18EF1CCD  8  A1 40 00 00 00 00 00 00 
   998)      4147.7  Rx     18EF1C8F  8  0D 70 00 75 A2 DD 5A FB 
   999)      4148.7  Rx     18EF1C8F  8  0D 71 F9 FF 1E 00 80 03 
  1000)      4149.6  Rx     18EF1C8F  8  0D 72 17 00 05 00 12 00 
  1001)      4167.7  Rx     18EF1C8F  8  0D 80 00 95 F0 DD 5A FB 
  1002)      4168.6  Rx     18EF1C8F  8  0D 81 FD FF 21 00 87 03 
  1003)      4169.7  Rx     18EF1C8F  8  0D 82 15 00 09 00 0C 00 
  1004)      4187.7  Rx     18EF1C8F  8  0D 90 00 B5 3E DE 5A FB 
  1005)      4188.6  Rx     18EF1C8F  8  0D 91 01 00 1E 00 81 03 
  1006)      4189.6  Rx     18EF1C8F  8  0D 92 16 00 0D 00 12 00 
  1007)      4194.0  Rx     18EFCD1C  8  A0 00 14 00 00 00 00 00 
  1008)      4194.7  Rx     18EF1CCD  8  A0 00 14 00 B4 07 00 00 
  1009)      4195.7  Rx     18EF1CCD  8  A2 00 00 00 00 00 00 00 
  1010)      4207.7  Rx     18EF1C8F  8  0D A0 00 D7 8C DE 5A FB 
  1011)      4208.6  Rx     18EF1C8F  8  0D A1 F4 FF 23 00 86 03 
  1012)      4209.6  Rx     18EF1C8F  8  0D A2 17 00 0A 00 0E 00 
  1013)      4212.6  Rx     18EFCD1C  8  A0 00 2A 00 00 00 00 00 
  1014)      4213.3  Rx     18EF1CCD  8  A0 00 2A 00 46 06 00 00 
  1015)      4215.7  Rx     18EF1CCD  8  A3 00 00 00 00 00 00 00 
  1016)      4227.2  Rx     18EFCD1C  8  A0 00 1B 00 00 00 00 00 
  1017)      4227.7  Rx     18EF1C8F  8  0D B0 00 F5 DA DE 5A FB 
  1018)      4228.3  Rx     18EF1CCD  8  A0 00 1B 00 00 00 00 00 
  1019)      4228.9  Rx     18EF1C8F  8  0D B1 08 00 1B 00 83 03 
  1020)      4229.6  Rx     18EF1C8F  8  0D B2 16 00 12 00 0F 00 
  1021)      4235.7  Rx     18EF1CCD  8  A1 40 00 00 00 00 00 00 
  1022)      4247.2  Rx     18EFCD1C  8  A0 00 00 00 00 00 00 00 
  1023)      4247.8  Rx     18EF1C8F  8  0D C0 00 17 29 DF 5A FB 
  1024)      4248.4  Rx     18EF1CCD  8  A0 00 00 00 01 00 00 00 
  1025)      4248.9  Rx     18EF1C8F  8  0D C1 F3 FF 21 00 86 03 
  1026)      4249.6  Rx     18EF1C8F  8  0D C2 14 00 04 00 0E 00 
  1027)      4267.7  Rx     18EF1C8F  8  0D D0 00 35 77 DF 5A FB 
  1028)      4268.6  Rx     18EF1C8F  8  0D D1 09 00 1F 00 83 03 
  1029)      4269.6  Rx     18EF1C8F  8  0D D2 17 00 17 00 0F 00 
  1030)      4287.2  Rx     18EFCD1C  8  A1 01 00 00 00 00 00 00 
  1031)      4287.8  Rx     18EF1C8F  8  0D E0 00 52 C5 DF 5A FB 
  1032)      4288.6  Rx     18EF1C8F  8  0D E1 F1 FF 21 00 84 03 
  1033)      4289.6  Rx     18EF1C8F  8  0D E2 14 00 02 00 0E 00 
  1034)      4295.8  Rx     18EF1CCD  8  A2 00 00 00 00 00 00 00 
  1035)      4307.7  Rx     18EF1C8F  8  0D F0 00 77 13 E0 5A FB 
  1036)      4308.6  Rx     18EF1C8F  8  0D F1 0C 00 1F 00 83 03 
  1037)      4309.6  Rx     18EF1C8F  8  0D F2 18 00 17 00 0E 00 
  1038)      4315.9  Rx     18EF1CCD  8  A3 00 00 00 00 00 00 00 
  1039)      4327.7  Rx     18EF1C8F  8  0D 00 00 95 61 E0 5A FB 
  1040)      4328.6  Rx     18EF1C8F  8  0D 01 F2 FF 25 00 81 03 
  1041)      4329.6  Rx     18EF1C8F  8  0D 02 16 00 00 00 10 00 
  1042)      4335.9  Rx     18EF1CCD  8  A1 40 00 00 00 00 00 00 
  1043)      4347.7  Rx     18EF1C8F  8  0D 10 00 B5 AF E0 5A FB 
  1044)      4348.6  Rx     18EF1C8F  8  0D 11 07 00 1C 00 83 03 
  1045)      4349.6  Rx     18EF1C8F  8  0D 12 17 00 12 00 11 00 
  1046)      4367.7  Rx     18EF1C8F  8  0D 20 00 D5 FD E0 5A FB 
  1047)      4368.6  Rx     18EF1C8F  8  0D 21 F4 FF 22 00 83 03 
  1048)      4369.6  Rx     18EF1C8F  8  0D 22 18 00 00 00 10 00 
  1049)      4387.7  Rx     18EF1C8F  8  0D 30 00 F5 4B E1 5A FB 
  1050)      4388.6  Rx     18EF1C8F  8  0D 31 02 00 1F 00 87 03 
  1051)      4389.6  Rx     18EF1C8F  8  0D 32 17 00 12 00 0F 00 
  1052)      4392.5  Rx     18EFCD1C  8  A0 00 14 00 00 00 00 00 
  1053)      4393.1  Rx     18EF1CCD  8  A0 00 14 00 B4 07 00 00 
  1054)      4396.1  Rx     18EF1CCD  8  A2 00 00 00 00 00 00 00 
  1055)      4407.3  Rx     18EFCD1C  8  A0 00 2A 00 00 00 00 00 
  1056)      4407.8  Rx     18EF1C8F  8  0D 40 00 15 9A E1 5A FB 
  1057)      4408.4  Rx     18EF1CCD  8  A0 00 2A 00 4A 06 00 00 
  1058)      4408.9  Rx     18EF1C8F  8  0D 41 FC FF 22 00 80 03 
  1059)      4409.6  Rx     18EF1C8F  8  0D 42 19 00 03 00 11 00 
  1060)      4416.1  Rx     18EF1CCD  8  A3 00 00 00 00 00 00 00 
  1061)      4427.2  Rx     18EFCD1C  8  A0 00 1B 00 00 00 00 00 
  1062)      4427.7  Rx     18EF1C8F  8  0D 50 00 32 E8 E1 5A FB 
  1063)      4428.3  Rx     18EF1CCD  8  A0 00 1B 00 00 00 00 00 
  1064)      4428.9  Rx     18EF1C8F  8  0D 51 00 00 20 00 85 03 
  1065)      4429.6  Rx     18EF1C8F  8  0D 52 14 00 0C 00 0D 00 
  1066)      4436.2  Rx     18EF1CCD  8  A1 40 00 00 00 00 00 00 
  1067)      4447.2  Rx     18EFCD1C  8  A0 00 00 00 00 00 00 00 
  1068)      4447.7  Rx     18EF1C8F  8  0D 60 00 55 36 E2 5A FB 
  1069)      4448.3  Rx     18EF1CCD  8  A0 00 00 00 01 00 00 00 
  1070)      4448.8  Rx     18EF1C8F  8  0D 61 FD FF 1E 00 7F 03 
  1071)      4449.6  Rx     18EF1C8F  8  0D 62 1A 00 09 00 12 00 
  1072)      4467.7  Rx     18EF1C8F  8  0D 70 00 75 84 E2 5A FB 
  1073)      4468.6  Rx     18EF1C8F  8  0D 71 FA FF 24 00 89 03 
  1074)      4469.7  Rx     18EF1C8F  8  0D 72 16 00 0A 00 0C 00 
  1075)      4487.2  Rx     18EFCD1C  8  A1 01 00 00 00 00 00 00 
  1076)      4487.8  Rx     18EF1C8F  8  0D 80 00 95 D2 E2 5A FB 
  1077)      4488.7  Rx     18EF1C8F  8  0D 81 06 00 1B 00 80 03 
  1078)      4489.7  Rx     18EF1C8F  8  0D 82 17 00 0F 00 0F 00 
  1079)      4496.3  Rx     18EF1CCD  8  A2 00 00 00 00 00 00 00 
  1080)      4507.7  Rx     18EF1C8F  8  0D 90 00 B5 20 E3 5A FB 
  1081)      4508.7  Rx     18EF1C8F  8  0D 91 F4 FF 24 00 87 03 
  1082)      4509.6  Rx     18EF1C8F  8  0D 92 13 00 06 00 0D 00 
  1083)      4516.4  Rx     18EF1CCD  8  A3 00 00 00 00 00 00 00 
  1084)      4527.7  Rx     18EF1C8F  8  0D A0 00 D2 6E E3 5A FB 
  1085)      4528.7  Rx     18EF1C8F  8  0D A1 07 00 1A 00 84 03 
  1086)      4529.7  Rx     18EF1C8F  8  0D A2 18 00 13 00 11 00 
  1087)      4536.4  Rx     18EF1CCD  8  A1 40 00 00 00 00 00 00 
  1088)      4547.7  Rx     18EF1C8F  8  0D B0 00 F7 BC E3 5A FB 
  1089)      4548.7  Rx     18EF1C8F  8  0D B1 EF FF 26 00 87 03 
  1090)      4549.6  Rx     18EF1C8F  8  0D B2 16 00 01 00 0F 00 
  1091)      4567.8  Rx     18EF1C8F  8  0D C0 00 12 0B E4 5A FB 
  1092)      4568.6  Rx     18EF1C8F  8  0D C1 0E 00 1C 00 82 03 
  1093)      4569.7  Rx     18EF1C8F  8  0D C2 18 00 11 00 0E 00 
  1094)      4587.7  Rx     18EF1C8F  8  0D D0 00 35 59 E4 5A FB 
  1095)      4588.7  Rx     18EF1C8F  8  0D D1 F1 FF 22 00 81 03 
  1096)      4589.7  Rx     18EF1C8F  8  0D D2 15 00 03 00 0E 00 
  1097)      4592.1  Rx     18EFCD1C  8  A0 00 14 00 00 00 00 00 
  1098)      4592.7  Rx     18EF1CCD  8  A0 00 14 00 B4 07 00 00 
  1099)      4596.6  Rx     18EF1CCD  8  A2 00 00 00 00 00 00 00 
  1100)      4607.3  Rx     18EFCD1C  8  A0 00 2A 00 00 00 00 00 
  1101)      4607.9  Rx     18EF1C8F  8  0D E0 00 57 A7 E4 5A FB 
  1102)      4608.4  Rx     18EF1CCD  8  A0 00 2A 00 40 06 00 00 
  1103)      4609.0  Rx     18EF1C8F  8  0D E1 0C 00 1D 00 84 03 
  1104)      4609.7  Rx     18EF1C8F  8  0D E2 18 00 18 00 0F 00 
  1105)      4616.6  Rx     18EF1CCD  8  A3 00 00 00 00 00 00 00 
  1106)      4627.2  Rx     18EFCD1C  8  A0 00 1B 00 00 00 00 00 
  1107)      4627.8  Rx     18EF1C8F  8  0D F0 00 75 F5 E4 5A FB 
  1108)      4628.4  Rx     18EF1CCD  8  A0 00 1B 00 00 00 00 00 
  1109)      4628.9  Rx     18EF1C8F  8  0D F1 F1 FF 20 00 7E 03 
  1110)      4629.7  Rx     18EF1C8F  8  0D F2 17 00 02 00 10 00 
  1111)      4636.7  Rx     18EF1CCD  8  A1 40 00 00 00 00 00 00 
  1112)      4647.2  Rx     18EFCD1C  8  A0 00 00 00 00 00 00 00 
  1113)      4647.8  Rx     18EF1C8F  8  0D 00 00 95 43 E5 5A FB 
  1114)      4648.3  Rx     18EF1CCD  8  A0 00 00 00 01 00 00 00 
  1115)      4648.9  Rx     18EF1C8F  8  0D 01 08 00 20 00 85 03 
  1116)      4649.7  Rx     18EF1C8F  8  0D 02 19 00 13 00 0E 00 
  1117)      4667.7  Rx     18EF1C8F  8  0D 10 00 B5 91 E5 5A FB 
  1118)      4668.7  Rx     18EF1C8F  8  0D 11 F8 FF 21 00 82 03 
  1119)      4669.7  Rx     18EF1C8F  8  0D 12 18 00 00 00 11 00 
  1120)      4687.3  Rx     18EFCD1C  8  A1 01 00 00 00 00 00 00 
  1121)      4687.8  Rx     18EF1C8F  8  0D 20 00 D5 DF E5 5B FB 
  1122)      4688.6  Rx     18EF1C8F  8  0D 21 00 00 21 00 85 03 
  1123)      4689.7  Rx     18EF1C8F  8  0D 22 17 00 08 00 0E 00 
  1124)      4696.8  Rx     18EF1CCD  8  A2 00 00 00 00 00 00 00 
  1125)      4707.7  Rx     18EF1C8F  8  0D 30 00 F5 2D E6 5B FB 
  1126)      4708.6  Rx     18EF1C8F  8  0D 31 FC FF 1D 00 82 03 
  1127)      4709.6  Rx     18EF1C8F  8  0D 32 1A 00 07 00 12 00 
  1128)      4716.8  Rx     18EF1CCD  8  A3 00 00 00 00 00 00 00 
  1129)      4727.7  Rx     18EF1C8F  8  0D 40 00 15 7C E6 5A FB 
  1130)      4728.6  Rx     18EF1C8F  8  0D 41 F9 FF 22 00 85 03 
  1131)      4729.6  Rx     18EF1C8F  8  0D 42 16 00 0C 00 0E 00 
  1132)      4736.9  Rx     18EF1CCD  8  A1 40 00 00 00 00 00 00 
  1133)      4747.7  Rx     18EF1C8F  8  0D 50 00 37 CA E6 5B FB 
  1134)      4748.6  Rx     18EF1C8F  8  0D 51 02 00 1E 00 81 03 
  1135)      4749.7  Rx     18EF1C8F  8  0D 52 18 00 0F 00 11 00 
  1136)      4767.7  Rx     18EF1C8F  8  0D 60 00 55 18 E7 5A FB 
  1137)      4768.6  Rx     18EF1C8F  8  0D 61 F7 FF 22 00 88 03 
  1138)      4769.6  Rx     18EF1C8F  8  0D 62 15 00 08 00 0C 00 
  1139)      4787.7  Rx     18EF1C8F  8  0D 70 00 72 66 E7 5A FB 
  1140)      4788.6  Rx     18EF1C8F  8  0D 71 05 00 1E 00 84 03 
  1141)      4789.6  Rx     18EF1C8F  8  0D 72 19 00 13 00 10 00 
  1142)      4791.7  Rx     18EF8F1C  4  01 2D 2D 00 
  1143)      4792.7  Rx     18EFCD1C  8  A0 00 14 00 00 00 00 00 
  1144)      4793.1  Rx     18EF1C8F  4  01 2E 2D 00 
  1145)      4793.7  Rx     18EF1CCD  8  A0 00 14 00 B4 07 00 00 
  1146)      4797.0  Rx     18EF1CCD  8  A2 00 00 00 00 00 00 00 
  1147)      4807.5  Rx     18EFCD1C  8  A0 00 2A 00 00 00 00 00 
  1148)      4808.0  Rx     18EF1C8F  8  0D 80 00 97 B4 E7 5A FB 
  1149)      4808.6  Rx     18EF1CCD  8  A0 00 2A 00 41 06 00 00 
  1150)      4809.2  Rx     18EF1C8F  8  0D 81 F4 FF 24 00 87 03 
  1151)      4809.7  Rx     18EF1C8F  8  0D 82 13 00 05 00 0E 00 
  1152)      4817.1  Rx     18EF1CCD  8  A3 00 00 00 00 00 00 00 
  1153)      4827.2  Rx     18EFCD1C  8  A0 00 1B 00 00 00 00 00 
  1154)      4827.8  Rx     18EF1C8F  8  0D 90 00 B7 02 E8 5B FB 
  1155)      4828.4  Rx     18EF1CCD  8  A0 00 1B 00 00 00 00 00 
  1156)      4829.0  Rx     18EF1C8F  8  0D 91 0B 00 1C 00 81 03 
  1157)      4829.6  Rx     18EF1C8F  8  0D 92 18 00 15 00 0F 00 
  1158)      4837.1  Rx     18EF1CCD  8  A1 40 00 00 00 00 00 00 
  1159)      4847.2  Rx     18EFCD1C  8  A0 00 00 00 00 00 00 00 
  1160)      4847.8  Rx     18EF1C8F  8  0D A0 00 D5 50 E8 5B FB 
  1161)      4848.3  Rx     18EF1CCD  8  A0 00 00 00 01 00 00 00 
  1162)      4848.9  Rx     18EF1C8F  8  0D A1 F3 FF 26 00 83 03 
  1163)      4849.6  Rx     18EF1C8F  8  0D A2 17 00 01 00 11 00 
  1164)      4867.7  Rx     18EF1C8F  8  0D B0 00 F2 9E E8 5A FB 
  1165)      4868.6  Rx     18EF1C8F  8  0D B1 0B 00 1A 00 84 03 
  1166)      4869.6  Rx     18EF1C8F  8  0D B2 19 00 14 00 10 00 
  1167)      4887.2  Rx     18EFCD1C  8  A1 01 00 00 00 00 00 00 
  1168)      4887.8  Rx     18EF1C8F  8  0D C0 00 15 ED E8 5A FB 
  1169)      4888.7  Rx     18EF1C8F  8  0D C1 F3 FF 25 00 84 03 
  1170)      4889.6  Rx     18EF1C8F  8  0D C2 15 00 02 00 0C 00 
  1171)      4897.2  Rx     18EF1CCD  8  A2 00 00 00 00 00 00 00 
  1172)      4907.7  Rx     18EF1C8F  8  0D D0 00 35 3B E9 5A FB 
  1173)      4908.6  Rx     18EF1C8F  8  0D D1 06 00 1E 00 87 03 
  1174)      4909.6  Rx     18EF1C8F  8  0D D2 17 00 13 00 0D 00 
  1175)      4917.3  Rx     18EF1CCD  8  A3 00 00 00 00 00 00 00 
  1176)      4927.7  Rx     18EF1C8F  8  0D E0 00 55 89 E9 5B FB 
  1177)      4928.6  Rx     18EF1C8F  8  0D E1 F8 FF 23 00 80 03 
  1178)      4929.6  Rx     18EF1C8F  8  0D E2 19 00 02 00 12 00 
  1179)      4937.3  Rx     18EF1CCD  8  A1 40 00 00 00 00 00 00 
  1180)      4947.7  Rx     18EF1C8F  8  0D F0 00 75 D7 E9 5A FB 
  1181)      4948.6  Rx     18EF1C8F  8  0D F1 01 00 20 00 86 03 
  1182)      4949.6  Rx     18EF1C8F  8  0D F2 1A 00 11 00 10 00 
  1183)      4967.7  Rx     18EF1C8F  8  0D 00 00 95 25 EA 5A FB 
  1184)      4968.6  Rx     18EF1C8F  8  0D 01 F9 FF 1F 00 7E 03 
  1185)      4969.7  Rx     18EF1C8F  8  0D 02 19 00 07 00 12 00 
  1186)      4987.7  Rx     18EF1C8F  8  0D 10 00 B5 73 EA 5B FB 
  1187)      4988.6  Rx     18EF1C8F  8  0D 11 FC FF 23 00 88 03 
  1188)      4989.6  Rx     18EF1C8F  8  0D 12 17 00 0A 00 0E 00 
  1189)      4992.2  Rx     18EFCD1C  8  A0 00 14 00 00 00 00 00 
  1190)      4992.8  Rx     18EF1CCD  8  A0 00 14 00 B4 07 00 00 
  1191)      4997.5  Rx     18EF1CCD  8  A2 00 00 00 00 00 00 00 
  1192)      5007.2  Rx     18EFCD1C  8  A0 00 2A 00 00 00 00 00 
  1193)      5007.8  Rx     18EF1C8F  8  0D 20 00 D5 C1 EA 5B FB 
  1194)      5008.4  Rx     18EF1CCD  8  A0 00 2A 00 4B 06 00 00 
  1195)      5008.9  Rx     18EF1C8F  8  0D 21 FE FF 1C 00 80 03 
  1196)      5009.6  Rx     18EF1C8F  8  0D 22 16 00 0A 00 12 00 
  1197)      5017.5  Rx     18EF1CCD  8  A3 00 00 00 00 00 00 00 
  1198)      5027.2  Rx     18EFCD1C  8  A0 00 1B 00 00 00 00 00 
  1199)      5027.7  Rx     18EF1C8F  8  0D 30 00 F5 0F EB 5B FB 
  1200)      5028.3  Rx     18EF1CCD  8  A0 00 1B 00 00 00 00 00 
  1201)      5028.9  Rx     18EF1C8F  8  0D 31 F5 FF 23 00 87 03 
  1202)      5029.6  Rx     18EF1C8F  8  0D 32 16 00 06 00 0F 00 
  1203)      5037.5  Rx     18EF1CCD  8  A1 40 00 00 00 00 00 00 
  1204)      5047.2  Rx     18EFCD1C  8  A0 00 00 00 00 00 00 00 
  1205)      5047.8  Rx     18EF1C8F  8  0D 40 00 15 5E EB 5B FB 
  1206)      5048.4  Rx     18EF1CCD  8  A0 00 00 00 01 00 00 00 
  1207)      5048.9  Rx     18EF1C8F  8  0D 41 08 00 1D 00 82 03 
  1208)      5049.6  Rx     18EF1C8F  8  0D 42 17 00 12 00 11 00 
  1209)      5067.7  Rx     18EF1C8F  8  0D 50 00 35 AC EB 5B FB 
  1210)      5068.6  Rx     18EF1C8F  8  0D 51 F4 FF 23 00 87 03 
  1211)      5069.6  Rx     18EF1C8F  8  0D 52 16 00 07 00 0D 00 
  1212)      5087.7  Rx     18EF1C8F  8  0D 60 00 55 FA EB 5A FB 
  1213)      5088.2  Rx     18FEF31C  8  B6 2B 80 99 14 C7 2C 89 
  1214)      5088.8  Rx     18EF1C8F  8  0D 61 0B 00 1E 00 81 03 
  1215)      5089.3  Rx     18FEE81C  8  33 8A 05 00 00 00 2C 51 
  1216)      5089.9  Rx     18EF1C8F  8  0D 62 18 00 16 00 0E 00 
  1217)      5090.5  Rx     18FEE61C  8  7B 2E 0C 09 57 29 00 00 
  1218)      5091.0  Rx     19F8021C  8  95 FC 70 BC 00 00 FF FF 
  1219)      5091.6  Rx     18EFCD1C  8  A1 01 00 00 00 00 00 00 
  1220)      5095.0  Rx     19F8051C  8  40 2F 95 EE 50 B9 A4 69 
  1221)      5095.5  Rx     19F8051C  8  41 1B 80 E2 1F EA 6C A7 
  1222)      5096.0  Rx     19F8051C  8  42 98 06 40 43 99 0F 2F 
  1223)      5096.6  Rx     19F8051C  8  43 90 CB 02 11 B7 41 08 
  1224)      5097.2  Rx     19F8051C  8  44 00 00 00 00 40 00 0C 
  1225)      5097.7  Rx     18EF1CCD  8  A2 00 00 00 00 00 00 00 
  1226)      5098.3  Rx     19F8051C  8  45 5E 00 BF 00 FC 0F 00 
  1227)      5098.9  Rx     19F8051C  8  46 00 01 AF 02 90 01 FF 
  1228)      5107.7  Rx     18EF1C8F  8  0D 70 00 7C 48 EC 5B FB 
  1229)      5108.6  Rx     18EF1C8F  8  0D 71 F2 FF 25 00 84 03 
  1230)      5109.6  Rx     18EF1C8F  8  0D 72 15 00 03 00 0E 00 
  1231)      5117.7  Rx     18EF1CCD  8  A3 00 00 00 00 00 00 00 
  1232)      5127.7  Rx     18EF1C8F  8  0D 80 00 95 96 EC 5B FB 
  1233)      5128.6  Rx     18EF1C8F  8  0D 81 0C 00 1E 00 83 03 
  1234)      5129.7  Rx     18EF1C8F  8  0D 82 15 00 18 00 0F 00 
  1235)      5137.8  Rx     18EF1CCD  8  A1 40 00 00 00 00 00 00 
  1236)      5147.7  Rx     18EF1C8F  8  0D 90 00 B5 E4 EC 5B FB 
  1237)      5148.7  Rx     18EF1C8F  8  0D 91 F0 FF 22 00 81 03 
  1238)      5149.6  Rx     18EF1C8F  8  0D 92 11 00 00 00 0F 00 
  1239)      5167.7  Rx     18EF1C8F  8  0D A0 00 D5 32 ED 5B FB 
  1240)      5168.6  Rx     18EF1C8F  8  0D A1 0A 00 1F 00 86 03 
  1241)      5169.6  Rx     18EF1C8F  8  0D A2 15 00 12 00 0E 00 
  1242)      5187.7  Rx     18EF1C8F  8  0D B0 00 F5 80 ED 5A FB 
  1243)      5188.6  Rx     18EF1C8F  8  0D B1 F2 FF 21 00 83 03 
  1244)      5189.6  Rx     18EF1C8F  8  0D B2 1A 00 00 00 11 00 
  1245)      5193.1  Rx     18EFCD1C  8  A0 00 14 00 00 00 00 00 
  1246)      5193.7  Rx     18EF1CCD  8  A0 00 14 00 B4 07 00 00 
  1247)      5197.9  Rx     18EF1CCD  8  A2 00 00 00 00 00 00 00 
  1248)      5207.7  Rx     18EF1C8F  8  0D C0 00 15 CF ED 5B FB 
  1249)      5208.7  Rx     18EF1C8F  8  0D C1 05 00 1E 00 86 03 
  1250)      5209.6  Rx     18EF1C8F  8  0D C2 1C 00 10 00 0F 00 
  1251)      5211.9  Rx     18EFCD1C  8  A0 00 2A 00 00 00 00 00 
  1252)      5212.5  Rx     18EF1CCD  8  A0 00 2A 00 47 06 00 00 
  1253)      5218.0  Rx     18EF1CCD  8  A3 00 00 00 00 00 00 00 
  1254)      5227.2  Rx     18EFCD1C  8  A0 00 1B 00 00 00 00 00 
  1255)      5227.7  Rx     18EF1C8F  8  0D D0 00 37 1D EE 5B FB 
  1256)      5228.3  Rx     18EF1CCD  8  A0 00 1B 00 00 00 00 00 
  1257)      5228.9  Rx     18EF1C8F  8  0D D1 F8 FF 20 00 81 03 
  1258)      5229.7  Rx     18EF1C8F  8  0D D2 17 00 02 00 11 00 
  1259)      5238.0  Rx     18EF1CCD  8  A1 40 00 00 00 00 00 00 
  1260)      5247.2  Rx     18EFCD1C  8  A0 00 00 00 00 00 00 00 
  1261)      5247.8  Rx     18EF1C8F  8  0D E0 00 55 6B EE 5B FB 
  1262)      5248.4  Rx     18EF1CCD  8  A0 00 00 00 01 00 00 00 
  1263)      5248.9  Rx     18EF1C8F  8  0D E1 FE FF 20 00 86 03 
  1264)      5249.6  Rx     18EF1C8F  8  0D E2 17 00 11 00 0C 00 
  1265)      5267.7  Rx     18EF1C8F  8  0D F0 00 77 B9 EE 5B FB 
  1266)      5268.6  Rx     18EF1C8F  8  0D F1 00 00 1E 00 82 03 
  1267)      5269.6  Rx     18EF1C8F  8  0D F2 18 00 08 00 10 00 
  1268)      5287.2  Rx     18EFCD1C  8  A1 01 00 00 00 00 00 00 
  1269)      5287.7  Rx     18EF1C8F  8  0D 00 00 92 07 EF 5B FB 
  1270)      5288.6  Rx     18EF1C8F  8  0D 01 F9 FF 21 00 87 03 
  1271)      5289.7  Rx     18EF1C8F  8  0D 02 16 00 09 00 0D 00 
  1272)      5298.1  Rx     18EF1CCD  8  A2 00 00 00 00 00 00 00 
  1273)      5307.7  Rx     18EF1C8F  8  0D 10 00 B5 55 EF 5B FB 
  1274)      5308.6  Rx     18EF1C8F  8  0D 11 02 00 1D 00 83 03 
  1275)      5309.6  Rx     18EF1C8F  8  0D 12 18 00 0E 00 11 00 
  1276)      5318.2  Rx     18EF1CCD  8  A3 00 00 00 00 00 00 00 
  1277)      5327.7  Rx     18EF1C8F  8  0D 20 00 D5 A3 EF 5B FB 
  1278)      5328.6  Rx     18EF1C8F  8  0D 21 F8 FF 22 00 89 03 
  1279)      5329.6  Rx     18EF1C8F  8  0D 22 14 00 09 00 0D 00 
  1280)      5338.2  Rx     18EF1CCD  8  A1 40 00 00 00 00 00 00 
  1281)      5347.7  Rx     18EF1C8F  8  0D 30 00 F5 F1 EF 5B FB 
  1282)      5348.6  Rx     18EF1C8F  8  0D 31 06 00 1B 00 81 03 
  1283)      5349.6  Rx     18EF1C8F  8  0D 32 17 00 13 00 0D 00 
  1284)      5367.7  Rx     18EF1C8F  8  0D 40 00 15 40 F0 5B FB 
  1285)      5368.6  Rx     18EF1C8F  8  0D 41 F3 FF 23 00 84 03 
  1286)      5369.6  Rx     18EF1C8F  8  0D 42 16 00 02 00 0E 00 
  1287)      5387.7  Rx     18EF1C8F  8  0D 50 00 35 8E F0 5B FB 
  1288)      5388.6  Rx     18EF1C8F  8  0D 51 0B 00 18 00 82 03 
  1289)      5389.6  Rx     18EF1C8F  8  0D 52 15 00 15 00 11 00 
  1290)      5392.4  Rx     18EFCD1C  8  A0 00 14 00 00 00 00 00 
  1291)      5393.1  Rx     18EF1CCD  8  A0 00 14 00 B4 07 00 00 
  1292)      5398.4  Rx     18EF1CCD  8  A2 00 00 00 00 00 00 00 
  1293)      5407.7  Rx     18EF1C8F  8  0D 60 00 55 DC F0 5B FB 
  1294)      5408.6  Rx     18EF1C8F  8  0D 61 F3 FF 25 00 84 03 
  1295)      5409.2  Rx     18EFCD1C  8  A0 00 2A 00 00 00 00 00 
  1296)      5409.7  Rx     18EF1C8F  8  0D 62 16 00 02 00 0F 00 
  1297)      5410.3  Rx     18EF1CCD  8  A0 00 2A 00 47 06 00 00 
  1298)      5418.4  Rx     18EF1CCD  8  A3 00 00 00 00 00 00 00 
  1299)      5427.2  Rx     18EFCD1C  8  A0 00 1B 00 00 00 00 00 
  1300)      5427.7  Rx     18EF1C8F  8  0D 70 00 75 2A F1 5B FB 
  1301)      5428.3  Rx     18EF1CCD  8  A0 00 1B 00 00 00 00 00 
  1302)      5428.8  Rx     18EF1C8F  8  0D 71 0A 00 1A 00 85 03 
  1303)      5429.6  Rx     18EF1C8F  8  0D 72 18 00 16 00 0C 00 
  1304)      5438.4  Rx     18EF1CCD  8  A1 40 00 00 00 00 00 00 
  1305)      5447.1  Rx     18EFCD1C  8  A0 00 00 00 00 00 00 00 
  1306)      5447.7  Rx     18EF1C8F  8  0D 80 00 95 78 F1 5B FB 
  1307)      5448.3  Rx     18EF1CCD  8  A0 00 00 00 01 00 00 00 
  1308)      5448.8  Rx     18EF1C8F  8  0D 81 F2 FF 23 00 81 03 
  1309)      5449.6  Rx     18EF1C8F  8  0D 82 16 00 00 00 0E 00 
  1310)      5467.7  Rx     18EF1C8F  8  0D 90 00 B5 C6 F1 5B FB 
  1311)      5468.6  Rx     18EF1C8F  8  0D 91 08 00 1D 00 86 03 
  1312)      5469.6  Rx     18EF1C8F  8  0D 92 17 00 12 00 0E 00 
  1313)      5487.0  Rx     18EFCD1C  4  01 31 31 00 
  1314)      5487.6  Rx     18EFCD1C  8  A1 01 00 00 00 00 00 00 
  1315)      5488.1  Rx     18EF1C8F  8  0D A0 00 D5 14 F2 5B FB 
  1316)      5488.7  Rx     18EF1C8F  8  0D A1 F4 FF 21 00 7D 03 
  1317)      5489.1  Rx     18EF1CCD  4  01 32 31 00 
  1318)      5489.7  Rx     18EF1C8F  8  0D A2 17 00 03 00 11 00 
  1319)      5498.6  Rx     18EF1CCD  8  A2 00 00 00 00 00 00 00 
  1320)      5507.7  Rx     18EF1C8F  8  0D B0 00 F7 62 F2 5B FB 
  1321)      5508.6  Rx     18EF1C8F  8  0D B1 04 00 21 00 89 03 
  1322)      5509.6  Rx     18EF1C8F  8  0D B2 16 00 0F 00 0D 00 
  1323)      5518.6  Rx     18EF1CCD  8  A3 00 00 00 00 00 00 00 
  1324)      5527.7  Rx     18EF1C8F  8  0D C0 00 15 B1 F2 5B FB 
  1325)      5528.6  Rx     18EF1C8F  8  0D C1 FB FF 1D 00 80 03 
  1326)      5529.6  Rx     18EF1C8F  8  0D C2 18 00 04 00 11 00 
  1327)      5538.7  Rx     18EF1CCD  8  A1 40 00 00 00 00 00 00 
  1328)      5547.7  Rx     18EF1C8F  8  0D D0 00 35 FF F2 5B FB 
  1329)      5548.6  Rx     18EF1C8F  8  0D D1 FB FF 22 00 89 03 
  1330)      5549.6  Rx     18EF1C8F  8  0D D2 16 00 0A 00 0F 00 
  1331)      5567.7  Rx     18EF1C8F  8  0D E0 00 55 4D F3 5B FB 
  1332)      5568.6  Rx     18EF1C8F  8  0D E1 00 00 1C 00 82 03 
  1333)      5569.6  Rx     18EF1C8F  8  0D E2 17 00 0C 00 11 00 
  1334)      5587.7  Rx     18EF1C8F  8  0D F0 00 75 9B F3 5B FB 
  1335)      5588.6  Rx     18EF1C8F  8  0D F1 F7 FF 22 00 88 03 
  1336)      5589.6  Rx     18EF1C8F  8  0D F2 16 00 08 00 0F 00 
  1337)      5592.1  Rx     18EFCD1C  8  A0 00 14 00 00 00 00 00 
  1338)      5592.8  Rx     18EF1CCD  8  A0 00 14 00 B3 07 00 00 
  1339)      5598.8  Rx     18EF1CCD  8  A2 00 00 00 00 00 00 00 
  1340)      5607.7  Rx     18EF1C8F  8  0D 00 00 95 E9 F3 5B FB 
  1341)      5608.3  Rx     18EFCD1C  8  A0 00 2A 00 00 00 00 00 
  1342)      5608.8  Rx     18EF1C8F  8  0D 01 07 00 1D 00 82 03 
  1343)      5609.4  Rx     18EF1CCD  8  A0 00 2A 00 48 06 00 00 
  1344)      5609.9  Rx     18EF1C8F  8  0D 02 19 00 10 00 0F 00 
  1345)      5618.8  Rx     18EF1CCD  8  A3 00 00 00 00 00 00 00 
  1346)      5627.7  Rx     18EF1C8F  8  0D 10 00 B7 37 F4 5B FB 
  1347)      5628.3  Rx     18EFCD1C  8  A0 00 1B 00 00 00 00 00 
  1348)      5628.8  Rx     18EF1C8F  8  0D 11 F4 FF 20 00 86 03 
  1349)      5629.5  Rx     18EF1CCD  8  A0 00 1B 00 00 00 00 00 
  1350)      5630.1  Rx     18EF1C8F  8  0D 12 14 00 07 00 0C 00 
  1351)      5638.9  Rx     18EF1CCD  8  A1 40 00 00 00 00 00 00 
  1352)      5647.2  Rx     18EFCD1C  8  A0 00 00 00 00 00 00 00 
  1353)      5647.7  Rx     18EF1C8F  8  0D 20 00 D7 85 F4 5C FB 
  1354)      5648.3  Rx     18EF1CCD  8  A0 00 00 00 01 00 00 00 
  1355)      5648.9  Rx     18EF1C8F  8  0D 21 0A 00 1E 00 84 03 
  1356)      5649.6  Rx     18EF1C8F  8  0D 22 16 00 13 00 0F 00 
  1357)      5667.7  Rx     18EF1C8F  8  0D 30 00 F2 D3 F4 5B FB 
  1358)      5668.6  Rx     18EF1C8F  8  0D 31 F2 FF 24 00 84 03 
  1359)      5669.6  Rx     18EF1C8F  8  0D 32 12 00 01 00 0D 00 
  1360)      5687.1  Rx     18EFCD1C  8  A1 01 00 00 00 00 00 00 
  1361)      5687.7  Rx     18EF1C8F  8  0D 40 00 15 22 F5 5B FB 
  1362)      5688.6  Rx     18EF1C8F  8  0D 41 09 00 1C 00 81 03 
  1363)      5689.6  Rx     18EF1C8F  8  0D 42 15 00 18 00 0F 00 
  1364)      5699.0  Rx     18EF1CCD  8  A2 00 00 00 00 00 00 00 
  1365)      5707.7  Rx     18EF1C8F  8  0D 50 00 37 70 F5 5B FB 
  1366)      5708.6  Rx     18EF1C8F  8  0D 51 F3 FF 25 00 83 03 
  1367)      5709.6  Rx     18EF1C8F  8  0D 52 16 00 FF FF 0E 00 
  1368)      5719.1  Rx     18EF1CCD  8  A3 00 00 00 00 00 00 00 
  1369)      5727.7  Rx     18EF1C8F  8  0D 60 00 55 BE F5 5B FB 
  1370)      5728.6  Rx     18EF1C8F  8  0D 61 09 00 1C 00 84 03 
  1371)      5729.6  Rx     18EF1C8F  8  0D 62 18 00 12 00 10 00 
  1372)      5739.1  Rx     18EF1CCD  8  A1 40 00 00 00 00 00 00 
  1373)      5747.7  Rx     18EF1C8F  8  0D 70 00 75 0C F6 5B FB 
  1374)      5748.6  Rx     18EF1C8F  8  0D 71 F6 FF 24 00 83 03 
  1375)      5749.6  Rx     18EF1C8F  8  0D 72 16 00 00 00 10 00 
  1376)      5767.7  Rx     18EF1C8F  8  0D 80 00 92 5A F6 5B FB 
  1377)      5768.6  Rx     18EF1C8F  8  0D 81 05 00 1E 00 86 03 
  1378)      5769.6  Rx     18EF1C8F  8  0D 82 19 00 11 00 0E 00 
  1379)      5787.7  Rx     18EF1C8F  8  0D 90 00 B5 A8 F6 5B FB 
  1380)      5788.6  Rx     18EF1C8F  8  0D 91 FC FF 21 00 81 03 
  1381)      5789.6  Rx     18EF1C8F  8  0D 92 19 00 02 00 10 00 
  1382)      5791.6  Rx     18EFCD1C  8  A0 00 14 00 00 00 00 00 
  1383)      5792.3  Rx     18EF1CCD  8  A0 00 14 00 B4 07 00 00 
  1384)      5799.2  Rx     18EF1CCD  8  A2 00 00 00 00 00 00 00 
  1385)      5807.2  Rx     18EFCD1C  8  A0 00 2A 00 00 00 00 00 
  1386)      5807.7  Rx     18EF1C8F  8  0D A0 00 D5 F6 F6 5B FB 
  1387)      5808.3  Rx     18EF1CCD  8  A0 00 2A 00 40 06 00 00 
  1388)      5808.8  Rx     18EF1C8F  8  0D A1 00 00 20 00 88 03 
  1389)      5809.6  Rx     18EF1C8F  8  0D A2 18 00 0D 00 0E 00 
  1390)      5819.3  Rx     18EF1CCD  8  A3 00 00 00 00 00 00 00 
  1391)      5827.6  Rx     18EF1C8F  8  0D B0 00 F5 44 F7 5C FB 
  1392)      5828.6  Rx     18EF1C8F  8  0D B1 FB FF 1D 00 7F 03 
  1393)      5829.2  Rx     18EFCD1C  8  A0 00 1B 00 00 00 00 00 
  1394)      5829.7  Rx     18EF1C8F  8  0D B2 19 00 09 00 11 00 
  1395)      5830.3  Rx     18EF1CCD  8  A0 00 1B 00 00 00 00 00 
  1396)      5839.3  Rx     18EF1CCD  8  A1 40 00 00 00 00 00 00 
  1397)      5847.7  Rx     18EF1C8F  8  0D C0 00 15 93 F7 5C FB 
  1398)      5848.5  Rx     18EFCD1C  8  A0 00 00 00 00 00 00 00 
  1399)      5849.1  Rx     18EF1C8F  8  0D C1 FB FF 24 00 8A 03 
  1400)      5849.7  Rx     18EF1C8F  8  0D C2 17 00 0A 00 0E 00 
  1401)      5850.2  Rx     18EF1CCD  8  A0 00 00 00 01 00 00 00 
  1402)      5867.6  Rx     18EF1C8F  8  0D D0 00 35 E1 F7 5C FB 
  1403)      5868.6  Rx     18EF1C8F  8  0D D1 02 00 1C 00 80 03 
  1404)      5869.6  Rx     18EF1C8F  8  0D D2 18 00 0A 00 12 00 
  1405)      5887.1  Rx     18EFCD1C  8  A1 01 00 00 00 00 00 00 
  1406)      5887.7  Rx     18EF1C8F  8  0D E0 00 55 2F F8 5C FB 
  1407)      5888.6  Rx     18EF1C8F  8  0D E1 F7 FF 24 00 89 03 
  1408)      5889.5  Rx     18EF1C8F  8  0D E2 14 00 07 00 0B 00 
  1409)      5899.4  Rx     18EF1CCD  8  A2 00 00 00 00 00 00 00 
  1410)      5907.7  Rx     18EF1C8F  8  0D F0 00 75 7D F8 5C FB 
  1411)      5908.6  Rx     18EF1C8F  8  0D F1 08 00 1B 00 81 03 
  1412)      5909.6  Rx     18EF1C8F  8  0D F2 18 00 13 00 11 00 
  1413)      5919.5  Rx     18EF1CCD  8  A3 00 00 00 00 00 00 00 
  1414)      5927.6  Rx     18EF1C8F  8  0D 00 00 97 CB F8 5C FB 
  1415)      5928.5  Rx     18EF1C8F  8  0D 01 F2 FF 25 00 86 03 
  1416)      5929.6  Rx     18EF1C8F  8  0D 02 19 00 05 00 0F 00 
  1417)      5939.5  Rx     18EF1CCD  8  A1 40 00 00 00 00 00 00 
  1418)      5947.6  Rx     18EF1C8F  8  0D 10 00 B5 19 F9 5C FB 
  1419)      5948.6  Rx     18EF1C8F  8  0D 11 0B 00 1D 00 83 03 
  1420)      5949.5  Rx     18EF1C8F  8  0D 12 19 00 16 00 0E 00 
  1421)      5967.7  Rx     18EF1C8F  8  0D 20 00 D5 67 F9 5C FB 
  1422)      5968.5  Rx     18EF1C8F  8  0D 21 F2 FF 23 00 84 03 
  1423)      5969.6  Rx     18EF1C8F  8  0D 22 15 00 01 00 0D 00 
  1424)      5987.6  Rx     18EF1C8F  8  0D 30 00 F5 B5 F9 5B FB 
  1425)      5988.6  Rx     18EF1C8F  8  0D 31 0C 00 1F 00 82 03 
  1426)      5989.6  Rx     18EF1C8F  8  0D 32 17 00 17 00 0C 00 
  1427)      5992.0  Rx     18EFCD1C  8  A0 00 14 00 00 00 00 00 
  1428)      5992.7  Rx     18EF1CCD  8  A0 00 14 00 B4 07 00 00 
  1429)      5999.7  Rx     18EF1CCD  8  A2 00 00 00 00 00 00 00 
  1430)      6007.3  Rx     18EFCD1C  8  A0 00 2A 00 00 00 00 00 
  1431)      6007.9  Rx     18EF1C8F  8  0D 40 00 15 04 FA 5C FB 
  1432)      6008.4  Rx     18EF1CCD  8  A0 00 2A 00 41 06 00 00 
  1433)      6009.0  Rx     18EF1C8F  8  0D 41 F0 FF 22 00 82 03 
  1434)      6009.6  Rx     18EF1C8F  8  0D 42 15 00 00 00 10 00 
  1435)      6019.7  Rx     18EF1CCD  8  A3 00 00 00 00 00 00 00 
  1436)      6027.0  Rx     18EFCD1C  8  A0 00 1B 00 00 00 00 00 
  1437)      6027.6  Rx     18EF1C8F  8  0D 50 00 35 52 FA 5B FB 
  1438)      6028.2  Rx     18EF1CCD  8  A0 00 1B 00 00 00 00 00 
  1439)      6028.8  Rx     18EF1C8F  8  0D 51 08 00 20 00 84 03 
  1440)      6029.6  Rx     18EF1C8F  8  0D 52 1A 00 14 00 0D 00 
  1441)      6039.7  Rx     18EF1CCD  8  A1 40 00 00 00 00 00 00 
  1442)      6047.6  Rx     18EF1C8F  8  0D 60 00 57 A0 FA 5C FB 
  1443)      6048.5  Rx     18EF1C8F  8  0D 61 F5 FF 23 00 82 03 
  1444)      6049.1  Rx     18EFCD1C  8  A0 00 00 00 00 00 00 00 
  1445)      6049.7  Rx     18EF1C8F  8  0D 62 17 00 01 00 11 00 
  1446)      6050.3  Rx     18EF1CCD  8  A0 00 00 00 01 00 00 00 
  1447)      6067.6  Rx     18EF1C8F  8  0D 70 00 75 EE FA 5B FB 
  1448)      6068.6  Rx     18EF1C8F  8  0D 71 02 00 21 00 86 03 
  1449)      6069.5  Rx     18EF1C8F  8  0D 72 16 00 0F 00 0E 00 
  1450)      6087.6  Rx     18EF1C8F  8  0D 80 00 95 3C FB 5B FB 
  1451)      6088.2  Rx     18FEF31C  8  B6 2B 80 99 14 C7 2C 89 
  1452)      6088.7  Rx     18EF1C8F  8  0D 81 FB FF 1E 00 80 03 
  1453)      6089.6  Rx     18EF1C8F  8  0D 82 1A 00 03 00 10 00 
  1454)      6090.1  Rx     18FEE81C  8  33 8A 05 00 00 00 2C 51 
  1455)      6090.7  Rx     18FEE61C  8  7F 2E 0C 09 57 29 00 00 
  1456)      6091.3  Rx     19F8021C  8  9A FC 70 BC 00 00 FF FF 
  1457)      6091.8  Rx     18EFCD1C  8  A1 01 00 00 00 00 00 00 
  1458)      6094.7  Rx     19F8051C  8  60 2F 9A EE 50 C9 CB 69 
  1459)      6095.2  Rx     19F8051C  8  61 1B 40 7E DB E4 6C A7 
  1460)      6095.8  Rx     19F8051C  8  62 98 06 20 A3 79 11 2F 
  1461)      6096.3  Rx     19F8051C  8  63 90 CB 02 C3 CF 41 08 
  1462)      6096.9  Rx     19F8051C  8  64 00 00 00 00 40 00 0C 
  1463)      6097.5  Rx     19F8051C  8  65 5E 00 BF 00 FC 0F 00 
  1464)      6098.0  Rx     19F8051C  8  66 00 01 AF 02 F4 01 FF 
  1465)      6099.8  Rx     18EF1CCD  8  A2 00 00 00 00 00 00 00 
  1466)      6107.6  Rx     18EF1C8F  8  0D 90 00 BA 8A FB 5C FB 
  1467)      6108.5  Rx     18EF1C8F  8  0D 91 FC FF 22 00 87 03 
  1468)      6109.5  Rx     18EF1C8F  8  0D 92 16 00 0D 00 0E 00 
  1469)      6119.9  Rx     18EF1CCD  8  A3 00 00 00 00 00 00 00 
  1470)      6127.6  Rx     18EF1C8F  8  0D A0 00 D5 D8 FB 5C FB 
  1471)      6128.5  Rx     18EF1C8F  8  0D A1 00 00 1E 00 81 03 
  1472)      6129.5  Rx     18EF1C8F  8  0D A2 19 00 09 00 10 00 
  1473)      6139.9  Rx     18EF1CCD  8  A1 40 00 00 00 00 00 00 
  1474)      6147.6  Rx     18EF1C8F  8  0D B0 00 F5 26 FC 5C FB 
  1475)      6148.5  Rx     18EF1C8F  8  0D B1 F8 FF 22 00 87 03 
  1476)      6149.5  Rx     18EF1C8F  8  0D B2 16 00 09 00 0E 00 
  1477)      6167.6  Rx     18EF1C8F  8  0D C0 00 15 75 FC 5C FB 
  1478)      6168.5  Rx     18EF1C8F  8  0D C1 05 00 1E 00 85 03 
  1479)      6169.5  Rx     18EF1C8F  8  0D C2 19 00 14 00 10 00 
  1480)      6187.6  Rx     18EF1C8F  8  0D D0 00 32 C3 FC 5C FB 
  1481)      6188.5  Rx     18EF1C8F  8  0D D1 F5 FF 24 00 87 03 
  1482)      6189.5  Rx     18EF1C8F  8  0D D2 14 00 05 00 0E 00 
  1483)      6194.8  Rx     18EFCD1C  8  A0 00 14 00 00 00 00 00 
  1484)      6195.5  Rx     18EF1CCD  8  A0 00 14 00 B4 07 00 00 
  1485)      6200.0  Rx     18EF1CCD  8  A2 00 00 00 00 00 00 00 
  1486)      6207.6  Rx     18EF1C8F  8  0D E0 00 57 11 FD 5C FB 
  1487)      6208.5  Rx     18EF1C8F  8  0D E1 0A 00 1B 00 84 03 
  1488)      6209.5  Rx     18EF1C8F  8  0D E2 17 00 13 00 11 00 
  1489)      6211.8  Rx     18EFCD1C  8  A0 00 2A 00 00 00 00 00 
  1490)      6212.4  Rx     18EF1CCD  8  A0 00 2A 00 4A 06 00 00 
  1491)      6220.1  Rx     18EF1CCD  8  A3 00 00 00 00 00 00 00 
  1492)      6227.0  Rx     18EFCD1C  8  A0 00 1B 00 00 00 00 00 
  1493)      6227.6  Rx     18EF1C8F  8  0D F0 00 75 5F FD 5C FB 
  1494)      6228.2  Rx     18EF1CCD  8  A0 00 1B 00 00 00 00 00 
  1495)      6228.7  Rx     18EF1C8F  8  0D F1 F2 FF 24 00 83 03 
  1496)      6229.5  Rx     18EF1C8F  8  0D F2 15 00 02 00 0E 00 
  1497)      6240.1  Rx     18EF1CCD  8  A1 40 00 00 00 00 00 00 
  1498)      6247.3  Rx     18EFCD1C  8  A0 00 00 00 00 00 00 00 
  1499)      6247.8  Rx     18EF1C8F  8  0D 00 00 95 AD FD 5C FB 
  1500)      6248.4  Rx     18EF1CCD  8  A0 00 00 00 01 00 00 00 
  1501)      6248.9  Rx     18EF1C8F  8  0D 01 0B 00 19 00 81 03 
  1502)      6249.5  Rx     18EF1C8F  8  0D 02 17 00 14 00 11 00 
  1503)      6267.5  Rx     18EF1C8F  8  0D 10 00 B7 FB FD 5B FB 
  1504)      6268.5  Rx     18EF1C8F  8  0D 11 F0 FF 26 00 85 03 
  1505)      6269.5  Rx     18EF1C8F  8  0D 12 16 00 00 00 10 00 
  1506)      6287.0  Rx     18EFCD1C  8  A1 01 00 00 00 00 00 00 
  1507)      6287.5  Rx     18EF1C8F  8  0D 20 00 D2 49 FE 5C FB 
  1508)      6288.4  Rx     18EF1C8F  8  0D 21 0A 00 1D 00 86 03 
  1509)      6289.4  Rx     18EF1C8F  8  0D 22 16 00 13 00 0E 00 
  1510)      6300.2  Rx     18EF1CCD  8  A2 00 00 00 00 00 00 00 
