;$FILEVERSION=1.1
;$STARTTIME=46287.6101676042
;
;   Start time: 9/22/2026 14:38:38.481.0
;   Generated by PCAN-View v5.3.3.958
;
;   Message Number
;   |         Time Offset (ms)
;   |         |        Type
;   |         |        |        ID (hex)
;   |         |        |        |     Data Length
;   |         |        |        |     |   Data Bytes (hex) ...
;   |         |        |        |     |   |
;---+--   ----+----  --+--  ----+---  +  -+ -- -- -- -- -- -- --
     1)        63.9  Rx     18EFCD1C  8  A0 00 14 00 00 00 00 00 
     2)        84.9  Rx     18EFCD1C  8  A0 00 2A 00 00 00 00 00 
     3)       103.3  Rx     18EFCD1C  8  A0 00 1B 00 00 00 00 00 
     4)       123.3  Rx     18EFCD1C  8  A0 00 00 00 00 00 00 00 
     5)       263.3  Rx     18EFCD1C  8  A0 00 14 00 00 00 00 00 
     6)       284.2  Rx     18EFCD1C  8  A0 00 2A 00 00 00 00 00 
     7)       303.3  Rx     18EFCD1C  8  A0 00 1B 00 00 00 00 00 
     8)       323.3  Rx     18EFCD1C  8  A0 00 00 00 00 00 00 00 
     9)       383.2  Rx     18EFCD1C  4  01 79 1B 00 
    10)       464.4  Rx     18FEF31C  8  B5 28 80 99 99 D0 2C 89 
    11)       465.0  Rx     18FEE81C  8  FD 38 04 00 00 00 30 51 
    12)       465.6  Rx     18FEE61C  8  99 26 0C 09 57 29 00 00 
    13)       466.2  Rx     19F8021C  8  5B FC B5 4D 00 00 FF FF 
    14)       466.8  Rx     18EFCD1C  8  A0 00 14 00 00 00 00 00 
    15)       468.9  Rx     19F8051C  8  00 2F 5B EE 50 A8 8F 21 
    16)       469.5  Rx     19F8051C  8  01 1B 00 A8 8A AA B9 A6 
    17)       470.0  Rx     19F8051C  8  02 98 06 40 AE B6 79 66 
    18)       470.6  Rx     19F8051C  8  03 92 CB 02 4E DF 47 08 
    19)       471.2  Rx     19F8051C  8  04 00 00 00 00 40 00 0D 
    20)       471.8  Rx     19F8051C  8  05 5D 00 A2 00 FC 0F 00 
    21)       472.5  Rx     19F8051C  8  06 00 01 AF 02 20 03 FF 
    22)       483.2  Rx     18EFCD1C  8  A0 00 2A 00 00 00 00 00 
    23)       504.2  Rx     18EFCD1C  8  A0 00 1B 00 00 00 00 00 
    24)       523.2  Rx     18EFCD1C  8  A0 00 00 00 00 00 00 00 
    25)       663.3  Rx     18EFCD1C  8  A0 00 14 00 00 00 00 00 
    26)       683.3  Rx     18EFCD1C  8  A0 00 2A 00 00 00 00 00 
    27)       703.4  Rx     18EFCD1C  8  A0 00 1B 00 00 00 00 00 
    28)       724.3  Rx     18EFCD1C  8  A0 00 00 00 00 00 00 00 
    29)       808.6  Rx     18EF8F1C  4  01 4E 22 00 
    30)       863.2  Rx     18EFCD1C  8  A0 00 14 00 00 00 00 00 
    31)       883.2  Rx     18EFCD1C  8  A0 00 2A 00 00 00 00 00 
    32)       903.3  Rx     18EFCD1C  8  A0 00 1B 00 00 00 00 00 
    33)       923.8  Rx     18EFCD1C  8  A0 00 00 00 00 00 00 00 
    34)      1063.3  Rx     18EFCD1C  8  A0 00 14 00 00 00 00 00 
    35)      1083.2  Rx     18EFCD1C  8  A0 00 2A 00 00 00 00 00 
    36)      1103.2  Rx     18EFCD1C  8  A0 00 1B 00 00 00 00 00 
    37)      1123.3  Rx     18EFCD1C  8  A0 00 00 00 00 00 00 00 
    38)      1263.2  Rx     18EFCD1C  8  A0 00 14 00 00 00 00 00 
    39)      1283.2  Rx     18EFCD1C  8  A0 00 2A 00 00 00 00 00 
    40)      1303.2  Rx     18EFCD1C  8  A0 00 1B 00 00 00 00 00 
    41)      1323.2  Rx     18EFCD1C  8  A0 00 00 00 00 00 00 00 
    42)      1464.4  Rx     18FEF31C  8  B4 28 80 99 99 D0 2C 89 
    43)      1464.9  Rx     18FEE81C  8  FD 38 03 00 00 00 2F 51 
    44)      1465.5  Rx     18FEE61C  8  9D 26 0C 09 57 29 00 00 
    45)      1466.1  Rx     19F8021C  8  60 FC B5 4D 00 00 FF FF 
    46)      1466.8  Rx     18EFCD1C  8  A0 00 14 00 00 00 00 00 
    47)      1470.4  Rx     19F8051C  8  20 2F 60 EE 50 B8 B6 21 
    48)      1470.9  Rx     19F8051C  8  21 1B C0 B8 07 75 B9 A6 
    49)      1471.5  Rx     19F8051C  8  22 98 06 A0 6A 95 7E 66 
    50)      1472.1  Rx     19F8051C  8  23 92 CB 02 18 BF 47 08 
    51)      1472.7  Rx     19F8051C  8  24 00 00 00 00 40 00 0D 
    52)      1473.3  Rx     19F8051C  8  25 5D 00 A2 00 FC 0F 00 
    53)      1473.9  Rx     19F8051C  8  26 00 01 AF 02 F4 01 FF 
    54)      1483.2  Rx     18EFCD1C  8  A0 00 2A 00 00 00 00 00 
    55)      1503.2  Rx     18EFCD1C  8  A0 00 1B 00 00 00 00 00 
    56)      1523.2  Rx     18EFCD1C  8  A0 00 00 00 00 00 00 00 
    57)      1663.3  Rx     18EFCD1C  8  A0 00 14 00 00 00 00 00 
    58)      1683.2  Rx     18EFCD1C  8  A0 00 2A 00 00 00 00 00 
    59)      1703.2  Rx     18EFCD1C  8  A0 00 1B 00 00 00 00 00 
    60)      1723.2  Rx     18EFCD1C  8  A0 00 00 00 00 00 00 00 
    61)      1863.2  Rx     18EFCD1C  8  A0 00 14 00 00 00 00 00 
    62)      1883.2  Rx     18EFCD1C  8  A0 00 2A 00 00 00 00 00 
    63)      1903.2  Rx     18EFCD1C  8  A0 00 1B 00 00 00 00 00 
    64)      1923.2  Rx     18EFCD1C  8  A0 00 00 00 00 00 00 00 
    65)      2063.3  Rx     18EFCD1C  8  A0 00 14 00 00 00 00 00 
    66)      2083.2  Rx     18EFCD1C  8  A0 00 2A 00 00 00 00 00 
    67)      2103.3  Rx     18EFCD1C  8  A0 00 1B 00 00 00 00 00 
    68)      2123.2  Rx     18EFCD1C  8  A0 00 00 00 00 00 00 00 
    69)      2263.3  Rx     18EFCD1C  8  A0 00 14 00 00 00 00 00 
    70)      2283.3  Rx     18EFCD1C  8  A0 00 2A 00 00 00 00 00 
    71)      2303.2  Rx     18EFCD1C  8  A0 00 1B 00 00 00 00 00 
    72)      2323.2  Rx     18EFCD1C  8  A0 00 00 00 00 00 00 00 
    73)      2408.1  Rx     18EFCD1C  4  01 7A 1B 00 
    74)      2465.7  Rx     18FEF31C  8  B4 28 80 99 99 D0 2C 89 
    75)      2466.3  Rx     18FEE81C  8  FD 38 04 00 00 00 2F 51 
    76)      2466.9  Rx     18FEE61C  8  A1 26 0C 09 57 29 00 00 
    77)      2467.5  Rx     19F0101C  8  65 00 EE 50 3E DE 21 1B 
    78)      2468.1  Rx     19F8021C  8  65 FC B5 4D 00 00 FF FF 
    79)      2468.7  Rx     18EFCD1C  8  A0 00 14 00 00 00 00 00 
    80)      2470.3  Rx     19F8051C  8  40 2F 65 EE 50 3E DE 21 
    81)      2470.9  Rx     19F8051C  8  41 1B 40 1A 2B 72 B9 A6 
    82)      2471.5  Rx     19F8051C  8  42 98 06 C0 E2 97 82 66 
    83)      2472.1  Rx     19F8051C  8  43 92 CB 02 AA C4 47 08 
    84)      2472.7  Rx     19F8051C  8  44 00 00 00 00 40 00 0D 
    85)      2473.3  Rx     19F8051C  8  45 5D 00 A2 00 FC 0F 00 
    86)      2473.9  Rx     19F8051C  8  46 00 01 AF 02 58 02 FF 
    87)      2483.3  Rx     18EFCD1C  8  A0 00 2A 00 00 00 00 00 
    88)      2503.3  Rx     18EFCD1C  8  A0 00 1B 00 00 00 00 00 
    89)      2523.3  Rx     18EFCD1C  8  A0 00 00 00 00 00 00 00 
    90)      2664.8  Rx     18EFCD1C  8  A0 00 14 00 00 00 00 00 
    91)      2683.3  Rx     18EFCD1C  8  A0 00 2A 00 00 00 00 00 
    92)      2703.3  Rx     18EFCD1C  8  A0 00 1B 00 00 00 00 00 
    93)      2723.3  Rx     18EFCD1C  8  A0 00 00 00 00 00 00 00 
    94)      2863.6  Rx     18EFCD1C  8  A0 00 14 00 00 00 00 00 
    95)      2884.8  Rx     18EFCD1C  8  A0 00 2A 00 00 00 00 00 
    96)      2903.3  Rx     18EFCD1C  8  A0 00 1B 00 00 00 00 00 
    97)      2923.3  Rx     18EFCD1C  8  A0 00 00 00 00 00 00 00 
    98)      3008.2  Rx     18EF8F1C  4  01 4F 22 00 
    99)      3063.4  Rx     18EFCD1C  8  A0 00 14 00 00 00 00 00 
   100)      3083.9  Rx     18EFCD1C  8  A0 00 2A 00 00 00 00 00 
   101)      3104.8  Rx     18EFCD1C  8  A0 00 1B 00 00 00 00 00 
   102)      3123.3  Rx     18EFCD1C  8  A0 00 00 00 00 00 00 00 
   103)      3263.4  Rx     18EFCD1C  8  A0 00 14 00 00 00 00 00 
   104)      3283.3  Rx     18EFCD1C  8  A0 00 2A 00 00 00 00 00 
   105)      3304.2  Rx     18EFCD1C  8  A0 00 1B 00 00 00 00 00 
   106)      3324.9  Rx     18EFCD1C  8  A0 00 00 00 00 00 00 00 
   107)      3464.5  Rx     18FEF31C  8  B4 28 80 99 99 D0 2C 89 
   108)      3465.0  Rx     18FEE81C  8  FD 38 04 00 00 00 30 51 
   109)      3465.6  Rx     18FEE61C  8  A5 26 0C 09 57 29 00 00 
   110)      3466.2  Rx     19F8021C  8  6A FC B5 4D 00 00 FF FF 
   111)      3466.8  Rx     18EFCD1C  8  A0 00 14 00 00 00 00 00 
   112)      3468.9  Rx     19F8051C  8  60 2F 6A EE 50 D8 04 22 
   113)      3469.5  Rx     19F8051C  8  61 1B C0 8C 00 79 B9 A6 
   114)      3470.1  Rx     19F8051C  8  62 98 06 A0 73 2D 78 66 
   115)      3470.7  Rx     19F8051C  8  63 92 CB 02 00 DB 47 08 
   116)      3471.3  Rx     19F8051C  8  64 00 00 00 00 40 00 0D 
   117)      3471.9  Rx     19F8051C  8  65 5D 00 A2 00 FC 0F 00 
   118)      3472.5  Rx     19F8051C  8  66 00 01 AF 02 BC 02 FF 
   119)      3483.3  Rx     18EFCD1C  8  A0 00 2A 00 00 00 00 00 
   120)      3503.4  Rx     18EFCD1C  8  A0 00 1B 00 00 00 00 00 
   121)      3524.4  Rx     18EFCD1C  8  A0 00 00 00 00 00 00 00 
   122)      3663.3  Rx     18EFCD1C  8  A0 00 14 00 00 00 00 00 
   123)      3683.3  Rx     18EFCD1C  8  A0 00 2A 00 00 00 00 00 
   124)      3703.3  Rx     18EFCD1C  8  A0 00 1B 00 00 00 00 00 
   125)      3723.5  Rx     18EFCD1C  8  A0 00 00 00 00 00 00 00 
   126)      3863.3  Rx     18EFCD1C  8  A0 00 14 00 00 00 00 00 
   127)      3883.3  Rx     18EFCD1C  8  A0 00 2A 00 00 00 00 00 
   128)      3903.3  Rx     18EFCD1C  8  A0 00 1B 00 00 00 00 00 
   129)      3923.3  Rx     18EFCD1C  8  A0 00 00 00 00 00 00 00 
   130)      4063.3  Rx     18EFCD1C  8  A0 00 14 00 00 00 00 00 
   131)      4083.3  Rx     18EFCD1C  8  A0 00 2A 00 00 00 00 00 
   132)      4103.3  Rx     18EFCD1C  8  A0 00 1B 00 00 00 00 00 
   133)      4123.3  Rx     18EFCD1C  8  A0 00 00 00 00 00 00 00 
   134)      4263.3  Rx     18EFCD1C  8  A0 00 14 00 00 00 00 00 
   135)      4283.3  Rx     18EFCD1C  8  A0 00 2A 00 00 00 00 00 
   136)      4303.3  Rx     18EFCD1C  8  A0 00 1B 00 00 00 00 00 
   137)      4323.3  Rx     18EFCD1C  8  A0 00 00 00 00 00 00 00 
   138)      4409.3  Rx     18EFCD1C  4  01 7B 1B 00 
   139)      4464.5  Rx     18FEF31C  8  B4 28 80 99 98 D0 2C 89 
   140)      4465.1  Rx     18FEE81C  8  FD 38 01 00 00 00 30 51 
   141)      4465.7  Rx     18FEE61C  8  A9 26 0C 09 57 29 00 00 
   142)      4466.3  Rx     19F8021C  8  6F FC B5 4D 00 00 FF FF 
   143)      4466.9  Rx     18EFCD1C  8  A0 00 14 00 00 00 00 00 
   144)      4470.2  Rx     19F8051C  8  80 2F 6F EE 50 E8 2B 22 
   145)      4470.7  Rx     19F8051C  8  81 1B C0 CE 64 77 B9 A6 
   146)      4471.3  Rx     19F8051C  8  82 98 06 A0 EA 6E 49 66 
   147)      4471.9  Rx     19F8051C  8  83 92 CB 02 B5 EA 47 08 
   148)      4472.5  Rx     19F8051C  8  84 00 00 00 00 40 00 0D 
   149)      4473.1  Rx     19F8051C  8  85 5D 00 A2 00 FC 0F 00 
   150)      4473.7  Rx     19F8051C  8  86 00 01 AF 02 20 03 FF 
   151)      4483.4  Rx     18EFCD1C  8  A0 00 2A 00 00 00 00 00 
   152)      4503.4  Rx     18EFCD1C  8  A0 00 1B 00 00 00 00 00 
   153)      4523.4  Rx     18EFCD1C  8  A0 00 00 00 00 00 00 00 
   154)      4663.4  Rx     18EFCD1C  8  A0 00 14 00 00 00 00 00 
   155)      4683.5  Rx     18EFCD1C  8  A0 00 2A 00 00 00 00 00 
   156)      4703.4  Rx     18EFCD1C  8  A0 00 1B 00 00 00 00 00 
   157)      4723.4  Rx     18EFCD1C  8  A0 00 00 00 00 00 00 00 
   158)      4874.1  Rx     18EFCD1C  8  A0 00 14 00 00 00 00 00 
   159)      4883.5  Rx     18EFCD1C  8  A0 00 2A 00 00 00 00 00 
   160)      4903.5  Rx     18EFCD1C  8  A0 00 1B 00 00 00 00 00 
   161)      4923.4  Rx     18EFCD1C  8  A0 00 00 00 00 00 00 00 
   162)      5010.1  Rx     18EF8F1C  4  01 50 22 00 
   163)      5063.5  Rx     18EFCD1C  8  A0 00 14 00 00 00 00 00 
   164)      5083.5  Rx     18EFCD1C  8  A0 00 2A 00 00 00 00 00 
   165)      5103.5  Rx     18EFCD1C  8  A0 00 1B 00 00 00 00 00 
   166)      5123.5  Rx     18EFCD1C  8  A0 00 00 00 00 00 00 00 
   167)      5264.4  Rx     18EFCD1C  8  A0 00 14 00 00 00 00 00 
   168)      5283.4  Rx     18EFCD1C  8  A0 00 2A 00 00 00 00 00 
   169)      5303.4  Rx     18EFCD1C  8  A0 00 1B 00 00 00 00 00 
   170)      5323.4  Rx     18EFCD1C  8  A0 00 00 00 00 00 00 00 
   171)      5466.0  Rx     18FEF31C  8  B3 28 80 99 99 D0 2C 89 
   172)      5466.6  Rx     18FEE81C  8  FD 38 03 00 00 00 30 51 
   173)      5467.2  Rx     18FEE61C  8  AD 26 0C 09 57 29 00 00 
   174)      5467.8  Rx     19F8021C  8  74 FC B5 4D 00 00 FF FF 
   175)      5468.4  Rx     18EFCD1C  8  A0 00 14 00 00 00 00 00 
   176)      5470.3  Rx     19F8051C  8  A0 2F 74 EE 50 F8 52 22 
   177)      5470.9  Rx     19F8051C  8  A1 1B C0 B3 87 60 B9 A6 
   178)      5471.5  Rx     19F8051C  8  A2 98 06 60 99 06 8F 66 
   179)      5472.1  Rx     19F8051C  8  A3 92 CB 02 29 F0 47 08 
   180)      5472.7  Rx     19F8051C  8  A4 00 00 00 00 40 00 0D 
   181)      5473.3  Rx     19F8051C  8  A5 5D 00 A2 00 FC 0F 00 
   182)      5473.9  Rx     19F8051C  8  A6 00 01 AF 02 F4 01 FF 
   183)      5483.4  Rx     18EFCD1C  8  A0 00 2A 00 00 00 00 00 
   184)      5503.4  Rx     18EFCD1C  8  A0 00 1B 00 00 00 00 00 
   185)      5523.4  Rx     18EFCD1C  8  A0 00 00 00 00 00 00 00 
   186)      5663.5  Rx     18EFCD1C  8  A0 00 14 00 00 00 00 00 
   187)      5685.0  Rx     18EFCD1C  8  A0 00 2A 00 00 00 00 00 
   188)      5703.4  Rx     18EFCD1C  8  A0 00 1B 00 00 00 00 00 
   189)      5723.4  Rx     18EFCD1C  8  A0 00 00 00 00 00 00 00 
   190)      5863.5  Rx     18EFCD1C  8  A0 00 14 00 00 00 00 00 
   191)      5883.8  Rx     18EFCD1C  8  A0 00 2A 00 00 00 00 00 
   192)      5905.1  Rx     18EFCD1C  8  A0 00 1B 00 00 00 00 00 
   193)      5923.4  Rx     18EFCD1C  8  A0 00 00 00 00 00 00 00 
   194)      6063.4  Rx     18EFCD1C  8  A0 00 14 00 00 00 00 00 
   195)      6083.4  Rx     18EFCD1C  8  A0 00 2A 00 00 00 00 00 
   196)      6103.9  Rx     18EFCD1C  8  A0 00 1B 00 00 00 00 00 
   197)      6125.0  Rx     18EFCD1C  8  A0 00 00 00 00 00 00 00 
   198)      6263.4  Rx     18EFCD1C  8  A0 00 14 00 00 00 00 00 
   199)      6283.4  Rx     18EFCD1C  8  A0 00 2A 00 00 00 00 00 
   200)      6303.4  Rx     18EFCD1C  8  A0 00 1B 00 00 00 00 00 
   201)      6324.1  Rx     18EFCD1C  8  A0 00 00 00 00 00 00 00 
   202)      6423.3  Rx     18EFCD1C  4  01 7C 1B 00 
   203)      6464.6  Rx     18FEF31C  8  B3 28 80 99 99 D0 2C 89 
   204)      6465.2  Rx     18FEE81C  8  FD 38 0B 00 00 00 30 51 
   205)      6465.8  Rx     18FEE61C  8  B1 26 0C 09 57 29 00 00 
   206)      6466.4  Rx     19F8021C  8  79 FC B5 4D 00 00 FF FF 
   207)      6466.9  Rx     18EFCD1C  8  A0 00 14 00 00 00 00 00 
   208)      6469.0  Rx     19F8051C  8  C0 2F 79 EE 50 08 7A 22 
   209)      6470.5  Rx     19F8051C  8  C1 1B 40 E5 A5 36 B9 A6 
   210)      6471.1  Rx     19F8051C  8  C2 98 06 60 42 6B A5 66 
   211)      6471.7  Rx     19F8051C  8  C3 92 CB 02 53 00 48 08 
   212)      6472.3  Rx     19F8051C  8  C4 00 00 00 00 40 00 0D 
   213)      6472.9  Rx     19F8051C  8  C5 5D 00 A2 00 FC 0F 00 
   214)      6473.5  Rx     19F8051C  8  C6 00 01 AF 02 58 02 FF 
   215)      6483.4  Rx     18EFCD1C  8  A0 00 2A 00 00 00 00 00 
   216)      6503.4  Rx     18EFCD1C  8  A0 00 1B 00 00 00 00 00 
   217)      6523.5  Rx     18EFCD1C  8  A0 00 00 00 00 00 00 00 
   218)      6663.5  Rx     18EFCD1C  8  A0 00 14 00 00 00 00 00 
   219)      6683.4  Rx     18EFCD1C  8  A0 00 2A 00 00 00 00 00 
   220)      6703.4  Rx     18EFCD1C  8  A0 00 1B 00 00 00 00 00 
   221)      6723.5  Rx     18EFCD1C  8  A0 00 00 00 00 00 00 00 
   222)      6863.5  Rx     18EFCD1C  8  A0 00 14 00 00 00 00 00 
   223)      6883.5  Rx     18EFCD1C  8  A0 00 2A 00 00 00 00 00 
   224)      6903.5  Rx     18EFCD1C  8  A0 00 1B 00 00 00 00 00 
   225)      6923.5  Rx     18EFCD1C  8  A0 00 00 00 00 00 00 00 
   226)      7063.5  Rx     18EFCD1C  8  A0 00 14 00 00 00 00 00 
   227)      7083.4  Rx     18EFCD1C  8  A0 00 2A 00 00 00 00 00 
   228)      7103.4  Rx     18EFCD1C  8  A0 00 1B 00 00 00 00 00 
   229)      7123.5  Rx     18EFCD1C  8  A0 00 00 00 00 00 00 00 
   230)      7208.1  Rx     18EF8F1C  4  01 51 22 00 
   231)      7263.4  Rx     18EFCD1C  8  A0 00 14 00 00 00 00 00 
   232)      7283.4  Rx     18EFCD1C  8  A0 00 2A 00 00 00 00 00 
   233)      7303.4  Rx     18EFCD1C  8  A0 00 1B 00 00 00 00 00 
   234)      7323.4  Rx     18EFCD1C  8  A0 00 00 00 00 00 00 00 
   235)      7464.9  Rx     18FEF31C  8  B3 28 80 99 99 D0 2C 89 
   236)      7465.5  Rx     18FEE81C  8  FD 38 05 00 00 00 30 51 
   237)      7466.1  Rx     18FEE61C  8  B5 26 0C 09 57 29 00 00 
   238)      7466.7  Rx     19F0101C  8  7E 00 EE 50 18 A1 22 1B 
   239)      7467.3  Rx     19F8021C  8  7E FC B5 4D 00 00 FF FF 
   240)      7468.0  Rx     18EFCD1C  8  A0 00 14 00 00 00 00 00 
   241)      7470.5  Rx     19F8051C  8  E0 2F 7E EE 50 18 A1 22 
   242)      7471.0  Rx     19F8051C  8  E1 1B C0 CF 3D 32 B9 A6 
   243)      7471.6  Rx     19F8051C  8  E2 98 06 40 D7 FB A9 66 
   244)      7472.2  Rx     19F8051C  8  E3 92 CB 02 1C F0 47 08 
   245)      7472.8  Rx     19F8051C  8  E4 00 00 00 00 40 00 0D 
   246)      7473.4  Rx     19F8051C  8  E5 5D 00 A2 00 FC 0F 00 
   247)      7474.0  Rx     19F8051C  8  E6 00 01 AF 02 BC 02 FF 
   248)      7483.4  Rx     18EFCD1C  8  A0 00 2A 00 00 00 00 00 
   249)      7503.4  Rx     18EFCD1C  8  A0 00 1B 00 00 00 00 00 
   250)      7523.4  Rx     18EFCD1C  8  A0 00 00 00 00 00 00 00 
   251)      7663.4  Rx     18EFCD1C  8  A0 00 14 00 00 00 00 00 
   252)      7683.4  Rx     18EFCD1C  8  A0 00 2A 00 00 00 00 00 
   253)      7703.4  Rx     18EFCD1C  8  A0 00 1B 00 00 00 00 00 
   254)      7723.4  Rx     18EFCD1C  8  A0 00 00 00 00 00 00 00 
   255)      7863.4  Rx     18EFCD1C  8  A0 00 14 00 00 00 00 00 
   256)      7883.4  Rx     18EFCD1C  8  A0 00 2A 00 00 00 00 00 
   257)      7903.4  Rx     18EFCD1C  8  A0 00 1B 00 00 00 00 00 
   258)      7923.4  Rx     18EFCD1C  8  A0 00 00 00 00 00 00 00 
   259)      8064.6  Rx     18EFCD1C  8  A0 00 14 00 00 00 00 00 
   260)      8083.4  Rx     18EFCD1C  8  A0 00 2A 00 00 00 00 00 
   261)      8103.4  Rx     18EFCD1C  8  A0 00 1B 00 00 00 00 00 
   262)      8123.4  Rx     18EFCD1C  8  A0 00 00 00 00 00 00 00 
   263)      8264.5  Rx     18EFCD1C  8  A0 00 14 00 00 00 00 00 
   264)      8284.4  Rx     18EFCD1C  8  A0 00 2A 00 00 00 00 00 
   265)      8303.4  Rx     18EFCD1C  8  A0 00 1B 00 00 00 00 00 
   266)      8323.4  Rx     18EFCD1C  8  A0 00 00 00 00 00 00 00 
   267)      8443.3  Rx     18EFCD1C  4  01 7D 1B 00 
   268)      8464.6  Rx     18FEF31C  8  B3 28 80 99 9A D0 2C 89 
   269)      8465.2  Rx     18FEE81C  8  FD 38 07 00 00 00 30 51 
   270)      8465.8  Rx     18FEE61C  8  B9 26 0C 09 57 29 00 00 
   271)      8466.4  Rx     19F8021C  8  83 FC B5 4D 00 00 FF FF 
   272)      8467.0  Rx     18EFCD1C  8  A0 00 14 00 00 00 00 00 
   273)      8469.1  Rx     19F8051C  8  00 2F 83 EE 50 28 C8 22 
   274)      8469.6  Rx     19F8051C  8  01 1B 80 21 A7 44 B9 A6 
   275)      8470.2  Rx     19F8051C  8  02 98 06 60 85 79 BB 66 
   276)      8470.8  Rx     19F8051C  8  03 92 CB 02 DE E8 47 08 
   277)      8471.4  Rx     19F8051C  8  04 00 00 00 00 40 00 0D 
   278)      8472.0  Rx     19F8051C  8  05 5D 00 A2 00 FC 0F 00 
   279)      8472.6  Rx     19F8051C  8  06 00 01 AF 02 20 03 FF 
   280)      8484.6  Rx     18EFCD1C  8  A0 00 2A 00 00 00 00 00 
   281)      8504.6  Rx     18EFCD1C  8  A0 00 1B 00 00 00 00 00 
   282)      8523.4  Rx     18EFCD1C  8  A0 00 00 00 00 00 00 00 
   283)      8663.4  Rx     18EFCD1C  8  A0 00 14 00 00 00 00 00 
   284)      8683.5  Rx     18EFCD1C  8  A0 00 2A 00 00 00 00 00 
   285)      8704.6  Rx     18EFCD1C  8  A0 00 1B 00 00 00 00 00 
   286)      8723.5  Rx     18EFCD1C  8  A0 00 00 00 00 00 00 00 
   287)      8863.5  Rx     18EFCD1C  8  A0 00 14 00 00 00 00 00 
   288)      8883.5  Rx     18EFCD1C  8  A0 00 2A 00 00 00 00 00 
   289)      8903.5  Rx     18EFCD1C  8  A0 00 1B 00 00 00 00 00 
   290)      8925.0  Rx     18EFCD1C  8  A0 00 00 00 00 00 00 00 
   291)      9063.6  Rx     18EFCD1C  8  A0 00 14 00 00 00 00 00 
   292)      9083.5  Rx     18EFCD1C  8  A0 00 2A 00 00 00 00 00 
   293)      9103.5  Rx     18EFCD1C  8  A0 00 1B 00 00 00 00 00 
   294)      9123.7  Rx     18EFCD1C  8  A0 00 00 00 00 00 00 00 
   295)      9263.5  Rx     18EFCD1C  8  A0 00 14 00 00 00 00 00 
   296)      9283.5  Rx     18EFCD1C  8  A0 00 2A 00 00 00 00 00 
   297)      9303.5  Rx     18EFCD1C  8  A0 00 1B 00 00 00 00 00 
   298)      9323.6  Rx     18EFCD1C  8  A0 00 00 00 00 00 00 00 
   299)      9408.0  Rx     18EF8F1C  4  01 52 22 00 
   300)      9464.7  Rx     18FEF31C  8  B4 28 80 99 9A D0 2C 89 
   301)      9465.3  Rx     18FEE81C  8  FD 38 03 00 00 00 30 51 
   302)      9465.9  Rx     18FEE61C  8  BD 26 0C 09 57 29 00 00 
   303)      9466.4  Rx     19F8021C  8  88 FC B5 4D 00 00 FF FF 
   304)      9467.0  Rx     18EFCD1C  8  A0 00 14 00 00 00 00 00 
   305)      9470.4  Rx     19F8051C  8  20 2F 88 EE 50 38 EF 22 
   306)      9470.9  Rx     19F8051C  8  21 1B 80 34 9D 7D B9 A6 
   307)      9471.5  Rx     19F8051C  8  22 98 06 40 17 CD DB 66 
   308)      9472.1  Rx     19F8051C  8  23 92 CB 02 70 DF 47 08 
   309)      9472.7  Rx     19F8051C  8  24 00 00 00 00 40 00 0D 
   310)      9473.3  Rx     19F8051C  8  25 5D 00 A3 00 FC 0F 00 
   311)      9473.9  Rx     19F8051C  8  26 00 01 AF 02 F4 01 FF 
   312)      9483.5  Rx     18EFCD1C  8  A0 00 2A 00 00 00 00 00 
   313)      9503.5  Rx     18EFCD1C  8  A0 00 1B 00 00 00 00 00 
   314)      9523.5  Rx     18EFCD1C  8  A0 00 00 00 00 00 00 00 
   315)      9663.6  Rx     18EFCD1C  8  A0 00 14 00 00 00 00 00 
   316)      9683.5  Rx     18EFCD1C  8  A0 00 2A 00 00 00 00 00 
   317)      9703.5  Rx     18EFCD1C  8  A0 00 1B 00 00 00 00 00 
   318)      9723.5  Rx     18EFCD1C  8  A0 00 00 00 00 00 00 00 
   319)      9863.5  Rx     18EFCD1C  8  A0 00 14 00 00 00 00 00 
   320)      9883.5  Rx     18EFCD1C  8  A0 00 2A 00 00 00 00 00 
   321)      9903.6  Rx     18EFCD1C  8  A0 00 1B 00 00 00 00 00 
   322)      9923.5  Rx     18EFCD1C  8  A0 00 00 00 00 00 00 00 
   323)     10063.6  Rx     18EFCD1C  8  A0 00 14 00 00 00 00 00 
   324)     10083.5  Rx     18EFCD1C  8  A0 00 2A 00 00 00 00 00 
   325)     10103.6  Rx     18EFCD1C  8  A0 00 1B 00 00 00 00 00 
   326)     10123.6  Rx     18EFCD1C  8  A0 00 00 00 00 00 00 00 
   327)     10263.6  Rx     18EFCD1C  8  A0 00 14 00 00 00 00 00 
   328)     10283.6  Rx     18EFCD1C  8  A0 00 2A 00 00 00 00 00 
   329)     10303.6  Rx     18EFCD1C  8  A0 00 1B 00 00 00 00 00 
   330)     10323.6  Rx     18EFCD1C  8  A0 00 00 00 00 00 00 00 
   331)     10444.5  Rx     18EFCD1C  4  01 7E 1B 00 
   332)     10466.3  Rx     18FEF31C  8  B4 28 80 99 9A D0 2C 89 
   333)     10466.9  Rx     18FEE81C  8  FD 38 06 00 00 00 2F 51 
   334)     10467.5  Rx     18FEE61C  8  C1 26 0C 09 57 29 00 00 
   335)     10468.1  Rx     19F8021C  8  8D FC B5 4D 00 00 FF FF 
   336)     10468.7  Rx     18EFCD1C  8  A0 00 14 00 00 00 00 00 
   337)     10470.6  Rx     19F8051C  8  40 2F 8D EE 50 48 16 23 
   338)     10471.2  Rx     19F8051C  8  41 1B 80 3F 69 84 B9 A6 
   339)     10471.8  Rx     19F8051C  8  42 98 06 80 B1 3C CC 66 
   340)     10472.4  Rx     19F8051C  8  43 92 CB 02 B3 B0 47 08 
   341)     10473.0  Rx     19F8051C  8  44 00 00 00 00 40 00 0D 
   342)     10473.6  Rx     19F8051C  8  45 5D 00 A3 00 FC 0F 00 
   343)     10474.2  Rx     19F8051C  8  46 00 01 AF 02 58 02 FF 
   344)     10483.5  Rx     18EFCD1C  8  A0 00 2A 00 00 00 00 00 
   345)     10503.5  Rx     18EFCD1C  8  A0 00 1B 00 00 00 00 00 
   346)     10523.5  Rx     18EFCD1C  8  A0 00 00 00 00 00 00 00 
   347)     10664.6  Rx     18EFCD1C  8  A0 00 14 00 00 00 00 00 
   348)     10683.6  Rx     18EFCD1C  8  A0 00 2A 00 00 00 00 00 
   349)     10703.5  Rx     18EFCD1C  8  A0 00 1B 00 00 00 00 00 
   350)     10723.5  Rx     18EFCD1C  8  A0 00 00 00 00 00 00 00 
   351)     10864.5  Rx     18EFCD1C  8  A0 00 14 00 00 00 00 00 
   352)     10883.5  Rx     18EFCD1C  8  A0 00 2A 00 00 00 00 00 
   353)     10903.5  Rx     18EFCD1C  8  A0 00 1B 00 00 00 00 00 
   354)     10923.6  Rx     18EFCD1C  8  A0 00 00 00 00 00 00 00 
   355)     11064.0  Rx     18EFCD1C  8  A0 00 14 00 00 00 00 00 
   356)     11084.5  Rx     18EFCD1C  8  A0 00 2A 00 00 00 00 00 
   357)     11103.5  Rx     18EFCD1C  8  A0 00 1B 00 00 00 00 00 
   358)     11123.5  Rx     18EFCD1C  8  A0 00 00 00 00 00 00 00 
   359)     11263.6  Rx     18EFCD1C  8  A0 00 14 00 00 00 00 00 
   360)     11284.2  Rx     18EFCD1C  8  A0 00 2A 00 00 00 00 00 
   361)     11304.5  Rx     18EFCD1C  8  A0 00 1B 00 00 00 00 00 
   362)     11323.5  Rx     18EFCD1C  8  A0 00 00 00 00 00 00 00 
   363)     11464.6  Rx     18FEF31C  8  B4 28 80 99 9A D0 2C 89 
   364)     11465.2  Rx     18FEE81C  8  FD 38 09 00 00 00 2F 51 
   365)     11465.8  Rx     18FEE61C  8  C5 26 0C 09 57 29 00 00 
   366)     11466.4  Rx     19F8021C  8  92 FC B5 4D 00 00 FF FF 
   367)     11467.0  Rx     18EFCD1C  8  A0 00 14 00 00 00 00 00 
   368)     11469.1  Rx     19F8051C  8  60 2F 92 EE 50 58 3D 23 
   369)     11469.6  Rx     19F8051C  8  61 1B 40 C4 7C 87 B9 A6 
   370)     11470.2  Rx     19F8051C  8  62 98 06 20 BD 33 C7 66 
   371)     11470.8  Rx     19F8051C  8  63 92 CB 02 54 8E 47 08 
   372)     11471.4  Rx     19F8051C  8  64 00 00 00 00 40 00 0D 
   373)     11472.0  Rx     19F8051C  8  65 5D 00 A3 00 FC 0F 00 
   374)     11472.6  Rx     19F8051C  8  66 00 01 AF 02 BC 02 FF 
   375)     11483.5  Rx     18EFCD1C  8  A0 00 2A 00 00 00 00 00 
   376)     11504.4  Rx     18EFCD1C  8  A0 00 1B 00 00 00 00 00 
   377)     11524.4  Rx     18EFCD1C  8  A0 00 00 00 00 00 00 00 
   378)     11608.9  Rx     18EF8F1C  4  01 53 22 00 
   379)     11663.5  Rx     18EFCD1C  8  A0 00 14 00 00 00 00 00 
   380)     11683.5  Rx     18EFCD1C  8  A0 00 2A 00 00 00 00 00 
   381)     11703.5  Rx     18EFCD1C  8  A0 00 1B 00 00 00 00 00 
   382)     11725.0  Rx     18EFCD1C  8  A0 00 00 00 00 00 00 00 
   383)     11863.5  Rx     18EFCD1C  8  A0 00 14 00 00 00 00 00 
   384)     11883.5  Rx     18EFCD1C  8  A0 00 2A 00 00 00 00 00 
   385)     11903.5  Rx     18EFCD1C  8  A0 00 1B 00 00 00 00 00 
   386)     11923.5  Rx     18EFCD1C  8  A0 00 00 00 00 00 00 00 
   387)     12063.6  Rx     18EFCD1C  8  A0 00 14 00 00 00 00 00 
   388)     12083.5  Rx     18EFCD1C  8  A0 00 2A 00 00 00 00 00 
   389)     12103.5  Rx     18EFCD1C  8  A0 00 1B 00 00 00 00 00 
   390)     12123.5  Rx     18EFCD1C  8  A0 00 00 00 00 00 00 00 
   391)     12263.5  Rx     18EFCD1C  8  A0 00 14 00 00 00 00 00 
   392)     12283.5  Rx     18EFCD1C  8  A0 00 2A 00 00 00 00 00 
   393)     12303.5  Rx     18EFCD1C  8  A0 00 1B 00 00 00 00 00 
   394)     12323.5  Rx     18EFCD1C  8  A0 00 00 00 00 00 00 00 
   395)     12465.2  Rx     18FEF31C  8  B4 28 80 99 9A D0 2C 89 
   396)     12465.8  Rx     18FEE81C  8  FD 38 07 00 00 00 2F 51 
   397)     12466.3  Rx     18FEE61C  8  C9 26 0C 09 57 29 00 00 
   398)     12466.9  Rx     19F0101C  8  97 00 EE 50 68 64 23 1B 
   399)     12467.5  Rx     19F8021C  8  97 FC B5 4D 00 00 FF FF 
   400)     12468.1  Rx     18EFCD1C  8  A0 00 14 00 00 00 00 00 
   401)     12468.6  Rx     18EFCD1C  4  01 7F 1B 00 
   402)     12471.5  Rx     19F8051C  8  80 2F 97 EE 50 68 64 23 
   403)     12472.0  Rx     19F8051C  8  81 1B 80 DA BF 8D B9 A6 
   404)     12472.6  Rx     19F8051C  8  82 98 06 80 E7 92 DA 66 
   405)     12473.2  Rx     19F8051C  8  83 92 CB 02 D9 8D 47 08 
   406)     12473.8  Rx     19F8051C  8  84 00 00 00 00 40 00 0D 
   407)     12474.4  Rx     19F8051C  8  85 5D 00 A3 00 FC 0F 00 
   408)     12475.0  Rx     19F8051C  8  86 00 01 AF 02 20 03 FF 
   409)     12483.5  Rx     18EFCD1C  8  A0 00 2A 00 00 00 00 00 
   410)     12503.5  Rx     18EFCD1C  8  A0 00 1B 00 00 00 00 00 
   411)     12523.5  Rx     18EFCD1C  8  A0 00 00 00 00 00 00 00 
   412)     12663.5  Rx     18EFCD1C  8  A0 00 14 00 00 00 00 00 
   413)     12683.5  Rx     18EFCD1C  8  A0 00 2A 00 00 00 00 00 
   414)     12703.5  Rx     18EFCD1C  8  A0 00 1B 00 00 00 00 00 
   415)     12723.5  Rx     18EFCD1C  8  A0 00 00 00 00 00 00 00 
   416)     12863.5  Rx     18EFCD1C  8  A0 00 14 00 00 00 00 00 
   417)     12883.5  Rx     18EFCD1C  8  A0 00 2A 00 00 00 00 00 
   418)     12903.5  Rx     18EFCD1C  8  A0 00 1B 00 00 00 00 00 
   419)     12923.5  Rx     18EFCD1C  8  A0 00 00 00 00 00 00 00 
   420)     13063.6  Rx     18EFCD1C  8  A0 00 14 00 00 00 00 00 
   421)     13083.5  Rx     18EFCD1C  8  A0 00 2A 00 00 00 00 00 
   422)     13103.5  Rx     18EFCD1C  8  A0 00 1B 00 00 00 00 00 
   423)     13123.5  Rx     18EFCD1C  8  A0 00 00 00 00 00 00 00 
   424)     13263.6  Rx     18EFCD1C  8  A0 00 14 00 00 00 00 00 
   425)     13283.6  Rx     18EFCD1C  8  A0 00 2A 00 00 00 00 00 
   426)     13303.6  Rx     18EFCD1C  8  A0 00 1B 00 00 00 00 00 
   427)     13323.6  Rx     18EFCD1C  8  A0 00 00 00 00 00 00 00 
   428)     13465.6  Rx     18FEF31C  8  B4 28 80 99 9A D0 2C 89 
   429)     13466.2  Rx     18FEE81C  8  FD 38 03 00 00 00 2F 51 
   430)     13466.8  Rx     18FEE61C  8  CD 26 0C 09 57 29 00 00 
   431)     13467.4  Rx     19F8021C  8  9C FC B5 4D 00 00 FF FF 
   432)     13468.0  Rx     18EFCD1C  8  A0 00 14 00 00 00 00 00 
   433)     13470.0  Rx     19F8051C  8  A0 2F 9C EE 50 78 8B 23 
   434)     13470.6  Rx     19F8051C  8  A1 1B 40 51 38 8E B9 A6 
   435)     13471.2  Rx     19F8051C  8  A2 98 06 80 D8 0E D7 66 
   436)     13471.7  Rx     19F8051C  8  A3 92 CB 02 72 99 47 08 
   437)     13472.4  Rx     19F8051C  8  A4 00 00 00 00 40 00 0D 
   438)     13473.0  Rx     19F8051C  8  A5 5D 00 A3 00 FC 0F 00 
   439)     13473.6  Rx     19F8051C  8  A6 00 01 AF 02 84 03 FF 
   440)     13483.5  Rx     18EFCD1C  8  A0 00 2A 00 00 00 00 00 
   441)     13503.5  Rx     18EFCD1C  8  A0 00 1B 00 00 00 00 00 
   442)     13523.5  Rx     18EFCD1C  8  A0 00 00 00 00 00 00 00 
   443)     13664.0  Rx     18EFCD1C  8  A0 00 14 00 00 00 00 00 
   444)     13684.4  Rx     18EFCD1C  8  A0 00 2A 00 00 00 00 00 
   445)     13703.5  Rx     18EFCD1C  8  A0 00 1B 00 00 00 00 00 
   446)     13723.5  Rx     18EFCD1C  8  A0 00 00 00 00 00 00 00 
   447)     13807.9  Rx     18EF8F1C  4  01 54 22 00 
   448)     13863.8  Rx     18EFCD1C  8  A0 00 14 00 00 00 00 00 
   449)     13884.5  Rx     18EFCD1C  8  A0 00 2A 00 00 00 00 00 
   450)     13903.4  Rx     18EFCD1C  8  A0 00 1B 00 00 00 00 00 
   451)     13923.5  Rx     18EFCD1C  8  A0 00 00 00 00 00 00 00 
   452)     14063.6  Rx     18EFCD1C  8  A0 00 14 00 00 00 00 00 
   453)     14084.1  Rx     18EFCD1C  8  A0 00 2A 00 00 00 00 00 
   454)     14104.6  Rx     18EFCD1C  8  A0 00 1B 00 00 00 00 00 
   455)     14123.5  Rx     18EFCD1C  8  A0 00 00 00 00 00 00 00 
   456)     14263.5  Rx     18EFCD1C  8  A0 00 14 00 00 00 00 00 
   457)     14283.5  Rx     18EFCD1C  8  A0 00 2A 00 00 00 00 00 
   458)     14304.4  Rx     18EFCD1C  8  A0 00 1B 00 00 00 00 00 
   459)     14324.7  Rx     18EFCD1C  8  A0 00 00 00 00 00 00 00 
   460)     14464.7  Rx     18FEF31C  8  B4 28 80 99 9A D0 2C 89 
   461)     14465.3  Rx     18FEE81C  8  FD 38 0B 00 00 00 2F 51 
   462)     14465.8  Rx     18FEE61C  8  D1 26 0C 09 57 29 00 00 
   463)     14466.4  Rx     19F8021C  8  A1 FC B5 4D 00 00 FF FF 
   464)     14467.1  Rx     18EFCD1C  8  A0 00 14 00 00 00 00 00 
   465)     14469.2  Rx     19F8051C  8  C0 2F A1 EE 50 88 B2 23 
   466)     14469.8  Rx     19F8051C  8  C1 1B C0 16 77 9B B9 A6 
   467)     14470.3  Rx     19F8051C  8  C2 98 06 E0 85 8C B0 66 
   468)     14470.9  Rx     19F8051C  8  C3 92 CB 02 43 66 47 08 
   469)     14471.5  Rx     19F8051C  8  C4 00 00 00 00 40 00 0D 
   470)     14472.1  Rx     19F8051C  8  C5 5D 00 A3 00 FC 0F 00 
   471)     14472.7  Rx     19F8051C  8  C6 00 01 AF 02 58 02 FF 
   472)     14483.6  Rx     18EFCD1C  8  A0 00 2A 00 00 00 00 00 
   473)     14484.0  Rx     18EFCD1C  4  01 80 1B 00 
   474)     14503.6  Rx     18EFCD1C  8  A0 00 1B 00 00 00 00 00 
   475)     14524.6  Rx     18EFCD1C  8  A0 00 00 00 00 00 00 00 
   476)     14663.6  Rx     18EFCD1C  8  A0 00 14 00 00 00 00 00 
   477)     14683.5  Rx     18EFCD1C  8  A0 00 2A 00 00 00 00 00 
   478)     14703.6  Rx     18EFCD1C  8  A0 00 1B 00 00 00 00 00 
   479)     14723.6  Rx     18EFCD1C  8  A0 00 00 00 00 00 00 00 
   480)     14863.6  Rx     18EFCD1C  8  A0 00 14 00 00 00 00 00 
   481)     14883.6  Rx     18EFCD1C  8  A0 00 2A 00 00 00 00 00 
   482)     14903.6  Rx     18EFCD1C  8  A0 00 1B 00 00 00 00 00 
   483)     14923.6  Rx     18EFCD1C  8  A0 00 00 00 00 00 00 00 
   484)     15063.6  Rx     18EFCD1C  8  A0 00 14 00 00 00 00 00 
   485)     15083.5  Rx     18EFCD1C  8  A0 00 2A 00 00 00 00 00 
   486)     15103.6  Rx     18EFCD1C  8  A0 00 1B 00 00 00 00 00 
   487)     15123.5  Rx     18EFCD1C  8  A0 00 00 00 00 00 00 00 
   488)     15263.5  Rx     18EFCD1C  8  A0 00 14 00 00 00 00 00 
   489)     15283.5  Rx     18EFCD1C  8  A0 00 2A 00 00 00 00 00 
   490)     15303.5  Rx     18EFCD1C  8  A0 00 1B 00 00 00 00 00 
   491)     15323.5  Rx     18EFCD1C  8  A0 00 00 00 00 00 00 00 
   492)     15464.7  Rx     18FEF31C  8  B4 28 80 99 9A D0 2C 89 
   493)     15465.3  Rx     18FEE81C  8  FD 38 14 00 00 00 2F 51 
   494)     15465.9  Rx     18FEE61C  8  D5 26 0C 09 57 29 00 00 
   495)     15466.5  Rx     19F8021C  8  A6 FC B5 4D 00 00 FF FF 
   496)     15467.1  Rx     18EFCD1C  8  A0 00 14 00 00 00 00 00 
   497)     15470.6  Rx     19F8051C  8  E0 2F A6 EE 50 98 D9 23 
   498)     15471.2  Rx     19F8051C  8  E1 1B C0 39 BE 86 B9 A6 
   499)     15471.7  Rx     19F8051C  8  E2 98 06 40 0E 74 B4 66 
   500)     15472.3  Rx     19F8051C  8  E3 92 CB 02 44 5A 47 08 
   501)     15472.9  Rx     19F8051C  8  E4 00 00 00 00 40 00 0D 
   502)     15473.5  Rx     19F8051C  8  E5 5D 00 A3 00 FC 0F 00 
   503)     15474.1  Rx     19F8051C  8  E6 00 01 AF 02 BC 02 FF 
   504)     15483.5  Rx     18EFCD1C  8  A0 00 2A 00 00 00 00 00 
   505)     15503.6  Rx     18EFCD1C  8  A0 00 1B 00 00 00 00 00 
   506)     15523.6  Rx     18EFCD1C  8  A0 00 00 00 00 00 00 00 
   507)     15663.5  Rx     18EFCD1C  8  A0 00 14 00 00 00 00 00 
   508)     15683.6  Rx     18EFCD1C  8  A0 00 2A 00 00 00 00 00 
   509)     15703.5  Rx     18EFCD1C  8  A0 00 1B 00 00 00 00 00 
   510)     15723.5  Rx     18EFCD1C  8  A0 00 00 00 00 00 00 00 
   511)     15863.5  Rx     18EFCD1C  8  A0 00 14 00 00 00 00 00 
   512)     15883.5  Rx     18EFCD1C  8  A0 00 2A 00 00 00 00 00 
   513)     15903.4  Rx     18EFCD1C  8  A0 00 1B 00 00 00 00 00 
   514)     15923.5  Rx     18EFCD1C  8  A0 00 00 00 00 00 00 00 
   515)     16010.3  Rx     18EF8F1C  4  01 55 22 00 
   516)     16063.4  Rx     18EFCD1C  8  A0 00 14 00 00 00 00 00 
   517)     16083.4  Rx     18EFCD1C  8  A0 00 2A 00 00 00 00 00 
   518)     16103.4  Rx     18EFCD1C  8  A0 00 1B 00 00 00 00 00 
   519)     16123.4  Rx     18EFCD1C  8  A0 00 00 00 00 00 00 00 
   520)     16264.4  Rx     18EFCD1C  8  A0 00 14 00 00 00 00 00 
   521)     16283.3  Rx     18EFCD1C  8  A0 00 2A 00 00 00 00 00 
   522)     16303.3  Rx     18EFCD1C  8  A0 00 1B 00 00 00 00 00 
   523)     16323.3  Rx     18EFCD1C  8  A0 00 00 00 00 00 00 00 
   524)     16465.1  Rx     18FEF31C  8  B4 28 80 99 9A D0 2C 89 
   525)     16465.7  Rx     18FEE81C  8  FD 38 03 00 00 00 2F 51 
   526)     16466.3  Rx     18FEE61C  8  D9 26 0C 09 57 29 00 00 
   527)     16466.9  Rx     19F8021C  8  AB FC B5 4D 00 00 FF FF 
   528)     16467.5  Rx     18EFCD1C  8  A0 00 14 00 00 00 00 00 
   529)     16469.5  Rx     19F8051C  8  00 2F AB EE 50 A8 00 24 
   530)     16470.1  Rx     19F8051C  8  01 1B 40 58 22 A0 B9 A6 
   531)     16470.6  Rx     19F8051C  8  02 98 06 40 85 20 C9 66 
   532)     16471.2  Rx     19F8051C  8  03 92 CB 02 26 5C 47 08 
   533)     16471.8  Rx     19F8051C  8  04 00 00 00 00 40 00 0D 
   534)     16472.4  Rx     19F8051C  8  05 5D 00 A3 00 FC 0F 00 
   535)     16473.0  Rx     19F8051C  8  06 00 01 AF 02 20 03 FF 
   536)     16484.5  Rx     18EFCD1C  8  A0 00 2A 00 00 00 00 00 
   537)     16484.9  Rx     18EFCD1C  4  01 81 1B 00 
   538)     16503.3  Rx     18EFCD1C  8  A0 00 1B 00 00 00 00 00 
   539)     16523.3  Rx     18EFCD1C  8  A0 00 00 00 00 00 00 00 
   540)     16663.4  Rx     18EFCD1C  8  A0 00 14 00 00 00 00 00 
   541)     16684.0  Rx     18EFCD1C  8  A0 00 2A 00 00 00 00 00 
   542)     16704.8  Rx     18EFCD1C  8  A0 00 1B 00 00 00 00 00 
   543)     16723.4  Rx     18EFCD1C  8  A0 00 00 00 00 00 00 00 
   544)     16863.4  Rx     18EFCD1C  8  A0 00 14 00 00 00 00 00 
   545)     16883.4  Rx     18EFCD1C  8  A0 00 2A 00 00 00 00 00 
   546)     16904.3  Rx     18EFCD1C  8  A0 00 1B 00 00 00 00 00 
   547)     16923.4  Rx     18EFCD1C  8  A0 00 00 00 00 00 00 00 
   548)     17063.4  Rx     18EFCD1C  8  A0 00 14 00 00 00 00 00 
   549)     17083.4  Rx     18EFCD1C  8  A0 00 2A 00 00 00 00 00 
   550)     17103.6  Rx     18EFCD1C  8  A0 00 1B 00 00 00 00 00 
   551)     17124.5  Rx     18EFCD1C  8  A0 00 00 00 00 00 00 00 
   552)     17263.4  Rx     18EFCD1C  8  A0 00 14 00 00 00 00 00 
   553)     17283.4  Rx     18EFCD1C  8  A0 00 2A 00 00 00 00 00 
   554)     17303.4  Rx     18EFCD1C  8  A0 00 1B 00 00 00 00 00 
   555)     17323.9  Rx     18EFCD1C  8  A0 00 00 00 00 00 00 00 
   556)     17465.0  Rx     18FEF31C  8  B3 28 80 99 9A D0 2C 89 
   557)     17465.6  Rx     18FEE81C  8  FD 38 09 00 00 00 2F 51 
   558)     17466.2  Rx     18FEE61C  8  DD 26 0C 09 57 29 00 00 
   559)     17466.8  Rx     19F0101C  8  B0 00 EE 50 B8 27 24 1B 
   560)     17467.4  Rx     19F8021C  8  B0 FC B5 4D 00 00 FF FF 
   561)     17468.0  Rx     18EFCD1C  8  A0 00 14 00 00 00 00 00 
   562)     17470.5  Rx     19F8051C  8  20 2F B0 EE 50 B8 27 24 
   563)     17471.1  Rx     19F8051C  8  21 1B 80 A0 4C 5C B9 A6 
   564)     17471.7  Rx     19F8051C  8  22 98 06 80 61 C1 D1 66 
   565)     17472.3  Rx     19F8051C  8  23 92 CB 02 64 99 47 08 
   566)     17472.9  Rx     19F8051C  8  24 00 00 00 00 40 00 0D 
   567)     17473.5  Rx     19F8051C  8  25 5D 00 A3 00 FC 0F 00 
   568)     17474.1  Rx     19F8051C  8  26 00 01 AF 02 F4 01 FF 
   569)     17483.4  Rx     18EFCD1C  8  A0 00 2A 00 00 00 00 00 
   570)     17503.4  Rx     18EFCD1C  8  A0 00 1B 00 00 00 00 00 
   571)     17523.4  Rx     18EFCD1C  8  A0 00 00 00 00 00 00 00 
   572)     17663.4  Rx     18EFCD1C  8  A0 00 14 00 00 00 00 00 
   573)     17683.4  Rx     18EFCD1C  8  A0 00 2A 00 00 00 00 00 
   574)     17703.4  Rx     18EFCD1C  8  A0 00 1B 00 00 00 00 00 
   575)     17723.4  Rx     18EFCD1C  8  A0 00 00 00 00 00 00 00 
   576)     17863.4  Rx     18EFCD1C  8  A0 00 14 00 00 00 00 00 
   577)     17883.5  Rx     18EFCD1C  8  A0 00 2A 00 00 00 00 00 
   578)     17903.4  Rx     18EFCD1C  8  A0 00 1B 00 00 00 00 00 
   579)     17923.5  Rx     18EFCD1C  8  A0 00 00 00 00 00 00 00 
   580)     18063.5  Rx     18EFCD1C  8  A0 00 14 00 00 00 00 00 
   581)     18083.4  Rx     18EFCD1C  8  A0 00 2A 00 00 00 00 00 
   582)     18103.4  Rx     18EFCD1C  8  A0 00 1B 00 00 00 00 00 
   583)     18123.4  Rx     18EFCD1C  8  A0 00 00 00 00 00 00 00 
   584)     18208.3  Rx     18EF8F1C  4  01 56 22 00 
   585)     18263.4  Rx     18EFCD1C  8  A0 00 14 00 00 00 00 00 
   586)     18283.4  Rx     18EFCD1C  8  A0 00 2A 00 00 00 00 00 
   587)     18303.4  Rx     18EFCD1C  8  A0 00 1B 00 00 00 00 00 
   588)     18323.4  Rx     18EFCD1C  8  A0 00 00 00 00 00 00 00 
   589)     18464.6  Rx     18FEF31C  8  B3 28 80 99 9A D0 2C 89 
   590)     18465.8  Rx     18FEE81C  8  FD 38 0E 00 00 00 2F 51 
   591)     18466.4  Rx     18FEE61C  8  E1 26 0C 09 57 29 00 00 
   592)     18467.0  Rx     19F8021C  8  B5 FC B5 4D 00 00 FF FF 
   593)     18467.6  Rx     18EFCD1C  8  A0 00 14 00 00 00 00 00 
   594)     18469.9  Rx     19F8051C  8  40 2F B5 EE 50 C8 4E 24 
   595)     18470.5  Rx     19F8051C  8  41 1B 80 70 18 56 B9 A6 
   596)     18471.1  Rx     19F8051C  8  42 98 06 00 70 9C BE 66 
   597)     18471.7  Rx     19F8051C  8  43 92 CB 02 01 8E 47 08 
   598)     18472.3  Rx     19F8051C  8  44 00 00 00 00 40 00 0D 
   599)     18472.9  Rx     19F8051C  8  45 5D 00 A3 00 FC 0F 00 
   600)     18473.5  Rx     19F8051C  8  46 00 01 AF 02 58 02 FF 
   601)     18483.4  Rx     18EFCD1C  8  A0 00 2A 00 00 00 00 00 
   602)     18503.4  Rx     18EFCD1C  8  A0 00 1B 00 00 00 00 00 
   603)     18503.9  Rx     18EFCD1C  4  01 82 1B 00 
   604)     18523.4  Rx     18EFCD1C  8  A0 00 00 00 00 00 00 00 
   605)     18663.4  Rx     18EFCD1C  8  A0 00 14 00 00 00 00 00 
   606)     18683.4  Rx     18EFCD1C  8  A0 00 2A 00 00 00 00 00 
   607)     18703.4  Rx     18EFCD1C  8  A0 00 1B 00 00 00 00 00 
   608)     18723.3  Rx     18EFCD1C  8  A0 00 00 00 00 00 00 00 
   609)     18865.0  Rx     18EFCD1C  8  A0 00 14 00 00 00 00 00 
   610)     18883.4  Rx     18EFCD1C  8  A0 00 2A 00 00 00 00 00 
   611)     18903.3  Rx     18EFCD1C  8  A0 00 1B 00 00 00 00 00 
   612)     18923.4  Rx     18EFCD1C  8  A0 00 00 00 00 00 00 00 
   613)     19064.4  Rx     18EFCD1C  8  A0 00 14 00 00 00 00 00 
   614)     19083.3  Rx     18EFCD1C  8  A0 00 2A 00 00 00 00 00 
   615)     19103.4  Rx     18EFCD1C  8  A0 00 1B 00 00 00 00 00 
   616)     19123.3  Rx     18EFCD1C  8  A0 00 00 00 00 00 00 00 
   617)     19263.4  Rx     18EFCD1C  8  A0 00 14 00 00 00 00 00 
   618)     19284.4  Rx     18EFCD1C  8  A0 00 2A 00 00 00 00 00 
   619)     19303.3  Rx     18EFCD1C  8  A0 00 1B 00 00 00 00 00 
   620)     19323.4  Rx     18EFCD1C  8  A0 00 00 00 00 00 00 00 
   621)     19464.5  Rx     18FEF31C  8  B3 28 80 99 9A D0 2C 89 
   622)     19465.1  Rx     18FEE81C  8  FD 38 08 00 00 00 2F 51 
   623)     19465.7  Rx     18FEE61C  8  E5 26 0C 09 57 29 00 00 
   624)     19466.3  Rx     19F8021C  8  BA FC B5 4D 00 00 FF FF 
   625)     19466.9  Rx     18EFCD1C  8  A0 00 14 00 00 00 00 00 
   626)     19469.0  Rx     19F8051C  8  60 2F BA EE 50 D8 75 24 
   627)     19469.6  Rx     19F8051C  8  61 1B 40 1B 82 4F B9 A6 
   628)     19470.2  Rx     19F8051C  8  62 98 06 20 5A B1 CE 66 
   629)     19470.7  Rx     19F8051C  8  63 92 CB 02 87 94 47 08 
   630)     19471.4  Rx     19F8051C  8  64 00 00 00 00 40 00 0D 
   631)     19471.9  Rx     19F8051C  8  65 5D 00 A3 00 FC 0F 00 
   632)     19472.5  Rx     19F8051C  8  66 00 01 AF 02 BC 02 FF 
   633)     19483.5  Rx     18EFCD1C  8  A0 00 2A 00 00 00 00 00 
   634)     19504.4  Rx     18EFCD1C  8  A0 00 1B 00 00 00 00 00 
   635)     19523.4  Rx     18EFCD1C  8  A0 00 00 00 00 00 00 00 
   636)     19663.4  Rx     18EFCD1C  8  A0 00 14 00 00 00 00 00 
   637)     19683.4  Rx     18EFCD1C  8  A0 00 2A 00 00 00 00 00 
   638)     19703.8  Rx     18EFCD1C  8  A0 00 1B 00 00 00 00 00 
   639)     19724.3  Rx     18EFCD1C  8  A0 00 00 00 00 00 00 00 
   640)     19863.3  Rx     18EFCD1C  8  A0 00 14 00 00 00 00 00 
   641)     19883.3  Rx     18EFCD1C  8  A0 00 2A 00 00 00 00 00 
   642)     19903.4  Rx     18EFCD1C  8  A0 00 1B 00 00 00 00 00 
   643)     19923.9  Rx     18EFCD1C  8  A0 00 00 00 00 00 00 00 
   644)     20063.4  Rx     18EFCD1C  8  A0 00 14 00 00 00 00 00 
   645)     20083.3  Rx     18EFCD1C  8  A0 00 2A 00 00 00 00 00 
   646)     20103.3  Rx     18EFCD1C  8  A0 00 1B 00 00 00 00 00 
   647)     20123.7  Rx     18EFCD1C  8  A0 00 00 00 00 00 00 00 
   648)     20263.3  Rx     18EFCD1C  8  A0 00 14 00 00 00 00 00 
   649)     20283.2  Rx     18EFCD1C  8  A0 00 2A 00 00 00 00 00 
   650)     20303.3  Rx     18EFCD1C  8  A0 00 1B 00 00 00 00 00 
   651)     20323.2  Rx     18EFCD1C  8  A0 00 00 00 00 00 00 00 
   652)     20407.5  Rx     18EF8F1C  4  01 57 22 00 
   653)     20464.4  Rx     18FEF31C  8  B3 28 80 99 9A D0 2C 89 
   654)     20465.0  Rx     18FEE81C  8  FD 38 04 00 00 00 2F 51 
   655)     20465.6  Rx     18FEE61C  8  E9 26 0C 09 57 29 00 00 
   656)     20466.2  Rx     19F8021C  8  BF FC B5 4D 00 00 FF FF 
   657)     20466.8  Rx     18EFCD1C  8  A0 00 14 00 00 00 00 00 
   658)     20470.4  Rx     19F8051C  8  80 2F BF EE 50 E8 9C 24 
   659)     20471.0  Rx     19F8051C  8  81 1B 40 15 8A 59 B9 A6 
   660)     20471.5  Rx     19F8051C  8  82 98 06 E0 0B 34 DE 66 
   661)     20472.1  Rx     19F8051C  8  83 92 CB 02 B9 BE 47 08 
   662)     20472.7  Rx     19F8051C  8  84 00 00 00 00 40 00 0D 
   663)     20473.3  Rx     19F8051C  8  85 5D 00 A3 00 FC 0F 00 
   664)     20473.9  Rx     19F8051C  8  86 00 01 AF 02 20 03 FF 
   665)     20483.2  Rx     18EFCD1C  8  A0 00 2A 00 00 00 00 00 
   666)     20503.3  Rx     18EFCD1C  8  A0 00 1B 00 00 00 00 00 
   667)     20523.3  Rx     18EFCD1C  8  A0 00 00 00 00 00 00 00 
   668)     20523.7  Rx     18EFCD1C  4  01 83 1B 00 
   669)     20663.3  Rx     18EFCD1C  8  A0 00 14 00 00 00 00 00 
   670)     20683.3  Rx     18EFCD1C  8  A0 00 2A 00 00 00 00 00 
   671)     20703.3  Rx     18EFCD1C  8  A0 00 1B 00 00 00 00 00 
   672)     20723.3  Rx     18EFCD1C  8  A0 00 00 00 00 00 00 00 
   673)     20863.3  Rx     18EFCD1C  8  A0 00 14 00 00 00 00 00 
   674)     20883.3  Rx     18EFCD1C  8  A0 00 2A 00 00 00 00 00 
   675)     20903.3  Rx     18EFCD1C  8  A0 00 1B 00 00 00 00 00 
   676)     20923.3  Rx     18EFCD1C  8  A0 00 00 00 00 00 00 00 
   677)     21063.3  Rx     18EFCD1C  8  A0 00 14 00 00 00 00 00 
   678)     21083.2  Rx     18EFCD1C  8  A0 00 2A 00 00 00 00 00 
   679)     21103.3  Rx     18EFCD1C  8  A0 00 1B 00 00 00 00 00 
   680)     21123.3  Rx     18EFCD1C  8  A0 00 00 00 00 00 00 00 
   681)     21263.2  Rx     18EFCD1C  8  A0 00 14 00 00 00 00 00 
   682)     21283.2  Rx     18EFCD1C  8  A0 00 2A 00 00 00 00 00 
   683)     21303.2  Rx     18EFCD1C  8  A0 00 1B 00 00 00 00 00 
   684)     21323.2  Rx     18EFCD1C  8  A0 00 00 00 00 00 00 00 
   685)     21465.6  Rx     18FEF31C  8  B3 28 80 99 9A D0 2C 89 
   686)     21466.2  Rx     18FEE81C  8  FD 38 0A 00 00 00 2F 51 
   687)     21466.8  Rx     18FEE61C  8  ED 26 0C 09 57 29 00 00 
   688)     21467.4  Rx     19F8021C  8  C4 FC B5 4D 00 00 FF FF 
   689)     21468.0  Rx     18EFCD1C  8  A0 00 14 00 00 00 00 00 
   690)     21469.9  Rx     19F8051C  8  A0 2F C4 EE 50 F8 C3 24 
   691)     21470.5  Rx     19F8051C  8  A1 1B 80 72 83 42 B9 A6 
   692)     21471.1  Rx     19F8051C  8  A2 98 06 80 02 4D AC 66 
   693)     21471.7  Rx     19F8051C  8  A3 92 CB 02 DE A7 47 08 
   694)     21472.3  Rx     19F8051C  8  A4 00 00 00 00 40 00 0D 
   695)     21472.9  Rx     19F8051C  8  A5 5D 00 A3 00 FC 0F 00 
   696)     21473.5  Rx     19F8051C  8  A6 00 01 AF 02 F4 01 FF 
   697)     21483.2  Rx     18EFCD1C  8  A0 00 2A 00 00 00 00 00 
   698)     21503.2  Rx     18EFCD1C  8  A0 00 1B 00 00 00 00 00 
   699)     21523.1  Rx     18EFCD1C  8  A0 00 00 00 00 00 00 00 
   700)     21664.7  Rx     18EFCD1C  8  A0 00 14 00 00 00 00 00 
   701)     21683.2  Rx     18EFCD1C  8  A0 00 2A 00 00 00 00 00 
   702)     21703.2  Rx     18EFCD1C  8  A0 00 1B 00 00 00 00 00 
   703)     21723.2  Rx     18EFCD1C  8  A0 00 00 00 00 00 00 00 
   704)     21863.7  Rx     18EFCD1C  8  A0 00 14 00 00 00 00 00 
   705)     21884.7  Rx     18EFCD1C  8  A0 00 2A 00 00 00 00 00 
   706)     21903.2  Rx     18EFCD1C  8  A0 00 1B 00 00 00 00 00 
   707)     21923.2  Rx     18EFCD1C  8  A0 00 00 00 00 00 00 00 
   708)     22063.2  Rx     18EFCD1C  8  A0 00 14 00 00 00 00 00 
   709)     22083.9  Rx     18EFCD1C  8  A0 00 2A 00 00 00 00 00 
   710)     22104.7  Rx     18EFCD1C  8  A0 00 1B 00 00 00 00 00 
   711)     22123.2  Rx     18EFCD1C  8  A0 00 00 00 00 00 00 00 
   712)     22263.3  Rx     18EFCD1C  8  A0 00 14 00 00 00 00 00 
   713)     22283.3  Rx     18EFCD1C  8  A0 00 2A 00 00 00 00 00 
   714)     22304.2  Rx     18EFCD1C  8  A0 00 1B 00 00 00 00 00 
   715)     22323.3  Rx     18EFCD1C  8  A0 00 00 00 00 00 00 00 
   716)     22464.8  Rx     18FEF31C  8  B3 28 80 99 99 D0 2C 89 
   717)     22465.4  Rx     18FEE81C  8  FD 38 0A 00 00 00 2F 51 
   718)     22466.0  Rx     18FEE61C  8  01 27 0C 09 57 29 00 00 
   719)     22466.6  Rx     19F0101C  8  C9 00 EE 50 08 EB 24 1B 
   720)     22467.2  Rx     19F8021C  8  C9 FC B5 4D 00 00 FF FF 
   721)     22467.8  Rx     18EFCD1C  8  A0 00 14 00 00 00 00 00 
   722)     22469.5  Rx     19F8051C  8  C0 2F C9 EE 50 08 EB 24 
   723)     22470.1  Rx     19F8051C  8  C1 1B 00 FC 29 67 B9 A6 
   724)     22470.7  Rx     19F8051C  8  C2 98 06 00 F8 93 AA 66 
   725)     22471.3  Rx     19F8051C  8  C3 92 CB 02 5F A0 47 08 
   726)     22471.9  Rx     19F8051C  8  C4 00 00 00 00 40 00 0D 
   727)     22472.5  Rx     19F8051C  8  C5 5D 00 A3 00 FC 0F 00 
   728)     22473.1  Rx     19F8051C  8  C6 00 01 AF 02 58 02 FF 
   729)     22483.3  Rx     18EFCD1C  8  A0 00 2A 00 00 00 00 00 
   730)     22503.5  Rx     18EFCD1C  8  A0 00 1B 00 00 00 00 00 
   731)     22524.4  Rx     18EFCD1C  8  A0 00 00 00 00 00 00 00 
   732)     22524.8  Rx     18EFCD1C  4  01 84 1B 00 
   733)     22609.1  Rx     18EF8F1C  4  01 58 22 00 
   734)     22663.2  Rx     18EFCD1C  8  A0 00 14 00 00 00 00 00 
   735)     22683.2  Rx     18EFCD1C  8  A0 00 2A 00 00 00 00 00 
   736)     22703.2  Rx     18EFCD1C  8  A0 00 1B 00 00 00 00 00 
   737)     22723.7  Rx     18EFCD1C  8  A0 00 00 00 00 00 00 00 
   738)     22863.3  Rx     18EFCD1C  8  A0 00 14 00 00 00 00 00 
   739)     22883.2  Rx     18EFCD1C  8  A0 00 2A 00 00 00 00 00 
   740)     22903.2  Rx     18EFCD1C  8  A0 00 1B 00 00 00 00 00 
   741)     22923.2  Rx     18EFCD1C  8  A0 00 00 00 00 00 00 00 
   742)     23063.3  Rx     18EFCD1C  8  A0 00 14 00 00 00 00 00 
   743)     23083.3  Rx     18EFCD1C  8  A0 00 2A 00 00 00 00 00 
   744)     23103.2  Rx     18EFCD1C  8  A0 00 1B 00 00 00 00 00 
   745)     23123.2  Rx     18EFCD1C  8  A0 00 00 00 00 00 00 00 
   746)     23263.3  Rx     18EFCD1C  8  A0 00 14 00 00 00 00 00 
   747)     23283.3  Rx     18EFCD1C  8  A0 00 2A 00 00 00 00 00 
   748)     23303.3  Rx     18EFCD1C  8  A0 00 1B 00 00 00 00 00 
   749)     23323.3  Rx     18EFCD1C  8  A0 00 00 00 00 00 00 00 
   750)     23464.5  Rx     18FEF31C  8  B3 28 80 99 99 D0 2C 89 
   751)     23465.1  Rx     18FEE81C  8  FD 38 09 00 00 00 2F 51 
   752)     23465.7  Rx     18FEE61C  8  05 27 0C 09 57 29 00 00 
   753)     23466.3  Rx     19F8021C  8  CE FC B5 4D 00 00 FF FF 
   754)     23466.9  Rx     18EFCD1C  8  A0 00 14 00 00 00 00 00 
   755)     23469.9  Rx     19F8051C  8  E0 2F CE EE 50 18 12 25 
   756)     23470.5  Rx     19F8051C  8  E1 1B 80 37 CC 65 B9 A6 
   757)     23471.1  Rx     19F8051C  8  E2 98 06 00 87 3E A6 66 
   758)     23471.6  Rx     19F8051C  8  E3 92 CB 02 FB C0 47 08 
   759)     23472.3  Rx     19F8051C  8  E4 00 00 00 00 40 00 0D 
   760)     23472.8  Rx     19F8051C  8  E5 5D 00 A3 00 FC 0F 00 
   761)     23473.4  Rx     19F8051C  8  E6 00 01 AF 02 BC 02 FF 
   762)     23483.3  Rx     18EFCD1C  8  A0 00 2A 00 00 00 00 00 
   763)     23503.3  Rx     18EFCD1C  8  A0 00 1B 00 00 00 00 00 
   764)     23523.3  Rx     18EFCD1C  8  A0 00 00 00 00 00 00 00 
   765)     23663.4  Rx     18EFCD1C  8  A0 00 14 00 00 00 00 00 
   766)     23683.4  Rx     18EFCD1C  8  A0 00 2A 00 00 00 00 00 
   767)     23703.4  Rx     18EFCD1C  8  A0 00 1B 00 00 00 00 00 
   768)     23723.4  Rx     18EFCD1C  8  A0 00 00 00 00 00 00 00 
   769)     23863.4  Rx     18EFCD1C  8  A0 00 14 00 00 00 00 00 
   770)     23883.4  Rx     18EFCD1C  8  A0 00 2A 00 00 00 00 00 
   771)     23903.4  Rx     18EFCD1C  8  A0 00 1B 00 00 00 00 00 
   772)     23923.4  Rx     18EFCD1C  8  A0 00 00 00 00 00 00 00 
   773)     24063.5  Rx     18EFCD1C  8  A0 00 14 00 00 00 00 00 
   774)     24083.4  Rx     18EFCD1C  8  A0 00 2A 00 00 00 00 00 
   775)     24103.4  Rx     18EFCD1C  8  A0 00 1B 00 00 00 00 00 
   776)     24123.4  Rx     18EFCD1C  8  A0 00 00 00 00 00 00 00 
   777)     24263.4  Rx     18EFCD1C  8  A0 00 14 00 00 00 00 00 
   778)     24283.4  Rx     18EFCD1C  8  A0 00 2A 00 00 00 00 00 
   779)     24303.4  Rx     18EFCD1C  8  A0 00 1B 00 00 00 00 00 
   780)     24323.4  Rx     18EFCD1C  8  A0 00 00 00 00 00 00 00 
   781)     24466.0  Rx     18FEF31C  8  B3 28 80 99 9A D0 2C 89 
   782)     24466.6  Rx     18FEE81C  8  FD 38 0E 00 00 00 30 51 
   783)     24467.2  Rx     18FEE61C  8  09 27 0C 09 57 29 00 00 
   784)     24467.8  Rx     19F8021C  8  D3 FC B5 4D 00 00 FF FF 
   785)     24468.4  Rx     18EFCD1C  8  A0 00 14 00 00 00 00 00 
   786)     24470.4  Rx     19F8051C  8  00 2F D3 EE 50 28 39 25 
   787)     24470.9  Rx     19F8051C  8  01 1B C0 2E D5 5B B9 A6 
   788)     24471.5  Rx     19F8051C  8  02 98 06 C0 1A D5 B6 66 
   789)     24472.1  Rx     19F8051C  8  03 92 CB 02 72 D7 47 08 
   790)     24472.7  Rx     19F8051C  8  04 00 00 00 00 40 00 0D 
   791)     24473.3  Rx     19F8051C  8  05 5D 00 A3 00 FC 0F 00 
   792)     24473.9  Rx     19F8051C  8  06 00 01 AF 02 20 03 FF 
   793)     24483.4  Rx     18EFCD1C  8  A0 00 2A 00 00 00 00 00 
   794)     24503.4  Rx     18EFCD1C  8  A0 00 1B 00 00 00 00 00 
   795)     24523.4  Rx     18EFCD1C  8  A0 00 00 00 00 00 00 00 
   796)     24543.3  Rx     18EFCD1C  4  01 85 1B 00 
   797)     24663.8  Rx     18EFCD1C  8  A0 00 14 00 00 00 00 00 
   798)     24685.1  Rx     18EFCD1C  8  A0 00 2A 00 00 00 00 00 
   799)     24703.4  Rx     18EFCD1C  8  A0 00 1B 00 00 00 00 00 
   800)     24723.5  Rx     18EFCD1C  8  A0 00 00 00 00 00 00 00 
   801)     24806.5  Rx     18EF8F1C  4  01 59 22 00 
   802)     24863.5  Rx     18EFCD1C  8  A0 00 14 00 00 00 00 00 
   803)     24884.0  Rx     18EFCD1C  8  A0 00 2A 00 00 00 00 00 
   804)     24913.2  Rx     18EFCD1C  8  A0 00 1B 00 00 00 00 00 
   805)     24923.5  Rx     18EFCD1C  8  A0 00 00 00 00 00 00 00 
   806)     25063.5  Rx     18EFCD1C  8  A0 00 14 00 00 00 00 00 
   807)     25083.4  Rx     18EFCD1C  8  A0 00 2A 00 00 00 00 00 
   808)     25104.1  Rx     18EFCD1C  8  A0 00 1B 00 00 00 00 00 
   809)     25125.0  Rx     18EFCD1C  8  A0 00 00 00 00 00 00 00 
   810)     25263.4  Rx     18EFCD1C  8  A0 00 14 00 00 00 00 00 
   811)     25283.4  Rx     18EFCD1C  8  A0 00 2A 00 00 00 00 00 
   812)     25303.4  Rx     18EFCD1C  8  A0 00 1B 00 00 00 00 00 
   813)     25324.4  Rx     18EFCD1C  8  A0 00 00 00 00 00 00 00 
   814)     25464.5  Rx     18FEF31C  8  B3 28 80 99 9A D0 2C 89 
   815)     25465.1  Rx     18FEE81C  8  FD 38 10 00 00 00 2F 51 
   816)     25465.7  Rx     18FEE61C  8  0D 27 0C 09 57 29 00 00 
   817)     25466.3  Rx     19F8021C  8  D8 FC B5 4D 00 00 FF FF 
   818)     25466.9  Rx     18EFCD1C  8  A0 00 14 00 00 00 00 00 
   819)     25469.0  Rx     19F8051C  8  20 2F D8 EE 50 38 60 25 
   820)     25470.9  Rx     19F8051C  8  21 1B C0 53 0C 6B B9 A6 
   821)     25471.5  Rx     19F8051C  8  22 98 06 80 41 26 C3 66 
   822)     25472.1  Rx     19F8051C  8  23 92 CB 02 E5 C4 47 08 
   823)     25472.7  Rx     19F8051C  8  24 00 00 00 00 40 00 0D 
   824)     25473.3  Rx     19F8051C  8  25 5D 00 A3 00 FC 0F 00 
   825)     25473.9  Rx     19F8051C  8  26 00 01 AF 02 F4 01 FF 
   826)     25483.4  Rx     18EFCD1C  8  A0 00 2A 00 00 00 00 00 
   827)     25503.4  Rx     18EFCD1C  8  A0 00 1B 00 00 00 00 00 
   828)     25523.4  Rx     18EFCD1C  8  A0 00 00 00 00 00 00 00 
   829)     25663.5  Rx     18EFCD1C  8  A0 00 14 00 00 00 00 00 
   830)     25683.4  Rx     18EFCD1C  8  A0 00 2A 00 00 00 00 00 
   831)     25703.5  Rx     18EFCD1C  8  A0 00 1B 00 00 00 00 00 
   832)     25723.5  Rx     18EFCD1C  8  A0 00 00 00 00 00 00 00 
   833)     25863.5  Rx     18EFCD1C  8  A0 00 14 00 00 00 00 00 
   834)     25883.4  Rx     18EFCD1C  8  A0 00 2A 00 00 00 00 00 
   835)     25903.5  Rx     18EFCD1C  8  A0 00 1B 00 00 00 00 00 
   836)     25923.5  Rx     18EFCD1C  8  A0 00 00 00 00 00 00 00 
   837)     26063.5  Rx     18EFCD1C  8  A0 00 14 00 00 00 00 00 
   838)     26083.4  Rx     18EFCD1C  8  A0 00 2A 00 00 00 00 00 
   839)     26103.4  Rx     18EFCD1C  8  A0 00 1B 00 00 00 00 00 
   840)     26123.4  Rx     18EFCD1C  8  A0 00 00 00 00 00 00 00 
   841)     26263.4  Rx     18EFCD1C  8  A0 00 14 00 00 00 00 00 
   842)     26283.4  Rx     18EFCD1C  8  A0 00 2A 00 00 00 00 00 
   843)     26303.4  Rx     18EFCD1C  8  A0 00 1B 00 00 00 00 00 
   844)     26323.4  Rx     18EFCD1C  8  A0 00 00 00 00 00 00 00 
   845)     26464.5  Rx     18FEF31C  8  B3 28 80 99 99 D0 2C 89 
   846)     26465.1  Rx     18FEE81C  8  FD 38 08 00 00 00 2F 51 
   847)     26465.7  Rx     18FEE61C  8  11 27 0C 09 57 29 00 00 
   848)     26466.3  Rx     19F8021C  8  DD FC B5 4D 00 00 FF FF 
   849)     26466.9  Rx     18EFCD1C  8  A0 00 14 00 00 00 00 00 
   850)     26470.1  Rx     19F8051C  8  40 2F DD EE 50 48 87 25 
   851)     26470.7  Rx     19F8051C  8  41 1B 40 21 20 65 B9 A6 
   852)     26471.3  Rx     19F8051C  8  42 98 06 00 2D 20 9F 66 
   853)     26471.9  Rx     19F8051C  8  43 92 CB 02 A5 B3 47 08 
   854)     26472.5  Rx     19F8051C  8  44 00 00 00 00 40 00 0D 
   855)     26473.1  Rx     19F8051C  8  45 5D 00 A3 00 FC 0F 00 
   856)     26473.7  Rx     19F8051C  8  46 00 01 AF 02 58 02 FF 
   857)     26483.3  Rx     18EFCD1C  8  A0 00 2A 00 00 00 00 00 
   858)     26503.3  Rx     18EFCD1C  8  A0 00 1B 00 00 00 00 00 
   859)     26523.4  Rx     18EFCD1C  8  A0 00 00 00 00 00 00 00 
   860)     26563.2  Rx     18EFCD1C  4  01 86 1B 00 
   861)     26663.3  Rx     18EFCD1C  8  A0 00 14 00 00 00 00 00 
   862)     26683.3  Rx     18EFCD1C  8  A0 00 2A 00 00 00 00 00 
   863)     26703.3  Rx     18EFCD1C  8  A0 00 1B 00 00 00 00 00 
   864)     26723.3  Rx     18EFCD1C  8  A0 00 00 00 00 00 00 00 
   865)     26808.2  Rx     18EF8F1C  4  01 5A 22 00 
   866)     26863.3  Rx     18EFCD1C  8  A0 00 14 00 00 00 00 00 
   867)     26883.3  Rx     18EFCD1C  8  A0 00 2A 00 00 00 00 00 
   868)     26903.3  Rx     18EFCD1C  8  A0 00 1B 00 00 00 00 00 
   869)     26923.3  Rx     18EFCD1C  8  A0 00 00 00 00 00 00 00 
   870)     27064.5  Rx     18EFCD1C  8  A0 00 14 00 00 00 00 00 
   871)     27083.4  Rx     18EFCD1C  8  A0 00 2A 00 00 00 00 00 
   872)     27103.3  Rx     18EFCD1C  8  A0 00 1B 00 00 00 00 00 
   873)     27123.4  Rx     18EFCD1C  8  A0 00 00 00 00 00 00 00 
   874)     27264.6  Rx     18EFCD1C  8  A0 00 14 00 00 00 00 00 
   875)     27284.5  Rx     18EFCD1C  8  A0 00 2A 00 00 00 00 00 
   876)     27303.4  Rx     18EFCD1C  8  A0 00 1B 00 00 00 00 00 
   877)     27323.4  Rx     18EFCD1C  8  A0 00 00 00 00 00 00 00 
   878)     27465.0  Rx     18FEF31C  8  B3 28 80 99 99 D0 2C 89 
   879)     27465.6  Rx     18FEE81C  8  FD 38 1E 00 00 00 2F 51 
   880)     27466.1  Rx     18FEE61C  8  15 27 0C 09 57 29 00 00 
   881)     27466.7  Rx     19F0101C  8  E2 00 EE 50 58 AE 25 1B 
   882)     27467.3  Rx     19F8021C  8  E2 FC B5 4D 00 00 FF FF 
   883)     27467.9  Rx     18EFCD1C  8  A0 00 14 00 00 00 00 00 
   884)     27469.6  Rx     19F8051C  8  60 2F E2 EE 50 58 AE 25 
   885)     27470.2  Rx     19F8051C  8  61 1B 80 94 C4 5D B9 A6 
   886)     27470.8  Rx     19F8051C  8  62 98 06 C0 D9 FC 8F 66 
   887)     27471.3  Rx     19F8051C  8  63 92 CB 02 21 A6 47 08 
   888)     27471.9  Rx     19F8051C  8  64 00 00 00 00 40 00 0D 
   889)     27472.5  Rx     19F8051C  8  65 5D 00 A3 00 FC 0F 00 
   890)     27473.1  Rx     19F8051C  8  66 00 01 AF 02 BC 02 FF 
   891)     27485.0  Rx     18EFCD1C  8  A0 00 2A 00 00 00 00 00 
   892)     27503.4  Rx     18EFCD1C  8  A0 00 1B 00 00 00 00 00 
   893)     27523.4  Rx     18EFCD1C  8  A0 00 00 00 00 00 00 00 
   894)     27663.4  Rx     18EFCD1C  8  A0 00 14 00 00 00 00 00 
   895)     27683.4  Rx     18EFCD1C  8  A0 00 2A 00 00 00 00 00 
   896)     27705.1  Rx     18EFCD1C  8  A0 00 1B 00 00 00 00 00 
   897)     27723.4  Rx     18EFCD1C  8  A0 00 00 00 00 00 00 00 
   898)     27863.5  Rx     18EFCD1C  8  A0 00 14 00 00 00 00 00 
   899)     27883.4  Rx     18EFCD1C  8  A0 00 2A 00 00 00 00 00 
   900)     27903.7  Rx     18EFCD1C  8  A0 00 1B 00 00 00 00 00 
   901)     27925.1  Rx     18EFCD1C  8  A0 00 00 00 00 00 00 00 
   902)     28063.5  Rx     18EFCD1C  8  A0 00 14 00 00 00 00 00 
   903)     28083.5  Rx     18EFCD1C  8  A0 00 2A 00 00 00 00 00 
   904)     28103.5  Rx     18EFCD1C  8  A0 00 1B 00 00 00 00 00 
   905)     28123.9  Rx     18EFCD1C  8  A0 00 00 00 00 00 00 00 
   906)     28263.5  Rx     18EFCD1C  8  A0 00 14 00 00 00 00 00 
   907)     28283.5  Rx     18EFCD1C  8  A0 00 2A 00 00 00 00 00 
   908)     28303.5  Rx     18EFCD1C  8  A0 00 1B 00 00 00 00 00 
   909)     28323.5  Rx     18EFCD1C  8  A0 00 00 00 00 00 00 00 
   910)     28464.7  Rx     18FEF31C  8  B3 28 80 99 99 D0 2C 89 
   911)     28465.3  Rx     18FEE81C  8  FD 38 03 00 00 00 2F 51 
   912)     28465.9  Rx     18FEE61C  8  19 27 0C 09 57 29 00 00 
   913)     28466.5  Rx     19F8021C  8  E7 FC B5 4D 00 00 FF FF 
   914)     28467.1  Rx     18EFCD1C  8  A0 00 14 00 00 00 00 00 
   915)     28470.2  Rx     19F8051C  8  80 2F E7 EE 50 68 D5 25 
   916)     28470.8  Rx     19F8051C  8  81 1B C0 61 59 61 B9 A6 
   917)     28471.4  Rx     19F8051C  8  82 98 06 C0 91 6D 9D 66 
   918)     28472.0  Rx     19F8051C  8  83 92 CB 02 11 A1 47 08 
   919)     28472.6  Rx     19F8051C  8  84 00 00 00 00 40 00 0D 
   920)     28473.2  Rx     19F8051C  8  85 5D 00 A3 00 FC 0F 00 
   921)     28473.8  Rx     19F8051C  8  86 00 01 AF 02 20 03 FF 
   922)     28483.6  Rx     18EFCD1C  8  A0 00 2A 00 00 00 00 00 
   923)     28503.6  Rx     18EFCD1C  8  A0 00 1B 00 00 00 00 00 
   924)     28523.6  Rx     18EFCD1C  8  A0 00 00 00 00 00 00 00 
