;$FILEVERSION=1.1
;$STARTTIME=46287.6106878357
;
;   Start time: 9/22/2026 14:39:23.429.0
;   Generated by PCAN-View v5.3.3.958
;
;   Message Number
;   |         Time Offset (ms)
;   |         |        Type
;   |         |        |        ID (hex)
;   |         |        |        |     Data Length
;   |         |        |        |     |   Data Bytes (hex) ...
;   |         |        |        |     |   |
;---+--   ----+----  --+--  ----+---  +  -+ -- -- -- -- -- -- --
     1)       117.2  Rx     18EFCD1C  8  A0 00 14 00 00 00 00 00 
     2)       137.1  Rx     18EFCD1C  8  A0 00 2A 00 00 00 00 00 
     3)       157.1  Rx     18EFCD1C  8  A0 00 1B 00 00 00 00 00 
     4)       177.1  Rx     18EFCD1C  8  A0 00 00 00 00 00 00 00 
     5)       317.1  Rx     18EFCD1C  8  A0 00 14 00 00 00 00 00 
     6)       337.2  Rx     18EFCD1C  8  A0 00 2A 00 00 00 00 00 
     7)       357.1  Rx     18EFCD1C  8  A0 00 1B 00 00 00 00 00 
     8)       377.1  Rx     18EFCD1C  8  A0 00 00 00 00 00 00 00 
     9)       518.2  Rx     18FEF31C  8  B4 28 80 99 99 D0 2C 89 
    10)       518.8  Rx     18FEE81C  8  FD 38 08 00 00 00 30 51 
    11)       519.4  Rx     18FEE61C  8  5D 27 0C 09 57 29 00 00 
    12)       520.0  Rx     19F8021C  8  41 FC B5 4D 00 00 FF FF 
    13)       520.6  Rx     18EFCD1C  8  A0 00 14 00 00 00 00 00 
    14)       523.9  Rx     19F8051C  8  A0 2F 41 EE 50 78 6D 28 
    15)       524.5  Rx     19F8051C  8  A1 1B 40 37 CA 84 B9 A6 
    16)       525.0  Rx     19F8051C  8  A2 98 06 E0 9F 59 A3 66 
    17)       525.6  Rx     19F8051C  8  A3 92 CB 02 04 E6 47 08 
    18)       526.2  Rx     19F8051C  8  A4 00 00 00 00 40 00 0D 
    19)       526.8  Rx     19F8051C  8  A5 5D 00 A3 00 FC 0F 00 
    20)       527.4  Rx     19F8051C  8  A6 00 01 AF 02 F4 01 FF 
    21)       537.1  Rx     18EFCD1C  8  A0 00 2A 00 00 00 00 00 
    22)       557.1  Rx     18EFCD1C  8  A0 00 1B 00 00 00 00 00 
    23)       577.1  Rx     18EFCD1C  8  A0 00 00 00 00 00 00 00 
    24)       717.1  Rx     18EFCD1C  8  A0 00 14 00 00 00 00 00 
    25)       737.1  Rx     18EFCD1C  8  A0 00 2A 00 00 00 00 00 
    26)       757.1  Rx     18EFCD1C  8  A0 00 1B 00 00 00 00 00 
    27)       777.1  Rx     18EFCD1C  8  A0 00 00 00 00 00 00 00 
    28)       917.0  Rx     18EFCD1C  8  A0 00 14 00 00 00 00 00 
    29)       937.0  Rx     18EFCD1C  8  A0 00 2A 00 00 00 00 00 
    30)       957.0  Rx     18EFCD1C  8  A0 00 1B 00 00 00 00 00 
    31)       977.0  Rx     18EFCD1C  8  A0 00 00 00 00 00 00 00 
    32)      1118.1  Rx     18EFCD1C  8  A0 00 14 00 00 00 00 00 
    33)      1137.1  Rx     18EFCD1C  8  A0 00 2A 00 00 00 00 00 
    34)      1157.1  Rx     18EFCD1C  8  A0 00 1B 00 00 00 00 00 
    35)      1177.1  Rx     18EFCD1C  8  A0 00 00 00 00 00 00 00 
    36)      1318.6  Rx     18EFCD1C  8  A0 00 14 00 00 00 00 00 
    37)      1337.1  Rx     18EFCD1C  8  A0 00 2A 00 00 00 00 00 
    38)      1357.1  Rx     18EFCD1C  8  A0 00 1B 00 00 00 00 00 
    39)      1377.1  Rx     18EFCD1C  8  A0 00 00 00 00 00 00 00 
    40)      1518.6  Rx     18FEF31C  8  B4 28 80 99 99 D0 2C 89 
    41)      1519.2  Rx     18FEE81C  8  FD 38 06 00 00 00 30 51 
    42)      1519.7  Rx     18FEE61C  8  61 27 0C 09 57 29 00 00 
    43)      1520.3  Rx     19F8021C  8  46 FC B5 4D 00 00 FF FF 
    44)      1520.9  Rx     18EFCD1C  8  A0 00 14 00 00 00 00 00 
    45)      1522.9  Rx     19F8051C  8  C0 2F 46 EE 50 88 94 28 
    46)      1523.5  Rx     19F8051C  8  C1 1B 80 D9 22 83 B9 A6 
    47)      1524.1  Rx     19F8051C  8  C2 98 06 E0 25 D9 97 66 
    48)      1524.7  Rx     19F8051C  8  C3 92 CB 02 45 D6 47 08 
    49)      1525.3  Rx     19F8051C  8  C4 00 00 00 00 40 00 0D 
    50)      1525.9  Rx     19F8051C  8  C5 5D 00 A3 00 FC 0F 00 
    51)      1526.5  Rx     19F8051C  8  C6 00 01 AF 02 58 02 FF 
    52)      1538.8  Rx     18EFCD1C  8  A0 00 2A 00 00 00 00 00 
    53)      1557.1  Rx     18EFCD1C  8  A0 00 1B 00 00 00 00 00 
    54)      1577.1  Rx     18EFCD1C  8  A0 00 00 00 00 00 00 00 
    55)      1661.0  Rx     18EF8F1C  4  01 63 22 00 
    56)      1717.1  Rx     18EFCD1C  8  A0 00 14 00 00 00 00 00 
    57)      1737.6  Rx     18EFCD1C  8  A0 00 2A 00 00 00 00 00 
    58)      1758.8  Rx     18EFCD1C  8  A0 00 1B 00 00 00 00 00 
    59)      1777.1  Rx     18EFCD1C  8  A0 00 00 00 00 00 00 00 
    60)      1817.0  Rx     18EFCD1C  4  01 90 1B 00 
    61)      1917.2  Rx     18EFCD1C  8  A0 00 14 00 00 00 00 00 
    62)      1937.2  Rx     18EFCD1C  8  A0 00 2A 00 00 00 00 00 
    63)      1957.8  Rx     18EFCD1C  8  A0 00 1B 00 00 00 00 00 
    64)      1978.7  Rx     18EFCD1C  8  A0 00 00 00 00 00 00 00 
    65)      2117.2  Rx     18EFCD1C  8  A0 00 14 00 00 00 00 00 
    66)      2137.1  Rx     18EFCD1C  8  A0 00 2A 00 00 00 00 00 
    67)      2157.2  Rx     18EFCD1C  8  A0 00 1B 00 00 00 00 00 
    68)      2178.0  Rx     18EFCD1C  8  A0 00 00 00 00 00 00 00 
    69)      2317.1  Rx     18EFCD1C  8  A0 00 14 00 00 00 00 00 
    70)      2337.1  Rx     18EFCD1C  8  A0 00 2A 00 00 00 00 00 
    71)      2357.1  Rx     18EFCD1C  8  A0 00 1B 00 00 00 00 00 
    72)      2377.2  Rx     18EFCD1C  8  A0 00 00 00 00 00 00 00 
    73)      2518.7  Rx     18FEF31C  8  B4 28 80 99 99 D0 2C 89 
    74)      2519.3  Rx     18FEE81C  8  FD 38 15 00 00 00 30 51 
    75)      2519.9  Rx     18FEE61C  8  65 27 0C 09 57 29 00 00 
    76)      2520.5  Rx     19F0101C  8  4B 00 EE 50 98 BB 28 1B 
    77)      2521.1  Rx     19F8021C  8  4B FC B5 4D 00 00 FF FF 
    78)      2521.7  Rx     18EFCD1C  8  A0 00 14 00 00 00 00 00 
    79)      2524.3  Rx     19F8051C  8  E0 2F 4B EE 50 98 BB 28 
    80)      2524.8  Rx     19F8051C  8  E1 1B C0 88 53 76 B9 A6 
    81)      2525.4  Rx     19F8051C  8  E2 98 06 E0 EA 87 8A 66 
    82)      2526.0  Rx     19F8051C  8  E3 92 CB 02 9C E1 47 08 
    83)      2526.6  Rx     19F8051C  8  E4 00 00 00 00 40 00 0D 
    84)      2527.2  Rx     19F8051C  8  E5 5D 00 A3 00 FC 0F 00 
    85)      2527.8  Rx     19F8051C  8  E6 00 01 AF 02 BC 02 FF 
    86)      2537.2  Rx     18EFCD1C  8  A0 00 2A 00 00 00 00 00 
    87)      2557.2  Rx     18EFCD1C  8  A0 00 1B 00 00 00 00 00 
    88)      2577.2  Rx     18EFCD1C  8  A0 00 00 00 00 00 00 00 
    89)      2717.2  Rx     18EFCD1C  8  A0 00 14 00 00 00 00 00 
    90)      2737.2  Rx     18EFCD1C  8  A0 00 2A 00 00 00 00 00 
    91)      2757.2  Rx     18EFCD1C  8  A0 00 1B 00 00 00 00 00 
    92)      2777.2  Rx     18EFCD1C  8  A0 00 00 00 00 00 00 00 
    93)      2917.2  Rx     18EFCD1C  8  A0 00 14 00 00 00 00 00 
    94)      2937.1  Rx     18EFCD1C  8  A0 00 2A 00 00 00 00 00 
    95)      2957.1  Rx     18EFCD1C  8  A0 00 1B 00 00 00 00 00 
    96)      2977.2  Rx     18EFCD1C  8  A0 00 00 00 00 00 00 00 
    97)      3117.2  Rx     18EFCD1C  8  A0 00 14 00 00 00 00 00 
    98)      3137.1  Rx     18EFCD1C  8  A0 00 2A 00 00 00 00 00 
    99)      3157.1  Rx     18EFCD1C  8  A0 00 1B 00 00 00 00 00 
   100)      3177.1  Rx     18EFCD1C  8  A0 00 00 00 00 00 00 00 
   101)      3317.2  Rx     18EFCD1C  8  A0 00 14 00 00 00 00 00 
   102)      3337.1  Rx     18EFCD1C  8  A0 00 2A 00 00 00 00 00 
   103)      3357.2  Rx     18EFCD1C  8  A0 00 1B 00 00 00 00 00 
   104)      3377.1  Rx     18EFCD1C  8  A0 00 00 00 00 00 00 00 
   105)      3519.8  Rx     18FEF31C  8  B4 28 80 99 99 D0 2C 89 
   106)      3520.4  Rx     18FEE81C  8  FD 38 09 00 00 00 2F 51 
   107)      3521.0  Rx     18FEE61C  8  69 27 0C 09 57 29 00 00 
   108)      3521.6  Rx     19F8021C  8  50 FC B5 4D 00 00 FF FF 
   109)      3522.2  Rx     18EFCD1C  8  A0 00 14 00 00 00 00 00 
   110)      3524.1  Rx     19F8051C  8  00 2F 50 EE 50 A8 E2 28 
   111)      3524.7  Rx     19F8051C  8  01 1B C0 6C 99 77 B9 A6 
   112)      3525.3  Rx     19F8051C  8  02 98 06 A0 5A 2D 8A 66 
   113)      3525.9  Rx     19F8051C  8  03 92 CB 02 9E CD 47 08 
   114)      3526.5  Rx     19F8051C  8  04 00 00 00 00 40 00 0D 
   115)      3527.1  Rx     19F8051C  8  05 5D 00 A3 00 FC 0F 00 
   116)      3527.7  Rx     19F8051C  8  06 00 01 AF 02 20 03 FF 
   117)      3537.2  Rx     18EFCD1C  8  A0 00 2A 00 00 00 00 00 
   118)      3557.2  Rx     18EFCD1C  8  A0 00 1B 00 00 00 00 00 
   119)      3577.2  Rx     18EFCD1C  8  A0 00 00 00 00 00 00 00 
   120)      3663.0  Rx     18EF8F1C  4  01 64 22 00 
   121)      3717.2  Rx     18EFCD1C  8  A0 00 14 00 00 00 00 00 
   122)      3737.2  Rx     18EFCD1C  8  A0 00 2A 00 00 00 00 00 
   123)      3757.2  Rx     18EFCD1C  8  A0 00 1B 00 00 00 00 00 
   124)      3777.2  Rx     18EFCD1C  8  A0 00 00 00 00 00 00 00 
   125)      3837.0  Rx     18EFCD1C  4  01 91 1B 00 
   126)      3918.3  Rx     18EFCD1C  8  A0 00 14 00 00 00 00 00 
   127)      3937.2  Rx     18EFCD1C  8  A0 00 2A 00 00 00 00 00 
   128)      3957.2  Rx     18EFCD1C  8  A0 00 1B 00 00 00 00 00 
   129)      3977.2  Rx     18EFCD1C  8  A0 00 00 00 00 00 00 00 
   130)      4118.3  Rx     18EFCD1C  8  A0 00 14 00 00 00 00 00 
   131)      4138.3  Rx     18EFCD1C  8  A0 00 2A 00 00 00 00 00 
   132)      4157.2  Rx     18EFCD1C  8  A0 00 1B 00 00 00 00 00 
   133)      4177.2  Rx     18EFCD1C  8  A0 00 00 00 00 00 00 00 
   134)      4317.2  Rx     18EFCD1C  8  A0 00 14 00 00 00 00 00 
   135)      4338.6  Rx     18EFCD1C  8  A0 00 2A 00 00 00 00 00 
   136)      4357.1  Rx     18EFCD1C  8  A0 00 1B 00 00 00 00 00 
   137)      4377.2  Rx     18EFCD1C  8  A0 00 00 00 00 00 00 00 
   138)      4518.3  Rx     18FEF31C  8  B4 28 80 99 98 D0 2C 89 
   139)      4518.9  Rx     18FEE81C  8  FD 38 05 00 00 00 2F 51 
   140)      4519.5  Rx     18FEE61C  8  6D 27 0C 09 57 29 00 00 
   141)      4520.1  Rx     19F8021C  8  55 FC B5 4D 00 00 FF FF 
   142)      4520.7  Rx     18EFCD1C  8  A0 00 14 00 00 00 00 00 
   143)      4522.8  Rx     19F8051C  8  20 2F 55 EE 50 B8 09 29 
   144)      4523.3  Rx     19F8051C  8  21 1B 00 94 69 78 B9 A6 
   145)      4523.9  Rx     19F8051C  8  22 98 06 60 DB 39 6D 66 
   146)      4524.5  Rx     19F8051C  8  23 92 CB 02 F6 C8 47 08 
   147)      4525.1  Rx     19F8051C  8  24 00 00 00 00 40 00 0D 
   148)      4525.7  Rx     19F8051C  8  25 5D 00 A3 00 FC 0F 00 
   149)      4526.3  Rx     19F8051C  8  26 00 01 AF 02 84 03 FF 
   150)      4537.2  Rx     18EFCD1C  8  A0 00 2A 00 00 00 00 00 
   151)      4558.6  Rx     18EFCD1C  8  A0 00 1B 00 00 00 00 00 
   152)      4577.1  Rx     18EFCD1C  8  A0 00 00 00 00 00 00 00 
   153)      4717.2  Rx     18EFCD1C  8  A0 00 14 00 00 00 00 00 
   154)      4737.1  Rx     18EFCD1C  8  A0 00 2A 00 00 00 00 00 
   155)      4757.2  Rx     18EFCD1C  8  A0 00 1B 00 00 00 00 00 
   156)      4778.6  Rx     18EFCD1C  8  A0 00 00 00 00 00 00 00 
   157)      4917.0  Rx     18EFCD1C  8  A0 00 14 00 00 00 00 00 
   158)      4937.0  Rx     18EFCD1C  8  A0 00 2A 00 00 00 00 00 
   159)      4957.0  Rx     18EFCD1C  8  A0 00 1B 00 00 00 00 00 
   160)      4977.4  Rx     18EFCD1C  8  A0 00 00 00 00 00 00 00 
   161)      5117.0  Rx     18EFCD1C  8  A0 00 14 00 00 00 00 00 
   162)      5137.0  Rx     18EFCD1C  8  A0 00 2A 00 00 00 00 00 
   163)      5157.0  Rx     18EFCD1C  8  A0 00 1B 00 00 00 00 00 
   164)      5177.0  Rx     18EFCD1C  8  A0 00 00 00 00 00 00 00 
   165)      5317.0  Rx     18EFCD1C  8  A0 00 14 00 00 00 00 00 
   166)      5337.0  Rx     18EFCD1C  8  A0 00 2A 00 00 00 00 00 
   167)      5357.0  Rx     18EFCD1C  8  A0 00 1B 00 00 00 00 00 
   168)      5377.0  Rx     18EFCD1C  8  A0 00 00 00 00 00 00 00 
   169)      5518.2  Rx     18FEF31C  8  B3 28 80 99 97 D0 2C 89 
   170)      5518.8  Rx     18FEE81C  8  FD 38 04 00 00 00 2F 51 
   171)      5519.4  Rx     18FEE61C  8  71 27 0C 09 57 29 00 00 
   172)      5520.0  Rx     19F8021C  8  5A FC B5 4D 00 00 FF FF 
   173)      5520.6  Rx     18EFCD1C  8  A0 00 14 00 00 00 00 00 
   174)      5523.8  Rx     19F8051C  8  40 2F 5A EE 50 C8 30 29 
   175)      5524.4  Rx     19F8051C  8  41 1B 00 BA 75 3B B9 A6 
   176)      5525.0  Rx     19F8051C  8  42 98 06 C0 88 69 2E 66 
   177)      5525.6  Rx     19F8051C  8  43 92 CB 02 04 66 47 08 
   178)      5526.2  Rx     19F8051C  8  44 00 00 00 00 40 00 0D 
   179)      5526.8  Rx     19F8051C  8  45 5D 00 A3 00 FC 0F 00 
   180)      5527.4  Rx     19F8051C  8  46 00 01 AF 02 58 02 FF 
   181)      5537.1  Rx     18EFCD1C  8  A0 00 2A 00 00 00 00 00 
   182)      5557.0  Rx     18EFCD1C  8  A0 00 1B 00 00 00 00 00 
   183)      5577.1  Rx     18EFCD1C  8  A0 00 00 00 00 00 00 00 
   184)      5717.0  Rx     18EFCD1C  8  A0 00 14 00 00 00 00 00 
   185)      5737.0  Rx     18EFCD1C  8  A0 00 2A 00 00 00 00 00 
   186)      5757.1  Rx     18EFCD1C  8  A0 00 1B 00 00 00 00 00 
   187)      5777.0  Rx     18EFCD1C  8  A0 00 00 00 00 00 00 00 
   188)      5837.3  Rx     18EFCD1C  4  01 92 1B 00 
   189)      5862.0  Rx     18EF8F1C  4  01 65 22 00 
   190)      5917.1  Rx     18EFCD1C  8  A0 00 14 00 00 00 00 00 
   191)      5937.1  Rx     18EFCD1C  8  A0 00 2A 00 00 00 00 00 
   192)      5957.1  Rx     18EFCD1C  8  A0 00 1B 00 00 00 00 00 
   193)      5977.1  Rx     18EFCD1C  8  A0 00 00 00 00 00 00 00 
   194)      6117.1  Rx     18EFCD1C  8  A0 00 14 00 00 00 00 00 
   195)      6137.1  Rx     18EFCD1C  8  A0 00 2A 00 00 00 00 00 
   196)      6157.1  Rx     18EFCD1C  8  A0 00 1B 00 00 00 00 00 
   197)      6177.1  Rx     18EFCD1C  8  A0 00 00 00 00 00 00 00 
   198)      6317.1  Rx     18EFCD1C  8  A0 00 14 00 00 00 00 00 
   199)      6337.1  Rx     18EFCD1C  8  A0 00 2A 00 00 00 00 00 
   200)      6357.1  Rx     18EFCD1C  8  A0 00 1B 00 00 00 00 00 
   201)      6377.1  Rx     18EFCD1C  8  A0 00 00 00 00 00 00 00 
   202)      6519.5  Rx     18FEF31C  8  B3 28 80 99 98 D0 2C 89 
   203)      6520.1  Rx     18FEE81C  8  FD 38 01 00 00 00 2F 51 
   204)      6520.7  Rx     18FEE61C  8  75 27 0C 09 57 29 00 00 
   205)      6521.3  Rx     19F8021C  8  5F FC B5 4D 00 00 FF FF 
   206)      6521.9  Rx     18EFCD1C  8  A0 00 14 00 00 00 00 00 
   207)      6523.8  Rx     19F8051C  8  60 2F 5F EE 50 D8 57 29 
   208)      6524.4  Rx     19F8051C  8  61 1B 00 02 E2 46 B9 A6 
   209)      6524.9  Rx     19F8051C  8  62 98 06 A0 62 F6 3B 66 
   210)      6525.5  Rx     19F8051C  8  63 92 CB 02 58 50 47 08 
   211)      6526.1  Rx     19F8051C  8  64 00 00 00 00 40 00 0D 
   212)      6526.7  Rx     19F8051C  8  65 5D 00 A3 00 FC 0F 00 
   213)      6527.3  Rx     19F8051C  8  66 00 01 AF 02 BC 02 FF 
   214)      6537.1  Rx     18EFCD1C  8  A0 00 2A 00 00 00 00 00 
   215)      6557.1  Rx     18EFCD1C  8  A0 00 1B 00 00 00 00 00 
   216)      6577.1  Rx     18EFCD1C  8  A0 00 00 00 00 00 00 00 
   217)      6718.0  Rx     18EFCD1C  8  A0 00 14 00 00 00 00 00 
   218)      6737.1  Rx     18EFCD1C  8  A0 00 2A 00 00 00 00 00 
   219)      6757.1  Rx     18EFCD1C  8  A0 00 1B 00 00 00 00 00 
   220)      6777.1  Rx     18EFCD1C  8  A0 00 00 00 00 00 00 00 
   221)      6917.7  Rx     18EFCD1C  8  A0 00 14 00 00 00 00 00 
   222)      6938.1  Rx     18EFCD1C  8  A0 00 2A 00 00 00 00 00 
   223)      6957.1  Rx     18EFCD1C  8  A0 00 1B 00 00 00 00 00 
   224)      6977.1  Rx     18EFCD1C  8  A0 00 00 00 00 00 00 00 
   225)      7117.1  Rx     18EFCD1C  8  A0 00 14 00 00 00 00 00 
   226)      7138.0  Rx     18EFCD1C  8  A0 00 2A 00 00 00 00 00 
   227)      7158.0  Rx     18EFCD1C  8  A0 00 1B 00 00 00 00 00 
   228)      7177.1  Rx     18EFCD1C  8  A0 00 00 00 00 00 00 00 
   229)      7317.1  Rx     18EFCD1C  8  A0 00 14 00 00 00 00 00 
   230)      7337.1  Rx     18EFCD1C  8  A0 00 2A 00 00 00 00 00 
   231)      7358.1  Rx     18EFCD1C  8  A0 00 1B 00 00 00 00 00 
   232)      7378.0  Rx     18EFCD1C  8  A0 00 00 00 00 00 00 00 
   233)      7518.6  Rx     18FEF31C  8  B3 28 80 99 97 D0 2C 89 
   234)      7519.2  Rx     18FEE81C  8  FD 38 05 00 00 00 2F 51 
   235)      7519.8  Rx     18FEE61C  8  79 27 0C 09 57 29 00 00 
   236)      7520.4  Rx     19F0101C  8  64 00 EE 50 E8 7E 29 1B 
   237)      7521.0  Rx     19F8021C  8  64 FC B5 4D 00 00 FF FF 
   238)      7521.6  Rx     18EFCD1C  8  A0 00 14 00 00 00 00 00 
   239)      7523.3  Rx     19F8051C  8  80 2F 64 EE 50 E8 7E 29 
   240)      7523.8  Rx     19F8051C  8  81 1B 40 1E 31 55 B9 A6 
   241)      7524.4  Rx     19F8051C  8  82 98 06 00 67 F1 22 66 
   242)      7525.0  Rx     19F8051C  8  83 92 CB 02 00 20 47 08 
   243)      7525.6  Rx     19F8051C  8  84 00 00 00 00 40 00 0D 
   244)      7526.2  Rx     19F8051C  8  85 5D 00 A3 00 FC 0F 00 
   245)      7526.8  Rx     19F8051C  8  86 00 01 AF 02 20 03 FF 
   246)      7537.1  Rx     18EFCD1C  8  A0 00 2A 00 00 00 00 00 
   247)      7557.1  Rx     18EFCD1C  8  A0 00 1B 00 00 00 00 00 
   248)      7578.6  Rx     18EFCD1C  8  A0 00 00 00 00 00 00 00 
   249)      7717.1  Rx     18EFCD1C  8  A0 00 14 00 00 00 00 00 
   250)      7737.2  Rx     18EFCD1C  8  A0 00 2A 00 00 00 00 00 
   251)      7757.1  Rx     18EFCD1C  8  A0 00 1B 00 00 00 00 00 
   252)      7777.3  Rx     18EFCD1C  8  A0 00 00 00 00 00 00 00 
   253)      7861.9  Rx     18EFCD1C  4  01 93 1B 00 
   254)      7917.3  Rx     18EFCD1C  8  A0 00 14 00 00 00 00 00 
   255)      7937.2  Rx     18EFCD1C  8  A0 00 2A 00 00 00 00 00 
   256)      7957.2  Rx     18EFCD1C  8  A0 00 1B 00 00 00 00 00 
   257)      7977.2  Rx     18EFCD1C  8  A0 00 00 00 00 00 00 00 
   258)      8064.2  Rx     18EF8F1C  4  01 66 22 00 
   259)      8117.2  Rx     18EFCD1C  8  A0 00 14 00 00 00 00 00 
   260)      8137.2  Rx     18EFCD1C  8  A0 00 2A 00 00 00 00 00 
   261)      8157.3  Rx     18EFCD1C  8  A0 00 1B 00 00 00 00 00 
   262)      8177.2  Rx     18EFCD1C  8  A0 00 00 00 00 00 00 00 
   263)      8317.3  Rx     18EFCD1C  8  A0 00 14 00 00 00 00 00 
   264)      8337.3  Rx     18EFCD1C  8  A0 00 2A 00 00 00 00 00 
   265)      8357.3  Rx     18EFCD1C  8  A0 00 1B 00 00 00 00 00 
   266)      8377.3  Rx     18EFCD1C  8  A0 00 00 00 00 00 00 00 
   267)      8518.4  Rx     18FEF31C  8  B3 28 80 99 98 D0 2C 89 
   268)      8519.0  Rx     18FEE81C  8  FD 38 0A 00 00 00 2F 51 
   269)      8519.6  Rx     18FEE61C  8  7D 27 0C 09 57 29 00 00 
   270)      8520.2  Rx     19F8021C  8  69 FC B5 4D 00 00 FF FF 
   271)      8520.8  Rx     18EFCD1C  8  A0 00 14 00 00 00 00 00 
   272)      8524.2  Rx     19F8051C  8  A0 2F 69 EE 50 F8 A5 29 
   273)      8524.8  Rx     19F8051C  8  A1 1B 40 62 71 4F B9 A6 
   274)      8525.4  Rx     19F8051C  8  A2 98 06 E0 EA 4F 37 66 
   275)      8525.9  Rx     19F8051C  8  A3 92 CB 02 3E 24 47 08 
   276)      8526.6  Rx     19F8051C  8  A4 00 00 00 00 40 00 0D 
   277)      8527.1  Rx     19F8051C  8  A5 5D 00 A3 00 FC 0F 00 
   278)      8527.8  Rx     19F8051C  8  A6 00 01 AF 02 84 03 FF 
   279)      8537.3  Rx     18EFCD1C  8  A0 00 2A 00 00 00 00 00 
   280)      8557.3  Rx     18EFCD1C  8  A0 00 1B 00 00 00 00 00 
   281)      8577.3  Rx     18EFCD1C  8  A0 00 00 00 00 00 00 00 
   282)      8717.3  Rx     18EFCD1C  8  A0 00 14 00 00 00 00 00 
   283)      8737.3  Rx     18EFCD1C  8  A0 00 2A 00 00 00 00 00 
   284)      8757.3  Rx     18EFCD1C  8  A0 00 1B 00 00 00 00 00 
   285)      8777.3  Rx     18EFCD1C  8  A0 00 00 00 00 00 00 00 
   286)      8917.4  Rx     18EFCD1C  8  A0 00 14 00 00 00 00 00 
   287)      8937.4  Rx     18EFCD1C  8  A0 00 2A 00 00 00 00 00 
   288)      8957.4  Rx     18EFCD1C  8  A0 00 1B 00 00 00 00 00 
   289)      8977.3  Rx     18EFCD1C  8  A0 00 00 00 00 00 00 00 
   290)      9117.5  Rx     18EFCD1C  8  A0 00 14 00 00 00 00 00 
   291)      9137.4  Rx     18EFCD1C  8  A0 00 2A 00 00 00 00 00 
   292)      9157.4  Rx     18EFCD1C  8  A0 00 1B 00 00 00 00 00 
   293)      9177.4  Rx     18EFCD1C  8  A0 00 00 00 00 00 00 00 
   294)      9318.4  Rx     18EFCD1C  8  A0 00 14 00 00 00 00 00 
   295)      9337.4  Rx     18EFCD1C  8  A0 00 2A 00 00 00 00 00 
   296)      9357.4  Rx     18EFCD1C  8  A0 00 1B 00 00 00 00 00 
   297)      9377.5  Rx     18EFCD1C  8  A0 00 00 00 00 00 00 00 
   298)      9519.4  Rx     18FEF31C  8  B3 28 80 99 97 D0 2C 89 
   299)      9520.0  Rx     18FEE81C  8  FD 38 0D 00 00 00 2F 51 
   300)      9520.5  Rx     18FEE61C  8  81 27 0C 09 57 29 00 00 
   301)      9521.1  Rx     19F8021C  8  6E FC B5 4D 00 00 FF FF 
   302)      9521.8  Rx     18EFCD1C  8  A0 00 14 00 00 00 00 00 
   303)      9523.8  Rx     19F8051C  8  C0 2F 6E EE 50 08 CD 29 
   304)      9524.3  Rx     19F8051C  8  C1 1B C0 D5 E6 53 B9 A6 
   305)      9524.9  Rx     19F8051C  8  C2 98 06 A0 57 F7 2A 66 
   306)      9525.5  Rx     19F8051C  8  C3 92 CB 02 42 62 47 08 
   307)      9526.1  Rx     19F8051C  8  C4 00 00 00 00 40 00 0D 
   308)      9526.7  Rx     19F8051C  8  C5 5D 00 A3 00 FC 0F 00 
   309)      9527.3  Rx     19F8051C  8  C6 00 01 AF 02 58 02 FF 
   310)      9538.4  Rx     18EFCD1C  8  A0 00 2A 00 00 00 00 00 
   311)      9557.4  Rx     18EFCD1C  8  A0 00 1B 00 00 00 00 00 
   312)      9577.4  Rx     18EFCD1C  8  A0 00 00 00 00 00 00 00 
   313)      9717.9  Rx     18EFCD1C  8  A0 00 14 00 00 00 00 00 
   314)      9738.5  Rx     18EFCD1C  8  A0 00 2A 00 00 00 00 00 
   315)      9757.4  Rx     18EFCD1C  8  A0 00 1B 00 00 00 00 00 
   316)      9777.4  Rx     18EFCD1C  8  A0 00 00 00 00 00 00 00 
   317)      9877.3  Rx     18EFCD1C  4  01 94 1B 00 
   318)      9917.5  Rx     18EFCD1C  8  A0 00 14 00 00 00 00 00 
   319)      9938.1  Rx     18EFCD1C  8  A0 00 2A 00 00 00 00 00 
   320)      9958.6  Rx     18EFCD1C  8  A0 00 1B 00 00 00 00 00 
   321)      9977.5  Rx     18EFCD1C  8  A0 00 00 00 00 00 00 00 
   322)     10117.5  Rx     18EFCD1C  8  A0 00 14 00 00 00 00 00 
   323)     10137.5  Rx     18EFCD1C  8  A0 00 2A 00 00 00 00 00 
   324)     10158.4  Rx     18EFCD1C  8  A0 00 1B 00 00 00 00 00 
   325)     10178.6  Rx     18EFCD1C  8  A0 00 00 00 00 00 00 00 
   326)     10263.0  Rx     18EF8F1C  4  01 67 22 00 
   327)     10317.5  Rx     18EFCD1C  8  A0 00 14 00 00 00 00 00 
   328)     10337.5  Rx     18EFCD1C  8  A0 00 2A 00 00 00 00 00 
   329)     10357.5  Rx     18EFCD1C  8  A0 00 1B 00 00 00 00 00 
   330)     10378.5  Rx     18EFCD1C  8  A0 00 00 00 00 00 00 00 
   331)     10518.5  Rx     18FEF31C  8  B3 28 80 99 98 D0 2C 89 
   332)     10519.1  Rx     18FEE81C  8  FD 38 06 00 00 00 2F 51 
   333)     10519.7  Rx     18FEE61C  8  85 27 0C 09 57 29 00 00 
   334)     10520.3  Rx     19F8021C  8  73 FC B5 4D 00 00 FF FF 
   335)     10520.9  Rx     18EFCD1C  8  A0 00 14 00 00 00 00 00 
   336)     10522.9  Rx     19F8051C  8  E0 2F 73 EE 50 18 F4 29 
   337)     10524.3  Rx     19F8051C  8  E1 1B 80 A1 BB 67 B9 A6 
   338)     10524.9  Rx     19F8051C  8  E2 98 06 A0 3B 52 43 66 
   339)     10525.4  Rx     19F8051C  8  E3 92 CB 02 62 61 47 08 
   340)     10526.1  Rx     19F8051C  8  E4 00 00 00 00 40 00 0D 
   341)     10526.6  Rx     19F8051C  8  E5 5D 00 A3 00 FC 0F 00 
   342)     10527.2  Rx     19F8051C  8  E6 00 01 AF 02 BC 02 FF 
   343)     10537.4  Rx     18EFCD1C  8  A0 00 2A 00 00 00 00 00 
   344)     10557.4  Rx     18EFCD1C  8  A0 00 1B 00 00 00 00 00 
   345)     10577.4  Rx     18EFCD1C  8  A0 00 00 00 00 00 00 00 
   346)     10717.3  Rx     18EFCD1C  8  A0 00 14 00 00 00 00 00 
   347)     10737.3  Rx     18EFCD1C  8  A0 00 2A 00 00 00 00 00 
   348)     10757.4  Rx     18EFCD1C  8  A0 00 1B 00 00 00 00 00 
   349)     10777.3  Rx     18EFCD1C  8  A0 00 00 00 00 00 00 00 
   350)     10917.4  Rx     18EFCD1C  8  A0 00 14 00 00 00 00 00 
   351)     10937.3  Rx     18EFCD1C  8  A0 00 2A 00 00 00 00 00 
   352)     10957.3  Rx     18EFCD1C  8  A0 00 1B 00 00 00 00 00 
   353)     10977.4  Rx     18EFCD1C  8  A0 00 00 00 00 00 00 00 
   354)     11117.4  Rx     18EFCD1C  8  A0 00 14 00 00 00 00 00 
   355)     11137.3  Rx     18EFCD1C  8  A0 00 2A 00 00 00 00 00 
   356)     11157.3  Rx     18EFCD1C  8  A0 00 1B 00 00 00 00 00 
   357)     11177.3  Rx     18EFCD1C  8  A0 00 00 00 00 00 00 00 
   358)     11317.3  Rx     18EFCD1C  8  A0 00 14 00 00 00 00 00 
   359)     11337.3  Rx     18EFCD1C  8  A0 00 2A 00 00 00 00 00 
   360)     11357.3  Rx     18EFCD1C  8  A0 00 1B 00 00 00 00 00 
   361)     11377.3  Rx     18EFCD1C  8  A0 00 00 00 00 00 00 00 
   362)     11518.4  Rx     18FEF31C  8  B3 28 80 99 98 D0 2C 89 
   363)     11519.0  Rx     18FEE81C  8  FD 38 03 00 00 00 2F 51 
   364)     11519.6  Rx     18FEE61C  8  89 27 0C 09 57 29 00 00 
   365)     11520.2  Rx     19F8021C  8  78 FC B5 4D 00 00 FF FF 
   366)     11520.8  Rx     18EFCD1C  8  A0 00 14 00 00 00 00 00 
   367)     11524.0  Rx     19F8051C  8  00 2F 78 EE 50 28 1B 2A 
   368)     11524.6  Rx     19F8051C  8  01 1B C0 53 96 66 B9 A6 
   369)     11525.1  Rx     19F8051C  8  02 98 06 20 06 EA 60 66 
   370)     11525.7  Rx     19F8051C  8  03 92 CB 02 1A 72 47 08 
   371)     11526.3  Rx     19F8051C  8  04 00 00 00 00 40 00 0D 
   372)     11526.9  Rx     19F8051C  8  05 5D 00 A3 00 FC 0F 00 
   373)     11527.5  Rx     19F8051C  8  06 00 01 AF 02 20 03 FF 
   374)     11537.2  Rx     18EFCD1C  8  A0 00 2A 00 00 00 00 00 
   375)     11557.2  Rx     18EFCD1C  8  A0 00 1B 00 00 00 00 00 
   376)     11577.2  Rx     18EFCD1C  8  A0 00 00 00 00 00 00 00 
   377)     11717.2  Rx     18EFCD1C  8  A0 00 14 00 00 00 00 00 
   378)     11737.2  Rx     18EFCD1C  8  A0 00 2A 00 00 00 00 00 
   379)     11757.2  Rx     18EFCD1C  8  A0 00 1B 00 00 00 00 00 
   380)     11777.2  Rx     18EFCD1C  8  A0 00 00 00 00 00 00 00 
   381)     11898.1  Rx     18EFCD1C  4  01 95 1B 00 
   382)     11917.1  Rx     18EFCD1C  8  A0 00 14 00 00 00 00 00 
   383)     11937.2  Rx     18EFCD1C  8  A0 00 2A 00 00 00 00 00 
   384)     11957.1  Rx     18EFCD1C  8  A0 00 1B 00 00 00 00 00 
   385)     11977.2  Rx     18EFCD1C  8  A0 00 00 00 00 00 00 00 
   386)     12118.3  Rx     18EFCD1C  8  A0 00 14 00 00 00 00 00 
   387)     12137.1  Rx     18EFCD1C  8  A0 00 2A 00 00 00 00 00 
   388)     12157.1  Rx     18EFCD1C  8  A0 00 1B 00 00 00 00 00 
   389)     12177.1  Rx     18EFCD1C  8  A0 00 00 00 00 00 00 00 
   390)     12317.6  Rx     18EFCD1C  8  A0 00 14 00 00 00 00 00 
   391)     12338.1  Rx     18EFCD1C  8  A0 00 2A 00 00 00 00 00 
   392)     12357.0  Rx     18EFCD1C  8  A0 00 1B 00 00 00 00 00 
   393)     12377.0  Rx     18EFCD1C  8  A0 00 00 00 00 00 00 00 
   394)     12460.9  Rx     18EF8F1C  4  01 68 22 00 
   395)     12518.8  Rx     18FEF31C  8  B4 28 80 99 9A D0 2C 89 
   396)     12519.4  Rx     18FEE81C  8  FD 38 02 00 00 00 30 51 
   397)     12519.9  Rx     18FEE61C  8  8D 27 0C 09 57 29 00 00 
   398)     12520.5  Rx     19F0101C  8  7D 00 EE 50 38 42 2A 1B 
   399)     12521.1  Rx     19F8021C  8  7D FC B5 4D 00 00 FF FF 
   400)     12521.7  Rx     18EFCD1C  8  A0 00 14 00 00 00 00 00 
   401)     12523.6  Rx     19F8051C  8  20 2F 7D EE 50 38 42 2A 
   402)     12524.2  Rx     19F8051C  8  21 1B 00 31 47 74 B9 A6 
   403)     12524.8  Rx     19F8051C  8  22 98 06 E0 80 9A B0 66 
   404)     12525.3  Rx     19F8051C  8  23 92 CB 02 51 D8 47 08 
   405)     12526.0  Rx     19F8051C  8  24 00 00 00 00 40 00 0D 
   406)     12526.6  Rx     19F8051C  8  25 5D 00 A3 00 FC 0F 00 
   407)     12527.2  Rx     19F8051C  8  26 00 01 AF 02 F4 01 FF 
   408)     12537.8  Rx     18EFCD1C  8  A0 00 2A 00 00 00 00 00 
   409)     12558.2  Rx     18EFCD1C  8  A0 00 1B 00 00 00 00 00 
   410)     12577.0  Rx     18EFCD1C  8  A0 00 00 00 00 00 00 00 
   411)     12717.0  Rx     18EFCD1C  8  A0 00 14 00 00 00 00 00 
   412)     12737.1  Rx     18EFCD1C  8  A0 00 2A 00 00 00 00 00 
   413)     12758.0  Rx     18EFCD1C  8  A0 00 1B 00 00 00 00 00 
   414)     12777.0  Rx     18EFCD1C  8  A0 00 00 00 00 00 00 00 
   415)     12916.9  Rx     18EFCD1C  8  A0 00 14 00 00 00 00 00 
   416)     12937.0  Rx     18EFCD1C  8  A0 00 2A 00 00 00 00 00 
   417)     12957.4  Rx     18EFCD1C  8  A0 00 1B 00 00 00 00 00 
   418)     12978.0  Rx     18EFCD1C  8  A0 00 00 00 00 00 00 00 
   419)     13117.0  Rx     18EFCD1C  8  A0 00 14 00 00 00 00 00 
   420)     13137.0  Rx     18EFCD1C  8  A0 00 2A 00 00 00 00 00 
   421)     13157.0  Rx     18EFCD1C  8  A0 00 1B 00 00 00 00 00 
   422)     13177.5  Rx     18EFCD1C  8  A0 00 00 00 00 00 00 00 
   423)     13317.0  Rx     18EFCD1C  8  A0 00 14 00 00 00 00 00 
   424)     13337.0  Rx     18EFCD1C  8  A0 00 2A 00 00 00 00 00 
   425)     13357.0  Rx     18EFCD1C  8  A0 00 1B 00 00 00 00 00 
   426)     13377.0  Rx     18EFCD1C  8  A0 00 00 00 00 00 00 00 
   427)     13518.1  Rx     18FEF31C  8  B4 28 80 99 99 D0 2C 89 
   428)     13518.7  Rx     18FEE81C  8  FD 38 1C 00 00 00 2F 51 
   429)     13519.3  Rx     18FEE61C  8  91 27 0C 09 57 29 00 00 
   430)     13519.9  Rx     19F8021C  8  82 FC B5 4D 00 00 FF FF 
   431)     13520.5  Rx     18EFCD1C  8  A0 00 14 00 00 00 00 00 
   432)     13524.0  Rx     19F8051C  8  40 2F 82 EE 50 48 69 2A 
   433)     13524.5  Rx     19F8051C  8  41 1B 40 95 63 7B B9 A6 
   434)     13525.1  Rx     19F8051C  8  42 98 06 C0 9A 0B A1 66 
   435)     13525.7  Rx     19F8051C  8  43 92 CB 02 41 D0 47 08 
   436)     13526.3  Rx     19F8051C  8  44 00 00 00 00 40 00 0D 
   437)     13526.9  Rx     19F8051C  8  45 5D 00 A3 00 FC 0F 00 
   438)     13527.5  Rx     19F8051C  8  46 00 01 AF 02 58 02 FF 
   439)     13537.0  Rx     18EFCD1C  8  A0 00 2A 00 00 00 00 00 
   440)     13556.9  Rx     18EFCD1C  8  A0 00 1B 00 00 00 00 00 
   441)     13576.9  Rx     18EFCD1C  8  A0 00 00 00 00 00 00 00 
   442)     13716.9  Rx     18EFCD1C  8  A0 00 14 00 00 00 00 00 
   443)     13736.9  Rx     18EFCD1C  8  A0 00 2A 00 00 00 00 00 
   444)     13756.9  Rx     18EFCD1C  8  A0 00 1B 00 00 00 00 00 
   445)     13776.9  Rx     18EFCD1C  8  A0 00 00 00 00 00 00 00 
   446)     13916.9  Rx     18EFCD1C  8  A0 00 14 00 00 00 00 00 
   447)     13917.4  Rx     18EFCD1C  4  01 96 1B 00 
   448)     13936.9  Rx     18EFCD1C  8  A0 00 2A 00 00 00 00 00 
   449)     13956.9  Rx     18EFCD1C  8  A0 00 1B 00 00 00 00 00 
   450)     13976.9  Rx     18EFCD1C  8  A0 00 00 00 00 00 00 00 
   451)     14117.1  Rx     18EFCD1C  8  A0 00 14 00 00 00 00 00 
   452)     14136.9  Rx     18EFCD1C  8  A0 00 2A 00 00 00 00 00 
   453)     14156.9  Rx     18EFCD1C  8  A0 00 1B 00 00 00 00 00 
   454)     14176.9  Rx     18EFCD1C  8  A0 00 00 00 00 00 00 00 
   455)     14317.0  Rx     18EFCD1C  8  A0 00 14 00 00 00 00 00 
   456)     14337.0  Rx     18EFCD1C  8  A0 00 2A 00 00 00 00 00 
   457)     14357.0  Rx     18EFCD1C  8  A0 00 1B 00 00 00 00 00 
   458)     14377.0  Rx     18EFCD1C  8  A0 00 00 00 00 00 00 00 
   459)     14461.8  Rx     18EF8F1C  4  01 69 22 00 
   460)     14519.4  Rx     18FEF31C  8  B4 28 80 99 99 D0 2C 89 
   461)     14520.0  Rx     18FEE81C  8  FD 38 09 00 00 00 30 51 
   462)     14520.6  Rx     18FEE61C  8  95 27 0C 09 57 29 00 00 
   463)     14521.2  Rx     19F8021C  8  87 FC B5 4D 00 00 FF FF 
   464)     14521.8  Rx     18EFCD1C  8  A0 00 14 00 00 00 00 00 
   465)     14523.8  Rx     19F8051C  8  60 2F 87 EE 50 CE 90 2A 
   466)     14524.4  Rx     19F8051C  8  61 1B C0 4B CE 6E B9 A6 
   467)     14525.0  Rx     19F8051C  8  62 98 06 A0 ED 45 A5 66 
   468)     14525.5  Rx     19F8051C  8  63 92 CB 02 02 D7 47 08 
   469)     14526.2  Rx     19F8051C  8  64 00 00 00 00 40 00 0D 
   470)     14526.7  Rx     19F8051C  8  65 5D 00 A3 00 FC 0F 00 
   471)     14527.3  Rx     19F8051C  8  66 00 01 AF 02 BC 02 FF 
   472)     14537.0  Rx     18EFCD1C  8  A0 00 2A 00 00 00 00 00 
   473)     14557.0  Rx     18EFCD1C  8  A0 00 1B 00 00 00 00 00 
   474)     14577.0  Rx     18EFCD1C  8  A0 00 00 00 00 00 00 00 
   475)     14718.7  Rx     18EFCD1C  8  A0 00 14 00 00 00 00 00 
   476)     14737.0  Rx     18EFCD1C  8  A0 00 2A 00 00 00 00 00 
   477)     14757.0  Rx     18EFCD1C  8  A0 00 1B 00 00 00 00 00 
   478)     14777.1  Rx     18EFCD1C  8  A0 00 00 00 00 00 00 00 
   479)     14918.1  Rx     18EFCD1C  8  A0 00 14 00 00 00 00 00 
   480)     14937.0  Rx     18EFCD1C  8  A0 00 2A 00 00 00 00 00 
   481)     14957.0  Rx     18EFCD1C  8  A0 00 1B 00 00 00 00 00 
   482)     14977.0  Rx     18EFCD1C  8  A0 00 00 00 00 00 00 00 
   483)     15117.1  Rx     18EFCD1C  8  A0 00 14 00 00 00 00 00 
   484)     15138.2  Rx     18EFCD1C  8  A0 00 2A 00 00 00 00 00 
   485)     15157.0  Rx     18EFCD1C  8  A0 00 1B 00 00 00 00 00 
   486)     15177.0  Rx     18EFCD1C  8  A0 00 00 00 00 00 00 00 
   487)     15317.1  Rx     18EFCD1C  8  A0 00 14 00 00 00 00 00 
   488)     15337.3  Rx     18EFCD1C  8  A0 00 2A 00 00 00 00 00 
   489)     15358.0  Rx     18EFCD1C  8  A0 00 1B 00 00 00 00 00 
   490)     15377.0  Rx     18EFCD1C  8  A0 00 00 00 00 00 00 00 
   491)     15518.2  Rx     18FEF31C  8  B4 28 80 99 99 D0 2C 89 
   492)     15518.8  Rx     18FEE81C  8  FD 38 03 00 00 00 2F 51 
   493)     15519.3  Rx     18FEE61C  8  99 27 0C 09 57 29 00 00 
   494)     15519.9  Rx     19F8021C  8  8C FC B5 4D 00 00 FF FF 
   495)     15520.6  Rx     18EFCD1C  8  A0 00 14 00 00 00 00 00 
   496)     15537.0  Rx     18EFCD1C  8  A0 00 2A 00 00 00 00 00 
   497)     15545.3  Rx     19F8051C  8  80 2F 8C EE 50 68 B7 2A 
   498)     15546.8  Rx     19F8051C  8  81 1B 00 49 27 70 B9 A6 
   499)     15547.4  Rx     19F8051C  8  82 98 06 E0 24 D9 7F 66 
   500)     15547.9  Rx     19F8051C  8  83 92 CB 02 4D 99 47 08 
   501)     15548.6  Rx     19F8051C  8  84 00 00 00 00 40 00 0D 
   502)     15549.1  Rx     19F8051C  8  85 5D 00 A3 00 FC 0F 00 
   503)     15549.7  Rx     19F8051C  8  86 00 01 AF 02 20 03 FF 
   504)     15557.5  Rx     18EFCD1C  8  A0 00 1B 00 00 00 00 00 
   505)     15578.0  Rx     18EFCD1C  8  A0 00 00 00 00 00 00 00 
   506)     15717.0  Rx     18EFCD1C  8  A0 00 14 00 00 00 00 00 
   507)     15737.0  Rx     18EFCD1C  8  A0 00 2A 00 00 00 00 00 
   508)     15757.2  Rx     18EFCD1C  8  A0 00 1B 00 00 00 00 00 
   509)     15777.6  Rx     18EFCD1C  8  A0 00 00 00 00 00 00 00 
   510)     15917.0  Rx     18EFCD1C  8  A0 00 14 00 00 00 00 00 
   511)     15937.0  Rx     18EFCD1C  8  A0 00 2A 00 00 00 00 00 
   512)     15937.4  Rx     18EFCD1C  4  01 97 1B 00 
   513)     15957.0  Rx     18EFCD1C  8  A0 00 1B 00 00 00 00 00 
   514)     15977.4  Rx     18EFCD1C  8  A0 00 00 00 00 00 00 00 
   515)     16117.0  Rx     18EFCD1C  8  A0 00 14 00 00 00 00 00 
   516)     16137.0  Rx     18EFCD1C  8  A0 00 2A 00 00 00 00 00 
   517)     16157.0  Rx     18EFCD1C  8  A0 00 1B 00 00 00 00 00 
   518)     16177.0  Rx     18EFCD1C  8  A0 00 00 00 00 00 00 00 
   519)     16317.0  Rx     18EFCD1C  8  A0 00 14 00 00 00 00 00 
   520)     16337.0  Rx     18EFCD1C  8  A0 00 2A 00 00 00 00 00 
   521)     16357.0  Rx     18EFCD1C  8  A0 00 1B 00 00 00 00 00 
   522)     16377.0  Rx     18EFCD1C  8  A0 00 00 00 00 00 00 00 
   523)     16518.2  Rx     18FEF31C  8  B3 28 80 99 98 D0 2C 89 
   524)     16518.8  Rx     18FEE81C  8  FD 38 03 00 00 00 2F 51 
   525)     16519.3  Rx     18FEE61C  8  9D 27 0C 09 57 29 00 00 
   526)     16519.9  Rx     19F8021C  8  91 FC B5 4D 00 00 FF FF 
   527)     16520.5  Rx     18EFCD1C  8  A0 00 14 00 00 00 00 00 
   528)     16523.8  Rx     19F8051C  8  A0 2F 91 EE 50 78 DE 2A 
   529)     16524.4  Rx     19F8051C  8  A1 1B 80 A3 61 5E B9 A6 
   530)     16525.0  Rx     19F8051C  8  A2 98 06 00 5C 23 5C 66 
   531)     16525.6  Rx     19F8051C  8  A3 92 CB 02 1E B9 47 08 
   532)     16526.2  Rx     19F8051C  8  A4 00 00 00 00 40 00 0D 
   533)     16526.8  Rx     19F8051C  8  A5 5D 00 A3 00 FC 0F 00 
   534)     16527.4  Rx     19F8051C  8  A6 00 01 AF 02 F4 01 FF 
   535)     16537.0  Rx     18EFCD1C  8  A0 00 2A 00 00 00 00 00 
   536)     16557.0  Rx     18EFCD1C  8  A0 00 1B 00 00 00 00 00 
   537)     16577.0  Rx     18EFCD1C  8  A0 00 00 00 00 00 00 00 
   538)     16661.7  Rx     18EF8F1C  4  01 6A 22 00 
   539)     16717.0  Rx     18EFCD1C  8  A0 00 14 00 00 00 00 00 
   540)     16737.0  Rx     18EFCD1C  8  A0 00 2A 00 00 00 00 00 
   541)     16757.0  Rx     18EFCD1C  8  A0 00 1B 00 00 00 00 00 
   542)     16777.1  Rx     18EFCD1C  8  A0 00 00 00 00 00 00 00 
   543)     16917.0  Rx     18EFCD1C  8  A0 00 14 00 00 00 00 00 
   544)     16937.1  Rx     18EFCD1C  8  A0 00 2A 00 00 00 00 00 
   545)     16957.0  Rx     18EFCD1C  8  A0 00 1B 00 00 00 00 00 
   546)     16977.1  Rx     18EFCD1C  8  A0 00 00 00 00 00 00 00 
   547)     17117.1  Rx     18EFCD1C  8  A0 00 14 00 00 00 00 00 
   548)     17137.1  Rx     18EFCD1C  8  A0 00 2A 00 00 00 00 00 
   549)     17157.1  Rx     18EFCD1C  8  A0 00 1B 00 00 00 00 00 
   550)     17177.1  Rx     18EFCD1C  8  A0 00 00 00 00 00 00 00 
   551)     17317.2  Rx     18EFCD1C  8  A0 00 14 00 00 00 00 00 
   552)     17337.1  Rx     18EFCD1C  8  A0 00 2A 00 00 00 00 00 
   553)     17357.1  Rx     18EFCD1C  8  A0 00 1B 00 00 00 00 00 
   554)     17377.2  Rx     18EFCD1C  8  A0 00 00 00 00 00 00 00 
   555)     17520.0  Rx     18FEF31C  8  B3 28 80 99 98 D0 2C 89 
   556)     17520.6  Rx     18FEE81C  8  FD 38 08 00 00 00 2F 51 
   557)     17521.2  Rx     18FEE61C  8  A1 27 0C 09 57 29 00 00 
   558)     17521.8  Rx     19F0101C  8  96 00 EE 50 88 05 2B 1B 
   559)     17522.4  Rx     19F8021C  8  96 FC B5 4D 00 00 FF FF 
   560)     17523.0  Rx     18EFCD1C  8  A0 00 14 00 00 00 00 00 
   561)     17525.0  Rx     19F8051C  8  C0 2F 96 EE 50 88 05 2B 
   562)     17525.5  Rx     19F8051C  8  C1 1B 40 8A B6 60 B9 A6 
   563)     17526.1  Rx     19F8051C  8  C2 98 06 E0 48 D1 61 66 
   564)     17526.7  Rx     19F8051C  8  C3 92 CB 02 8A B2 47 08 
   565)     17527.3  Rx     19F8051C  8  C4 00 00 00 00 40 00 0D 
   566)     17527.9  Rx     19F8051C  8  C5 5D 00 A3 00 FC 0F 00 
   567)     17528.4  Rx     19F8051C  8  C6 00 01 AF 02 58 02 FF 
   568)     17537.2  Rx     18EFCD1C  8  A0 00 2A 00 00 00 00 00 
   569)     17557.2  Rx     18EFCD1C  8  A0 00 1B 00 00 00 00 00 
   570)     17577.2  Rx     18EFCD1C  8  A0 00 00 00 00 00 00 00 
   571)     17717.8  Rx     18EFCD1C  8  A0 00 14 00 00 00 00 00 
   572)     17738.7  Rx     18EFCD1C  8  A0 00 2A 00 00 00 00 00 
   573)     17757.2  Rx     18EFCD1C  8  A0 00 1B 00 00 00 00 00 
   574)     17777.2  Rx     18EFCD1C  8  A0 00 00 00 00 00 00 00 
   575)     17917.2  Rx     18EFCD1C  8  A0 00 14 00 00 00 00 00 
   576)     17937.9  Rx     18EFCD1C  8  A0 00 2A 00 00 00 00 00 
   577)     17938.4  Rx     18EFCD1C  4  01 98 1B 00 
   578)     17957.2  Rx     18EFCD1C  8  A0 00 1B 00 00 00 00 00 
   579)     17977.2  Rx     18EFCD1C  8  A0 00 00 00 00 00 00 00 
   580)     18117.3  Rx     18EFCD1C  8  A0 00 14 00 00 00 00 00 
   581)     18137.4  Rx     18EFCD1C  8  A0 00 2A 00 00 00 00 00 
   582)     18158.2  Rx     18EFCD1C  8  A0 00 1B 00 00 00 00 00 
   583)     18177.2  Rx     18EFCD1C  8  A0 00 00 00 00 00 00 00 
   584)     18317.3  Rx     18EFCD1C  8  A0 00 14 00 00 00 00 00 
   585)     18337.3  Rx     18EFCD1C  8  A0 00 2A 00 00 00 00 00 
   586)     18357.6  Rx     18EFCD1C  8  A0 00 1B 00 00 00 00 00 
   587)     18378.4  Rx     18EFCD1C  8  A0 00 00 00 00 00 00 00 
   588)     18518.5  Rx     18FEF31C  8  B4 28 80 99 99 D0 2C 89 
   589)     18519.1  Rx     18FEE81C  8  FD 38 08 00 00 00 2F 51 
   590)     18519.6  Rx     18FEE61C  8  A5 27 0C 09 57 29 00 00 
   591)     18520.2  Rx     19F8021C  8  9B FC B5 4D 00 00 FF FF 
   592)     18520.8  Rx     18EFCD1C  8  A0 00 14 00 00 00 00 00 
   593)     18522.9  Rx     19F8051C  8  E0 2F 9B EE 50 98 2C 2B 
   594)     18523.5  Rx     19F8051C  8  E1 1B 40 D5 1E 6C B9 A6 
   595)     18524.1  Rx     19F8051C  8  E2 98 06 60 2F 2E 86 66 
   596)     18525.2  Rx     19F8051C  8  E3 92 CB 02 78 C9 47 08 
   597)     18525.7  Rx     19F8051C  8  E4 00 00 00 00 40 00 0D 
   598)     18526.3  Rx     19F8051C  8  E5 5D 00 A3 00 FC 0F 00 
   599)     18526.9  Rx     19F8051C  8  E6 00 01 AF 02 BC 02 FF 
   600)     18537.3  Rx     18EFCD1C  8  A0 00 2A 00 00 00 00 00 
   601)     18557.3  Rx     18EFCD1C  8  A0 00 1B 00 00 00 00 00 
   602)     18577.9  Rx     18EFCD1C  8  A0 00 00 00 00 00 00 00 
   603)     18663.0  Rx     18EF8F1C  4  01 6B 22 00 
   604)     18717.3  Rx     18EFCD1C  8  A0 00 14 00 00 00 00 00 
   605)     18737.3  Rx     18EFCD1C  8  A0 00 2A 00 00 00 00 00 
   606)     18757.3  Rx     18EFCD1C  8  A0 00 1B 00 00 00 00 00 
   607)     18777.3  Rx     18EFCD1C  8  A0 00 00 00 00 00 00 00 
   608)     18917.3  Rx     18EFCD1C  8  A0 00 14 00 00 00 00 00 
   609)     18937.3  Rx     18EFCD1C  8  A0 00 2A 00 00 00 00 00 
   610)     18957.3  Rx     18EFCD1C  8  A0 00 1B 00 00 00 00 00 
   611)     18977.3  Rx     18EFCD1C  8  A0 00 00 00 00 00 00 00 
   612)     19117.4  Rx     18EFCD1C  8  A0 00 14 00 00 00 00 00 
   613)     19137.3  Rx     18EFCD1C  8  A0 00 2A 00 00 00 00 00 
   614)     19157.3  Rx     18EFCD1C  8  A0 00 1B 00 00 00 00 00 
   615)     19177.3  Rx     18EFCD1C  8  A0 00 00 00 00 00 00 00 
   616)     19317.3  Rx     18EFCD1C  8  A0 00 14 00 00 00 00 00 
   617)     19337.3  Rx     18EFCD1C  8  A0 00 2A 00 00 00 00 00 
   618)     19357.3  Rx     18EFCD1C  8  A0 00 1B 00 00 00 00 00 
   619)     19377.3  Rx     18EFCD1C  8  A0 00 00 00 00 00 00 00 
   620)     19518.4  Rx     18FEF31C  8  B3 28 80 99 99 D0 2C 89 
   621)     19519.0  Rx     18FEE81C  8  FD 38 0B 00 00 00 30 51 
   622)     19519.6  Rx     18FEE61C  8  A9 27 0C 09 57 29 00 00 
   623)     19520.2  Rx     19F8021C  8  A0 FC B5 4D 00 00 FF FF 
   624)     19520.8  Rx     18EFCD1C  8  A0 00 14 00 00 00 00 00 
   625)     19524.0  Rx     19F8051C  8  00 2F A0 EE 50 A8 53 2B 
   626)     19524.6  Rx     19F8051C  8  01 1B 40 F3 CE 63 B9 A6 
   627)     19525.2  Rx     19F8051C  8  02 98 06 00 8C BD 78 66 
   628)     19525.7  Rx     19F8051C  8  03 92 CB 02 2D E2 47 08 
   629)     19526.4  Rx     19F8051C  8  04 00 00 00 00 40 00 0D 
   630)     19527.0  Rx     19F8051C  8  05 5D 00 A3 00 FC 0F 00 
   631)     19527.6  Rx     19F8051C  8  06 00 01 AF 02 20 03 FF 
   632)     19537.3  Rx     18EFCD1C  8  A0 00 2A 00 00 00 00 00 
   633)     19557.3  Rx     18EFCD1C  8  A0 00 1B 00 00 00 00 00 
   634)     19577.3  Rx     18EFCD1C  8  A0 00 00 00 00 00 00 00 
   635)     19717.3  Rx     18EFCD1C  8  A0 00 14 00 00 00 00 00 
   636)     19737.3  Rx     18EFCD1C  8  A0 00 2A 00 00 00 00 00 
   637)     19757.3  Rx     18EFCD1C  8  A0 00 1B 00 00 00 00 00 
   638)     19777.3  Rx     18EFCD1C  8  A0 00 00 00 00 00 00 00 
   639)     19917.3  Rx     18EFCD1C  8  A0 00 14 00 00 00 00 00 
   640)     19937.3  Rx     18EFCD1C  8  A0 00 2A 00 00 00 00 00 
   641)     19957.3  Rx     18EFCD1C  8  A0 00 1B 00 00 00 00 00 
   642)     19957.8  Rx     18EFCD1C  4  01 99 1B 00 
   643)     19977.3  Rx     18EFCD1C  8  A0 00 00 00 00 00 00 00 
   644)     20117.3  Rx     18EFCD1C  8  A0 00 14 00 00 00 00 00 
   645)     20137.4  Rx     18EFCD1C  8  A0 00 2A 00 00 00 00 00 
   646)     20157.3  Rx     18EFCD1C  8  A0 00 1B 00 00 00 00 00 
   647)     20177.3  Rx     18EFCD1C  8  A0 00 00 00 00 00 00 00 
   648)     20318.8  Rx     18EFCD1C  8  A0 00 14 00 00 00 00 00 
   649)     20337.3  Rx     18EFCD1C  8  A0 00 2A 00 00 00 00 00 
   650)     20357.3  Rx     18EFCD1C  8  A0 00 1B 00 00 00 00 00 
   651)     20377.3  Rx     18EFCD1C  8  A0 00 00 00 00 00 00 00 
   652)     20519.0  Rx     18FEF31C  8  B3 28 80 99 98 D0 2C 89 
   653)     20519.6  Rx     18FEE81C  8  FD 38 03 00 00 00 30 51 
   654)     20520.2  Rx     18FEE61C  8  AD 27 0C 09 57 29 00 00 
   655)     20520.8  Rx     19F8021C  8  A5 FC B5 4D 00 00 FF FF 
   656)     20521.4  Rx     18EFCD1C  8  A0 00 14 00 00 00 00 00 
   657)     20523.3  Rx     19F8051C  8  20 2F A5 EE 50 2E 7B 2B 
   658)     20523.9  Rx     19F8051C  8  21 1B 40 C6 21 63 B9 A6 
   659)     20524.5  Rx     19F8051C  8  22 98 06 00 E0 0C 4F 66 
   660)     20525.1  Rx     19F8051C  8  23 92 CB 02 26 F9 47 08 
   661)     20525.7  Rx     19F8051C  8  24 00 00 00 00 40 00 0D 
   662)     20526.3  Rx     19F8051C  8  25 5D 00 A3 00 FC 0F 00 
   663)     20526.9  Rx     19F8051C  8  26 00 01 AF 02 F4 01 FF 
   664)     20539.1  Rx     18EFCD1C  8  A0 00 2A 00 00 00 00 00 
   665)     20557.3  Rx     18EFCD1C  8  A0 00 1B 00 00 00 00 00 
   666)     20577.3  Rx     18EFCD1C  8  A0 00 00 00 00 00 00 00 
   667)     20717.3  Rx     18EFCD1C  8  A0 00 14 00 00 00 00 00 
   668)     20737.9  Rx     18EFCD1C  8  A0 00 2A 00 00 00 00 00 
   669)     20758.9  Rx     18EFCD1C  8  A0 00 1B 00 00 00 00 00 
   670)     20777.3  Rx     18EFCD1C  8  A0 00 00 00 00 00 00 00 
   671)     20861.4  Rx     18EF8F1C  4  01 6C 22 00 
   672)     20917.3  Rx     18EFCD1C  8  A0 00 14 00 00 00 00 00 
   673)     20937.3  Rx     18EFCD1C  8  A0 00 2A 00 00 00 00 00 
   674)     20958.2  Rx     18EFCD1C  8  A0 00 1B 00 00 00 00 00 
   675)     20978.9  Rx     18EFCD1C  8  A0 00 00 00 00 00 00 00 
   676)     21117.3  Rx     18EFCD1C  8  A0 00 14 00 00 00 00 00 
   677)     21137.3  Rx     18EFCD1C  8  A0 00 2A 00 00 00 00 00 
   678)     21157.3  Rx     18EFCD1C  8  A0 00 1B 00 00 00 00 00 
   679)     21178.4  Rx     18EFCD1C  8  A0 00 00 00 00 00 00 00 
   680)     21317.3  Rx     18EFCD1C  8  A0 00 14 00 00 00 00 00 
   681)     21337.3  Rx     18EFCD1C  8  A0 00 2A 00 00 00 00 00 
   682)     21357.4  Rx     18EFCD1C  8  A0 00 1B 00 00 00 00 00 
   683)     21377.3  Rx     18EFCD1C  8  A0 00 00 00 00 00 00 00 
   684)     21518.5  Rx     18FEF31C  8  B4 28 80 99 98 D0 2C 89 
   685)     21519.1  Rx     18FEE81C  8  FD 38 02 00 00 00 30 51 
   686)     21519.7  Rx     18FEE61C  8  B1 27 0C 09 57 29 00 00 
   687)     21520.3  Rx     19F8021C  8  AA FC B5 4D 00 00 FF FF 
   688)     21520.9  Rx     18EFCD1C  8  A0 00 14 00 00 00 00 00 
   689)     21523.9  Rx     19F8051C  8  40 2F AA EE 50 C8 A1 2B 
   690)     21524.5  Rx     19F8051C  8  41 1B 00 43 3D 6C B9 A6 
   691)     21525.1  Rx     19F8051C  8  42 98 06 60 E4 9C 3D 66 
   692)     21525.7  Rx     19F8051C  8  43 92 CB 02 1C E8 47 08 
   693)     21526.3  Rx     19F8051C  8  44 00 00 00 00 40 00 0D 
   694)     21526.9  Rx     19F8051C  8  45 5D 00 A3 00 FC 0F 00 
   695)     21527.5  Rx     19F8051C  8  46 00 01 AF 02 58 02 FF 
   696)     21537.3  Rx     18EFCD1C  8  A0 00 2A 00 00 00 00 00 
   697)     21557.3  Rx     18EFCD1C  8  A0 00 1B 00 00 00 00 00 
   698)     21577.3  Rx     18EFCD1C  8  A0 00 00 00 00 00 00 00 
   699)     21717.3  Rx     18EFCD1C  8  A0 00 14 00 00 00 00 00 
   700)     21737.3  Rx     18EFCD1C  8  A0 00 2A 00 00 00 00 00 
   701)     21757.3  Rx     18EFCD1C  8  A0 00 1B 00 00 00 00 00 
   702)     21777.3  Rx     18EFCD1C  8  A0 00 00 00 00 00 00 00 
   703)     21917.3  Rx     18EFCD1C  8  A0 00 14 00 00 00 00 00 
   704)     21937.3  Rx     18EFCD1C  8  A0 00 2A 00 00 00 00 00 
   705)     21957.3  Rx     18EFCD1C  8  A0 00 1B 00 00 00 00 00 
   706)     21977.3  Rx     18EFCD1C  8  A0 00 00 00 00 00 00 00 
   707)     21977.8  Rx     18EFCD1C  4  01 9A 1B 00 
   708)     22117.3  Rx     18EFCD1C  8  A0 00 14 00 00 00 00 00 
   709)     22137.3  Rx     18EFCD1C  8  A0 00 2A 00 00 00 00 00 
   710)     22157.3  Rx     18EFCD1C  8  A0 00 1B 00 00 00 00 00 
   711)     22177.3  Rx     18EFCD1C  8  A0 00 00 00 00 00 00 00 
   712)     22317.3  Rx     18EFCD1C  8  A0 00 14 00 00 00 00 00 
   713)     22337.3  Rx     18EFCD1C  8  A0 00 2A 00 00 00 00 00 
   714)     22357.3  Rx     18EFCD1C  8  A0 00 1B 00 00 00 00 00 
   715)     22377.3  Rx     18EFCD1C  8  A0 00 00 00 00 00 00 00 
   716)     22520.1  Rx     18FEF31C  8  B3 28 80 99 98 D0 2C 89 
   717)     22520.6  Rx     18FEE81C  8  FD 38 0A 00 00 00 2F 51 
   718)     22521.2  Rx     18FEE61C  8  B5 27 0C 09 57 29 00 00 
   719)     22521.8  Rx     19F0101C  8  AF 00 EE 50 D8 C8 2B 1B 
   720)     22522.4  Rx     19F8021C  8  AF FC B5 4D 00 00 FF FF 
   721)     22523.0  Rx     18EFCD1C  8  A0 00 14 00 00 00 00 00 
   722)     22525.0  Rx     19F8051C  8  60 2F AF EE 50 D8 C8 2B 
   723)     22525.6  Rx     19F8051C  8  61 1B 80 BD CA 59 B9 A6 
   724)     22526.2  Rx     19F8051C  8  62 98 06 A0 9E 1B 51 66 
   725)     22526.8  Rx     19F8051C  8  63 92 CB 02 A8 C5 47 08 
   726)     22527.4  Rx     19F8051C  8  64 00 00 00 00 40 00 0D 
   727)     22528.0  Rx     19F8051C  8  65 5D 00 A3 00 FC 0F 00 
   728)     22528.6  Rx     19F8051C  8  66 00 01 AF 02 BC 02 FF 
   729)     22537.3  Rx     18EFCD1C  8  A0 00 2A 00 00 00 00 00 
   730)     22557.3  Rx     18EFCD1C  8  A0 00 1B 00 00 00 00 00 
   731)     22577.3  Rx     18EFCD1C  8  A0 00 00 00 00 00 00 00 
   732)     22717.3  Rx     18EFCD1C  8  A0 00 14 00 00 00 00 00 
   733)     22737.3  Rx     18EFCD1C  8  A0 00 2A 00 00 00 00 00 
   734)     22757.3  Rx     18EFCD1C  8  A0 00 1B 00 00 00 00 00 
   735)     22777.3  Rx     18EFCD1C  8  A0 00 00 00 00 00 00 00 
   736)     22918.4  Rx     18EFCD1C  8  A0 00 14 00 00 00 00 00 
   737)     22937.3  Rx     18EFCD1C  8  A0 00 2A 00 00 00 00 00 
   738)     22957.3  Rx     18EFCD1C  8  A0 00 1B 00 00 00 00 00 
   739)     22977.3  Rx     18EFCD1C  8  A0 00 00 00 00 00 00 00 
   740)     23065.5  Rx     18EF8F1C  4  01 6D 22 00 
   741)     23118.8  Rx     18EFCD1C  8  A0 00 14 00 00 00 00 00 
   742)     23137.3  Rx     18EFCD1C  8  A0 00 2A 00 00 00 00 00 
   743)     23157.3  Rx     18EFCD1C  8  A0 00 1B 00 00 00 00 00 
   744)     23177.3  Rx     18EFCD1C  8  A0 00 00 00 00 00 00 00 
   745)     23317.3  Rx     18EFCD1C  8  A0 00 14 00 00 00 00 00 
   746)     23338.9  Rx     18EFCD1C  8  A0 00 2A 00 00 00 00 00 
   747)     23357.3  Rx     18EFCD1C  8  A0 00 1B 00 00 00 00 00 
   748)     23377.3  Rx     18EFCD1C  8  A0 00 00 00 00 00 00 00 
