;$FILEVERSION=1.1
;$STARTTIME=46287.6485008681
;
;   Start time: 9/22/2026 15:33:50.475.0
;   Generated by PCAN-View v5.3.3.958
;
;   Message Number
;   |         Time Offset (ms)
;   |         |        Type
;   |         |        |        ID (hex)
;   |         |        |        |     Data Length
;   |         |        |        |     |   Data Bytes (hex) ...
;   |         |        |        |     |   |
;---+--   ----+----  --+--  ----+---  +  -+ -- -- -- -- -- -- --
     1)     18933.9  Rx     18EFCD1C  8  A0 00 1B 00 00 00 00 00 
     2)     18934.5  Rx     18EFCD1C  8  A0 00 00 00 00 00 00 00 
     3)     18935.1  Rx     18EF1CCD  8  A0 00 1B 00 B1 00 00 00 
     4)     18935.6  Rx     18EF1CCD  8  A0 00 00 00 04 00 00 00 
     5)     18936.2  Rx     18EFCD1C  8  A1 01 00 00 04 00 00 00 
     6)     18936.8  Rx     18EFCD1C  8  A0 00 14 00 00 00 00 00 
     7)     18937.4  Rx     18EFCD1C  8  A0 00 2A 00 00 00 00 00 
     8)     18938.0  Rx     18EF1CCD  8  A0 00 14 00 84 07 00 00 
     9)     18938.6  Rx     18EF1CCD  8  A0 00 2A 00 47 06 00 00 
    10)     18939.2  Rx     18EFCD1C  8  A0 00 1B 00 00 00 00 00 
    11)     18939.8  Rx     18EFCD1C  8  A0 00 00 00 00 00 00 00 
    12)     18940.3  Rx     18EF1CCD  8  A0 00 1B 00 7C E4 03 00 
    13)     18940.9  Rx     18EF1CCD  8  A0 00 00 00 04 00 00 00 
    14)     18941.4  Rx     18EFCD1C  4  01 81 89 00 
    15)     18941.9  Rx     18EFCD1C  8  A1 01 00 00 04 00 00 00 
    16)     18942.4  Rx     18EF1CCD  4  01 0F 81 01 
    17)     18942.9  Rx     18EFCD1C  8  A0 00 14 00 00 00 00 00 
    18)     18943.5  Rx     18EFCD1C  8  A0 00 2A 00 00 00 00 00 
    19)     18944.1  Rx     18EF1CCD  8  A0 00 14 00 82 07 00 00 
    20)     18944.7  Rx     18EF1CCD  8  A0 00 2A 00 45 06 00 00 
    21)     18945.3  Rx     18EFCD1C  8  A0 00 1B 00 00 00 00 00 
    22)     18945.9  Rx     18EFCD1C  8  A0 00 00 00 00 00 00 00 
    23)     18946.5  Rx     18EF1CCD  8  A0 00 1B 00 7C E4 03 00 
    24)     18947.0  Rx     18EF1CCD  8  A0 00 00 00 04 00 00 00 
    25)     18947.6  Rx     18EFCD1C  8  A1 01 00 00 00 00 00 00 
    26)     18948.0  Rx     18EFCD1C  4  0F A1 01 02 
    27)     18948.6  Rx     18EFCD1C  8  A1 01 00 00 00 00 00 00 
    28)     18949.1  Rx     18EFCD1C  4  0F A1 01 02 
    29)     18949.7  Rx     18EFCD1C  8  A1 01 00 00 00 00 00 00 
    30)     18950.2  Rx     18EF8F1C  4  01 42 54 00 
    31)     18950.6  Rx     18EFCD1C  4  0F A1 01 02 
    32)     18951.0  Rx     18EF1C8F  4  01 01 42 11 
    33)     18951.6  Rx     18EFCD1C  8  A1 01 00 00 00 00 00 00 
    34)     18952.2  Rx     18EFCD1C  8  A0 00 14 00 00 00 00 00 
    35)     18952.7  Rx     18EFCD1C  4  0F A1 01 02 
    36)     18953.2  Rx     18EF1CCD  8  A0 00 14 00 83 07 00 00 
    37)     18953.8  Rx     18EFCD1C  8  A1 01 00 00 00 00 00 00 
    38)     18954.4  Rx     18EFCD1C  8  A0 00 2A 00 00 00 00 00 
    39)     18954.9  Rx     18EFCD1C  4  0F A1 01 02 
    40)     18955.5  Rx     18EF1CCD  8  A0 00 2A 00 48 06 00 00 
    41)     18956.0  Rx     18EFCD1C  8  A1 01 00 00 00 00 00 00 
    42)     18956.7  Rx     18EFCD1C  8  A0 00 1B 00 00 00 00 00 
    43)     18957.1  Rx     18EFCD1C  4  0F A1 01 02 
    44)     18957.7  Rx     18EF1CCD  8  A0 00 1B 00 7C E4 03 00 
    45)     18958.2  Rx     18EFCD1C  8  A1 01 00 00 00 00 00 00 
    46)     18958.8  Rx     18EFCD1C  8  A0 00 00 00 00 00 00 00 
    47)     18959.3  Rx     18EFCD1C  4  0F A1 01 02 
    48)     18959.9  Rx     18EF1CCD  8  A0 00 00 00 04 00 00 00 
    49)     18960.5  Rx     18EFCD1C  8  A1 01 00 00 00 00 00 00 
    50)     18960.9  Rx     18EFCD1C  4  0F A1 01 02 
    51)     18961.5  Rx     18EFCD1C  8  A1 01 00 00 00 00 00 00 
    52)     18962.0  Rx     18EFCD1C  4  0F A1 01 02 
    53)     18962.6  Rx     18EFCD1C  8  A1 01 00 00 00 00 00 00 
    54)     18963.1  Rx     18EFCD1C  4  0F A1 01 02 
    55)     18963.7  Rx     18EFCD1C  8  A1 01 00 00 00 00 00 00 
    56)     18964.1  Rx     18EFCD1C  4  0F A1 01 02 
    57)     18964.7  Rx     18EFCD1C  8  A1 01 00 00 00 00 00 00 
    58)     18965.2  Rx     18EFCD1C  4  0F A1 01 02 
    59)     18965.8  Rx     18EFCD1C  8  A1 01 00 00 00 00 00 00 
    60)     18966.3  Rx     18EFCD1C  4  0F A1 01 02 
    61)     18966.9  Rx     18EFCD1C  8  A1 01 00 00 00 00 00 00 
    62)     18967.4  Rx     18EFCD1C  8  A0 00 14 00 00 00 00 00 
    63)     18967.9  Rx     18EFCD1C  4  0F A1 01 02 
    64)     18968.5  Rx     18EF1CCD  8  A0 00 14 00 83 07 00 00 
    65)     18969.1  Rx     18EFCD1C  8  A1 01 00 00 00 00 00 00 
    66)     18969.7  Rx     18EFCD1C  8  A0 00 2A 00 00 00 00 00 
    67)     18970.1  Rx     18EFCD1C  4  0F A1 01 02 
    68)     18970.7  Rx     18EF1CCD  8  A0 00 2A 00 49 06 00 00 
    69)     18971.2  Rx     18EFCD1C  8  A1 01 00 00 00 00 00 00 
    70)     18971.9  Rx     18EFCD1C  8  A0 00 1B 00 00 00 00 00 
    71)     18972.3  Rx     18EFCD1C  4  0F A1 01 02 
    72)     18972.9  Rx     18EF1CCD  8  A0 00 1B 00 7C E4 03 00 
    73)     18973.5  Rx     18EFCD1C  8  A1 01 00 00 00 00 00 00 
    74)     18974.1  Rx     18EFCD1C  8  A0 00 00 00 00 00 00 00 
    75)     18974.5  Rx     18EFCD1C  4  0F A1 01 02 
    76)     18975.1  Rx     18EF1CCD  8  A0 00 00 00 04 00 00 00 
    77)     18975.7  Rx     18EFCD1C  8  A1 01 00 00 00 00 00 00 
    78)     18976.1  Rx     18EFCD1C  4  0F A1 01 02 
    79)     18976.7  Rx     18EFCD1C  8  A1 01 00 00 00 00 00 00 
    80)     18977.2  Rx     18EFCD1C  4  0F A1 01 02 
    81)     18977.8  Rx     18EFCD1C  8  A1 01 00 00 00 00 00 00 
    82)     18978.3  Rx     18EFCD1C  4  0F A1 01 02 
    83)     18978.9  Rx     18EFCD1C  8  A1 01 00 00 00 00 00 00 
    84)     18979.5  Rx     18FEF31C  8  F8 28 80 99 C3 CE 2C 89 
    85)     18980.1  Rx     18FEE81C  8  A8 3E 14 00 00 00 2F 51 
    86)     18980.7  Rx     18FEE61C  8  DC 0E 0D 09 57 29 00 00 
    87)     18981.3  Rx     19F0101C  8  88 00 EE 50 28 AF 6D 1C 
    88)     18981.8  Rx     19F8021C  8  88 FC 6F 55 00 00 FF FF 
    89)     18982.3  Rx     18EFCD1C  4  0F A1 01 02 
    90)     18982.9  Rx     18EFCD1C  8  A1 01 00 00 00 00 00 00 
    91)     18983.5  Rx     19F8051C  8  40 2F 88 EE 50 28 AF 6D 
    92)     18984.1  Rx     19F8051C  8  41 1C 00 54 91 6F C9 A6 
    93)     18984.7  Rx     19F8051C  8  42 98 06 00 26 66 29 F9 
    94)     18985.2  Rx     19F8051C  8  43 91 CB 02 AF 30 46 08 
    95)     18985.8  Rx     19F8051C  8  44 00 00 00 00 40 00 0D 
    96)     18986.4  Rx     19F8051C  8  45 52 00 92 00 FC 0F 00 
    97)     18986.9  Rx     19F8051C  8  46 00 01 AF 02 F4 01 FF 
    98)     18987.3  Rx     18EFCD1C  4  0F A1 01 02 
    99)     18987.9  Rx     18EFCD1C  8  A1 01 00 00 00 00 00 00 
   100)     18988.4  Rx     18EFCD1C  4  0F A1 01 02 
   101)     18988.9  Rx     18EFCD1C  8  A1 01 00 00 00 00 00 00 
   102)     18989.5  Rx     18EFCD1C  8  A0 00 14 00 00 00 00 00 
   103)     18989.9  Rx     18EFCD1C  4  0F A1 01 02 
   104)     18990.5  Rx     18EF1CCD  8  A0 00 14 00 83 07 00 00 
   105)     18991.1  Rx     18EFCD1C  8  A1 01 00 00 00 00 00 00 
   106)     18991.7  Rx     18EFCD1C  8  A0 00 2A 00 00 00 00 00 
   107)     18992.1  Rx     18EFCD1C  4  0F A1 01 02 
   108)     18992.6  Rx     18EF1CCD  8  A0 00 2A 00 46 06 00 00 
   109)     18993.2  Rx     18EFCD1C  8  A1 01 00 00 00 00 00 00 
   110)     18993.8  Rx     18EFCD1C  8  A0 00 1B 00 00 00 00 00 
   111)     18994.2  Rx     18EFCD1C  4  0F A1 01 02 
   112)     18994.8  Rx     18EF1CCD  8  A0 00 1B 00 7C E4 03 00 
   113)     18995.4  Rx     18EFCD1C  8  A1 01 00 00 00 00 00 00 
   114)     18996.0  Rx     18EFCD1C  8  A0 00 00 00 00 00 00 00 
   115)     18996.4  Rx     18EFCD1C  4  0F A1 01 02 
   116)     18996.9  Rx     18EF1CCD  8  A0 00 00 00 04 00 00 00 
   117)     18997.5  Rx     18EFCD1C  8  A1 01 00 00 00 00 00 00 
   118)     18998.0  Rx     18EFCD1C  4  0F A1 01 02 
   119)     18998.5  Rx     18EFCD1C  8  A1 01 00 00 00 00 00 00 
   120)     18999.1  Rx     18EFCD1C  4  0F A1 01 02 
   121)     18999.6  Rx     18EFCD1C  8  A1 01 00 00 00 00 00 00 
   122)     19000.1  Rx     18EFCD1C  4  0F A1 01 02 
   123)     19000.7  Rx     18EFCD1C  8  A1 01 00 00 00 00 00 00 
   124)     19001.1  Rx     18EFCD1C  4  0F A1 01 02 
   125)     19001.6  Rx     18EFCD1C  8  A1 01 00 00 00 00 00 00 
   126)     19002.1  Rx     18EFCD1C  4  0F A1 01 02 
   127)     19002.6  Rx     18EFCD1C  8  A1 01 00 00 00 00 00 00 
   128)     19003.0  Rx     18EFCD1C  4  0F A1 01 02 
   129)     19003.6  Rx     18EFCD1C  8  A1 01 00 00 00 00 00 00 
   130)     19004.2  Rx     18EFCD1C  8  A0 00 14 00 00 00 00 00 
   131)     19004.6  Rx     18EFCD1C  4  0F A1 01 02 
   132)     19005.2  Rx     18EF1CCD  8  A0 00 14 00 83 07 00 00 
   133)     19005.8  Rx     18EFCD1C  8  A1 01 00 00 00 00 00 00 
   134)     19006.4  Rx     18EFCD1C  8  A0 00 2A 00 00 00 00 00 
   135)     19006.8  Rx     18EFCD1C  4  0F A1 01 02 
   136)     19007.3  Rx     18EF1CCD  8  A0 00 2A 00 49 06 00 00 
   137)     19007.9  Rx     18EFCD1C  8  A1 01 00 00 00 00 00 00 
   138)     19008.5  Rx     18EFCD1C  8  A0 00 1B 00 00 00 00 00 
   139)     19008.9  Rx     18EFCD1C  4  0F A1 01 02 
   140)     19009.5  Rx     18EF1CCD  8  A0 00 1B 00 7C E4 03 00 
   141)     19010.1  Rx     18EFCD1C  8  A1 01 00 00 00 00 00 00 
   142)     19010.7  Rx     18EFCD1C  8  A0 00 00 00 00 00 00 00 
   143)     19011.1  Rx     18EFCD1C  4  0F A1 01 02 
   144)     19011.7  Rx     18EF1CCD  8  A0 00 00 00 04 00 00 00 
   145)     19012.2  Rx     18EFCD1C  8  A1 01 00 00 00 00 00 00 
   146)     19012.6  Rx     18EFCD1C  4  0F A1 01 02 
   147)     19013.2  Rx     18EFCD1C  8  A1 01 00 00 00 00 00 00 
   148)     19013.7  Rx     18EFCD1C  4  0F A1 01 02 
   149)     19014.2  Rx     18EFCD1C  8  A1 01 00 00 00 00 00 00 
   150)     19014.6  Rx     18EFCD1C  4  0F A1 01 02 
   151)     19015.2  Rx     18EFCD1C  8  A1 01 00 00 00 00 00 00 
   152)     19015.7  Rx     18EFCD1C  4  0F A1 01 02 
   153)     19016.2  Rx     18EFCD1C  8  A1 01 00 00 00 00 00 00 
   154)     19016.6  Rx     18EFCD1C  4  0F A1 01 02 
   155)     19017.2  Rx     18EFCD1C  8  A1 01 00 00 00 00 00 00 
   156)     19017.7  Rx     18EFCD1C  4  0F A1 01 02 
   157)     19018.2  Rx     18EFCD1C  8  A1 01 00 00 00 00 00 00 
   158)     19018.8  Rx     18EFCD1C  8  A0 00 14 00 00 00 00 00 
   159)     19019.2  Rx     18EFCD1C  4  0F A1 01 02 
   160)     19019.8  Rx     18EF1CCD  8  A0 00 14 00 83 07 00 00 
   161)     19020.4  Rx     18EFCD1C  8  A1 01 00 00 00 00 00 00 
   162)     19020.9  Rx     18EFCD1C  8  A0 00 2A 00 00 00 00 00 
   163)     19021.4  Rx     18EFCD1C  4  0F A1 01 02 
   164)     19021.9  Rx     18EF1CCD  8  A0 00 2A 00 47 06 00 00 
   165)     19022.5  Rx     18EFCD1C  8  A1 01 00 00 00 00 00 00 
   166)     19023.1  Rx     18EFCD1C  8  A0 00 1B 00 00 00 00 00 
   167)     19023.5  Rx     18EFCD1C  4  0F A1 01 02 
   168)     19024.1  Rx     18EF1CCD  8  A0 00 1B 00 7C E4 03 00 
   169)     19024.7  Rx     18EFCD1C  8  A1 01 00 00 00 00 00 00 
   170)     19025.3  Rx     18EFCD1C  8  A0 00 00 00 00 00 00 00 
   171)     19025.7  Rx     18EFCD1C  4  0F A1 01 02 
   172)     19026.2  Rx     18EF1CCD  8  A0 00 00 00 04 00 00 00 
   173)     19026.8  Rx     18EFCD1C  8  A1 01 00 00 00 00 00 00 
   174)     19027.3  Rx     18EFCD1C  4  0F A1 01 02 
   175)     19027.8  Rx     18EFCD1C  8  A1 01 00 00 00 00 00 00 
   176)     19028.2  Rx     18EFCD1C  4  0F A1 01 02 
   177)     19028.8  Rx     18EFCD1C  8  A1 01 00 00 00 00 00 00 
   178)     19029.2  Rx     18EFCD1C  4  0F A1 01 02 
   179)     19029.8  Rx     18EFCD1C  8  A1 01 00 00 00 00 00 00 
   180)     19030.2  Rx     18EFCD1C  4  0F A1 01 02 
   181)     19030.8  Rx     18EFCD1C  8  A1 01 00 00 00 00 00 00 
   182)     19031.2  Rx     18EFCD1C  4  0F A1 01 02 
   183)     19031.8  Rx     18EFCD1C  8  A1 01 00 00 00 00 00 00 
   184)     19032.2  Rx     18EFCD1C  4  0F A1 01 02 
   185)     19032.8  Rx     18EFCD1C  8  A1 01 00 00 00 00 00 00 
   186)     19033.4  Rx     18EFCD1C  8  A0 00 14 00 00 00 00 00 
   187)     19033.8  Rx     18EFCD1C  4  0F A1 01 02 
   188)     19034.4  Rx     18EF1CCD  8  A0 00 14 00 83 07 00 00 
   189)     19035.0  Rx     18EFCD1C  8  A1 01 00 00 00 00 00 00 
   190)     19035.5  Rx     18EFCD1C  8  A0 00 2A 00 00 00 00 00 
   191)     19036.0  Rx     18EFCD1C  4  0F A1 01 02 
   192)     19036.5  Rx     18EF1CCD  8  A0 00 2A 00 47 06 00 00 
   193)     19037.1  Rx     18EFCD1C  8  A1 01 00 00 00 00 00 00 
   194)     19037.7  Rx     18EFCD1C  8  A0 00 1B 00 00 00 00 00 
   195)     19038.1  Rx     18EFCD1C  4  0F A1 01 02 
   196)     19038.7  Rx     18EF1CCD  8  A0 00 1B 00 7C E4 03 00 
   197)     19039.2  Rx     18EFCD1C  8  A1 01 00 00 00 00 00 00 
   198)     19039.8  Rx     18EFCD1C  8  A0 00 00 00 00 00 00 00 
   199)     19040.3  Rx     18EFCD1C  4  0F A1 01 02 
   200)     19040.8  Rx     18EF1CCD  8  A0 00 00 00 04 00 00 00 
   201)     19041.4  Rx     18EFCD1C  8  A1 01 00 00 00 00 00 00 
   202)     19041.8  Rx     18EFCD1C  4  0F A1 01 02 
   203)     19042.4  Rx     18EFCD1C  8  A1 01 00 00 00 00 00 00 
   204)     19042.8  Rx     18EFCD1C  4  0F A1 01 02 
   205)     19043.4  Rx     18EFCD1C  8  A1 01 00 00 00 00 00 00 
   206)     19043.8  Rx     18EFCD1C  4  0F A1 01 02 
   207)     19044.4  Rx     18EFCD1C  8  A1 01 00 00 00 00 00 00 
   208)     19044.8  Rx     18EFCD1C  4  0F A1 01 02 
   209)     19045.4  Rx     18EFCD1C  8  A1 01 00 00 00 00 00 00 
   210)     19045.8  Rx     18EFCD1C  4  0F A1 01 02 
   211)     19046.4  Rx     18EFCD1C  8  A1 01 00 00 00 00 00 00 
   212)     19046.8  Rx     18EFCD1C  4  0F A1 01 02 
   213)     19047.4  Rx     18EFCD1C  8  A1 01 00 00 00 00 00 00 
   214)     19048.0  Rx     18EFCD1C  8  A0 00 14 00 00 00 00 00 
   215)     19048.4  Rx     18EFCD1C  4  0F A1 01 02 
   216)     19049.0  Rx     18EF1CCD  8  A0 00 14 00 83 07 00 00 
   217)     19049.6  Rx     18EFCD1C  8  A1 01 00 00 00 00 00 00 
   218)     19050.1  Rx     18EFCD1C  8  A0 00 2A 00 00 00 00 00 
   219)     19050.5  Rx     18EFCD1C  4  0F A1 01 02 
   220)     19051.1  Rx     18EF1CCD  8  A0 00 2A 00 4B 06 00 00 
   221)     19051.7  Rx     18EFCD1C  8  A1 01 00 00 00 00 00 00 
   222)     19052.3  Rx     18EFCD1C  8  A0 00 1B 00 00 00 00 00 
   223)     19052.7  Rx     18EFCD1C  4  0F A1 01 02 
   224)     19053.3  Rx     18EF1CCD  8  A0 00 1B 00 7C E4 03 00 
   225)     19053.8  Rx     18EFCD1C  8  A1 01 00 00 00 00 00 00 
   226)     19054.4  Rx     18EFCD1C  8  A0 00 00 00 00 00 00 00 
   227)     19054.8  Rx     18EFCD1C  4  0F A1 01 02 
   228)     19055.4  Rx     18EF1CCD  8  A0 00 00 00 04 00 00 00 
   229)     19056.0  Rx     18EFCD1C  8  A1 01 00 00 00 00 00 00 
   230)     19056.4  Rx     18EFCD1C  4  0F A1 01 02 
   231)     19057.0  Rx     18EFCD1C  8  A1 01 00 00 00 00 00 00 
   232)     19057.4  Rx     18EFCD1C  4  0F A1 01 02 
   233)     19058.0  Rx     18EFCD1C  8  A1 01 00 00 00 00 00 00 
   234)     19058.4  Rx     18EFCD1C  4  0F A1 01 02 
   235)     19059.0  Rx     18EFCD1C  8  A1 01 00 00 00 00 00 00 
   236)     19059.5  Rx     18FEF31C  8  F8 28 80 99 C4 CE 2C 89 
   237)     19060.1  Rx     18FEE81C  8  A8 3E 0E 00 00 00 2F 51 
   238)     19060.6  Rx     18FEE61C  8  E0 0E 0D 09 57 29 00 00 
   239)     19061.2  Rx     19F8021C  8  8D FC 6F 55 00 00 FF FF 
   240)     19061.7  Rx     18EFCD1C  4  0F A1 01 02 
   241)     19062.2  Rx     18EFCD1C  8  A1 01 00 00 00 00 00 00 
   242)     19062.8  Rx     19F8051C  8  60 2F 8D EE 50 38 D6 6D 
   243)     19063.3  Rx     19F8051C  8  61 1C 80 14 52 67 C9 A6 
   244)     19063.9  Rx     19F8051C  8  62 98 06 20 BB 74 41 F9 
   245)     19064.4  Rx     19F8051C  8  63 91 CB 02 40 2A 46 08 
   246)     19065.0  Rx     19F8051C  8  64 00 00 00 00 40 00 0D 
   247)     19065.6  Rx     19F8051C  8  65 52 00 92 00 FC 0F 00 
   248)     19066.1  Rx     19F8051C  8  66 00 01 AF 02 58 02 FF 
   249)     19066.6  Rx     18EFCD1C  4  0F A1 01 02 
   250)     19067.2  Rx     18EFCD1C  8  A1 01 00 00 00 00 00 00 
   251)     19067.6  Rx     18EFCD1C  4  0F A1 01 02 
   252)     19068.2  Rx     18EFCD1C  8  A1 01 00 00 00 00 00 00 
   253)     19068.7  Rx     18EFCD1C  8  A0 00 14 00 00 00 00 00 
   254)     19069.2  Rx     18EFCD1C  4  0F A1 01 02 
   255)     19069.8  Rx     18EF1CCD  8  A0 00 14 00 83 07 00 00 
   256)     19070.3  Rx     18EFCD1C  8  A1 01 00 00 00 00 00 00 
   257)     19070.9  Rx     18EFCD1C  8  A0 00 2A 00 00 00 00 00 
   258)     19071.3  Rx     18EFCD1C  4  0F A1 01 02 
   259)     19071.9  Rx     18EF1CCD  8  A0 00 2A 00 46 06 00 00 
   260)     19072.5  Rx     18EFCD1C  8  A1 01 00 00 00 00 00 00 
   261)     19073.1  Rx     18EFCD1C  8  A0 00 1B 00 00 00 00 00 
   262)     19073.5  Rx     18EFCD1C  4  0F A1 01 02 
   263)     19074.0  Rx     18EF1CCD  8  A0 00 1B 00 7C E4 03 00 
   264)     19074.6  Rx     18EFCD1C  8  A1 01 00 00 00 00 00 00 
   265)     19075.2  Rx     18EFCD1C  8  A0 00 00 00 00 00 00 00 
   266)     19075.6  Rx     18EFCD1C  4  0F A1 01 02 
   267)     19076.2  Rx     18EF1CCD  8  A0 00 00 00 04 00 00 00 
   268)     19076.8  Rx     18EFCD1C  8  A1 01 00 00 00 00 00 00 
   269)     19077.2  Rx     18EFCD1C  4  0F A1 01 02 
   270)     19077.8  Rx     18EFCD1C  8  A1 01 00 00 00 00 00 00 
   271)     19078.2  Rx     18EFCD1C  4  0F A1 01 02 
   272)     19078.8  Rx     18EFCD1C  8  A1 01 00 00 00 00 00 00 
   273)     19079.2  Rx     18EFCD1C  4  0F A1 01 02 
   274)     19079.8  Rx     18EFCD1C  8  A1 01 00 00 00 00 00 00 
   275)     19080.2  Rx     18EFCD1C  4  0F A1 01 02 
   276)     19080.8  Rx     18EFCD1C  8  A1 01 00 00 00 00 00 00 
   277)     19081.2  Rx     18EFCD1C  4  0F A1 01 02 
   278)     19081.8  Rx     18EFCD1C  8  A1 01 00 00 00 00 00 00 
   279)     19082.2  Rx     18EFCD1C  4  0F A1 01 02 
   280)     19082.8  Rx     18EFCD1C  8  A1 01 00 00 00 00 00 00 
   281)     19083.4  Rx     18EFCD1C  8  A0 00 14 00 00 00 00 00 
   282)     19083.8  Rx     18EFCD1C  4  0F A1 01 02 
   283)     19084.4  Rx     18EF1CCD  8  A0 00 14 00 82 07 00 00 
   284)     19084.9  Rx     18EFCD1C  8  A1 01 00 00 00 00 00 00 
   285)     19085.5  Rx     18EFCD1C  8  A0 00 2A 00 00 00 00 00 
   286)     19085.9  Rx     18EFCD1C  4  0F A1 01 02 
   287)     19086.5  Rx     18EF1CCD  8  A0 00 2A 00 49 06 00 00 
   288)     19087.1  Rx     18EFCD1C  8  A1 01 00 00 00 00 00 00 
   289)     19087.6  Rx     18EFCD1C  8  A0 00 1B 00 00 00 00 00 
   290)     19088.1  Rx     18EFCD1C  4  0F A1 01 02 
   291)     19088.7  Rx     18EF1CCD  8  A0 00 1B 00 7C E4 03 00 
   292)     19089.2  Rx     18EFCD1C  8  A1 01 00 00 00 00 00 00 
   293)     19089.8  Rx     18EFCD1C  8  A0 00 00 00 00 00 00 00 
   294)     19090.2  Rx     18EFCD1C  4  0F A1 01 02 
   295)     19090.8  Rx     18EF1CCD  8  A0 00 00 00 04 00 00 00 
   296)     19091.4  Rx     18EFCD1C  8  A1 01 00 00 00 00 00 00 
   297)     19091.8  Rx     18EFCD1C  4  0F A1 01 02 
   298)     19092.4  Rx     18EFCD1C  8  A1 01 00 00 00 00 00 00 
   299)     19092.8  Rx     18EFCD1C  4  0F A1 01 02 
   300)     19093.4  Rx     18EFCD1C  8  A1 01 00 00 00 00 00 00 
   301)     19093.8  Rx     18EFCD1C  4  0F A1 01 02 
   302)     19094.4  Rx     18EFCD1C  8  A1 01 00 00 00 00 00 00 
   303)     19094.8  Rx     18EFCD1C  4  0F A1 01 02 
   304)     19095.4  Rx     18EFCD1C  8  A1 01 00 00 00 00 00 00 
   305)     19095.8  Rx     18EFCD1C  4  01 82 89 00 
   306)     19096.2  Rx     18EFCD1C  4  0F A1 01 02 
   307)     19096.6  Rx     18EF1CCD  4  01 10 82 01 
   308)     19097.2  Rx     18EFCD1C  8  A1 01 00 00 00 00 00 00 
   309)     19097.6  Rx     18EFCD1C  4  0F A1 01 02 
   310)     19098.2  Rx     18EFCD1C  8  A1 01 00 00 00 00 00 00 
   311)     19098.8  Rx     18EFCD1C  8  A0 00 14 00 00 00 00 00 
   312)     19099.2  Rx     18EFCD1C  4  0F A1 01 02 
   313)     19099.8  Rx     18EF1CCD  8  A0 00 14 00 83 07 00 00 
   314)     19100.3  Rx     18EFCD1C  8  A1 01 00 00 00 00 00 00 
   315)     19100.9  Rx     18EFCD1C  8  A0 00 2A 00 00 00 00 00 
   316)     19101.4  Rx     18EFCD1C  4  0F A1 01 02 
   317)     19101.9  Rx     18EF1CCD  8  A0 00 2A 00 48 06 00 00 
   318)     19102.5  Rx     18EFCD1C  8  A1 01 00 00 00 00 00 00 
   319)     19103.1  Rx     18EFCD1C  8  A0 00 1B 00 00 00 00 00 
   320)     19103.5  Rx     18EFCD1C  4  0F A1 01 02 
   321)     19104.1  Rx     18EF1CCD  8  A0 00 1B 00 7C E4 03 00 
   322)     19104.7  Rx     18EFCD1C  8  A1 01 00 00 00 00 00 00 
   323)     19105.2  Rx     18EFCD1C  8  A0 00 00 00 00 00 00 00 
   324)     19105.6  Rx     18EFCD1C  4  0F A1 01 02 
   325)     19106.2  Rx     18EF1CCD  8  A0 00 00 00 04 00 00 00 
   326)     19106.8  Rx     18EFCD1C  8  A1 01 00 00 00 00 00 00 
   327)     19107.2  Rx     18EFCD1C  4  0F A1 01 02 
   328)     19107.8  Rx     18EFCD1C  8  A1 01 00 00 00 00 00 00 
   329)     19108.2  Rx     18EFCD1C  4  0F A1 01 02 
   330)     19108.8  Rx     18EFCD1C  8  A1 01 00 00 00 00 00 00 
   331)     19109.2  Rx     18EFCD1C  4  0F A1 01 02 
   332)     19109.8  Rx     18EFCD1C  8  A1 01 00 00 00 00 00 00 
   333)     19110.2  Rx     18EFCD1C  4  0F A1 01 02 
   334)     19110.8  Rx     18EFCD1C  8  A1 01 00 00 00 00 00 00 
   335)     19111.2  Rx     18EFCD1C  4  0F A1 01 02 
   336)     19111.8  Rx     18EFCD1C  8  A1 01 00 00 00 00 00 00 
   337)     19112.2  Rx     18EFCD1C  4  0F A1 01 02 
   338)     19112.8  Rx     18EFCD1C  8  A1 01 00 00 00 00 00 00 
   339)     19113.4  Rx     18EFCD1C  8  A0 00 14 00 00 00 00 00 
   340)     19113.8  Rx     18EFCD1C  4  0F A1 01 02 
   341)     19114.4  Rx     18EF1CCD  8  A0 00 14 00 83 07 00 00 
   342)     19114.9  Rx     18EFCD1C  8  A1 01 00 00 00 00 00 00 
   343)     19115.5  Rx     18EFCD1C  8  A0 00 2A 00 00 00 00 00 
   344)     19115.9  Rx     18EFCD1C  4  0F A1 01 02 
   345)     19116.5  Rx     18EF1CCD  8  A0 00 2A 00 45 06 00 00 
   346)     19117.1  Rx     18EFCD1C  8  A1 01 00 00 00 00 00 00 
   347)     19117.7  Rx     18EFCD1C  8  A0 00 1B 00 00 00 00 00 
   348)     19118.1  Rx     18EFCD1C  4  0F A1 01 02 
   349)     19118.7  Rx     18EF1CCD  8  A0 00 1B 00 7C E4 03 00 
   350)     19119.2  Rx     18EFCD1C  8  A1 01 00 00 00 00 00 00 
   351)     19119.8  Rx     18EFCD1C  8  A0 00 00 00 00 00 00 00 
   352)     19120.3  Rx     18EFCD1C  4  0F A1 01 02 
   353)     19120.8  Rx     18EF1CCD  8  A0 00 00 00 04 00 00 00 
   354)     19121.4  Rx     18EFCD1C  8  A1 01 00 00 00 00 00 00 
   355)     19121.8  Rx     18EFCD1C  4  0F A1 01 02 
   356)     19122.4  Rx     18EFCD1C  8  A1 01 00 00 00 00 00 00 
   357)     19122.8  Rx     18EFCD1C  4  0F A1 01 02 
   358)     19123.4  Rx     18EFCD1C  8  A1 01 00 00 00 00 00 00 
   359)     19123.8  Rx     18EFCD1C  4  0F A1 01 02 
   360)     19124.4  Rx     18EFCD1C  8  A1 01 00 00 00 00 00 00 
   361)     19124.8  Rx     18EFCD1C  4  0F A1 01 02 
   362)     19125.4  Rx     18EFCD1C  8  A1 01 00 00 00 00 00 00 
   363)     19125.8  Rx     18EFCD1C  4  0F A1 01 02 
   364)     19126.4  Rx     18EFCD1C  8  A1 01 00 00 00 00 00 00 
   365)     19126.8  Rx     18EF8F1C  4  01 43 54 00 
   366)     19127.2  Rx     18EFCD1C  4  0F A1 01 02 
   367)     19127.8  Rx     18EFCD1C  8  A1 01 00 00 00 00 00 00 
   368)     19128.2  Rx     18EF1C8F  4  01 02 43 11 
   369)     19128.8  Rx     18EFCD1C  8  A0 00 14 00 00 00 00 00 
   370)     19129.2  Rx     18EFCD1C  4  0F A1 01 02 
   371)     19129.8  Rx     18EF1CCD  8  A0 00 14 00 83 07 00 00 
   372)     19130.4  Rx     18EFCD1C  8  A1 01 00 00 00 00 00 00 
   373)     19131.0  Rx     18EFCD1C  8  A0 00 2A 00 00 00 00 00 
   374)     19131.3  Rx     18EFCD1C  4  0F A1 01 02 
   375)     19131.9  Rx     18EF1CCD  8  A0 00 2A 00 49 06 00 00 
   376)     19132.5  Rx     18EFCD1C  8  A1 01 00 00 00 00 00 00 
   377)     19133.1  Rx     18EFCD1C  8  A0 00 1B 00 00 00 00 00 
   378)     19133.5  Rx     18EFCD1C  4  0F A1 01 02 
   379)     19134.1  Rx     18EF1CCD  8  A0 00 1B 00 7C E4 03 00 
   380)     19134.7  Rx     18EFCD1C  8  A1 01 00 00 00 00 00 00 
   381)     19135.2  Rx     18EFCD1C  8  A0 00 00 00 00 00 00 00 
   382)     19135.6  Rx     18EFCD1C  4  0F A1 01 02 
   383)     19136.2  Rx     18EF1CCD  8  A0 00 00 00 04 00 00 00 
   384)     19136.8  Rx     18EFCD1C  8  A1 01 00 00 00 00 00 00 
   385)     19137.2  Rx     18EFCD1C  4  0F A1 01 02 
   386)     19137.8  Rx     18EFCD1C  8  A1 01 00 00 00 00 00 00 
   387)     19138.3  Rx     18EFCD1C  4  0F A1 01 02 
   388)     19138.8  Rx     18EFCD1C  8  A1 01 00 00 00 00 00 00 
   389)     19139.2  Rx     18EFCD1C  4  0F A1 01 02 
   390)     19139.8  Rx     18EFCD1C  8  A1 01 00 00 00 00 00 00 
   391)     19140.3  Rx     18FEF31C  8  F8 28 80 99 C4 CE 2C 89 
   392)     19140.9  Rx     18FEE81C  8  A8 3E 13 00 00 00 2F 51 
   393)     19141.5  Rx     18FEE61C  8  E4 0E 0D 09 57 29 00 00 
   394)     19142.0  Rx     19F8021C  8  92 FC 6F 55 00 00 FF FF 
   395)     19142.5  Rx     18EFCD1C  4  0F A1 01 02 
   396)     19143.0  Rx     18EFCD1C  8  A1 01 00 00 00 00 00 00 
   397)     19143.6  Rx     19F8051C  8  80 2F 92 EE 50 48 FD 6D 
   398)     19144.1  Rx     19F8051C  8  81 1C C0 B2 AC 4D C9 A6 
   399)     19144.7  Rx     19F8051C  8  82 98 06 C0 D0 EF 6B F9 
   400)     19145.2  Rx     19F8051C  8  83 91 CB 02 60 40 46 08 
   401)     19145.8  Rx     19F8051C  8  84 00 00 00 00 40 00 0D 
   402)     19146.4  Rx     19F8051C  8  85 52 00 92 00 FC 0F 00 
   403)     19146.9  Rx     19F8051C  8  86 00 01 AF 02 BC 02 FF 
   404)     19147.4  Rx     18EFCD1C  4  0F A1 01 02 
   405)     19148.0  Rx     18EFCD1C  8  A1 01 00 00 00 00 00 00 
   406)     19148.4  Rx     18EFCD1C  4  0F A1 01 02 
   407)     19149.0  Rx     18EFCD1C  8  A1 01 00 00 00 00 00 00 
   408)     19149.6  Rx     18EFCD1C  8  A0 00 14 00 00 00 00 00 
   409)     19150.0  Rx     18EFCD1C  4  0F A1 01 02 
   410)     19150.5  Rx     18EF1CCD  8  A0 00 14 00 82 07 00 00 
   411)     19151.1  Rx     18EFCD1C  8  A1 01 00 00 00 00 00 00 
   412)     19151.7  Rx     18EFCD1C  8  A0 00 2A 00 00 00 00 00 
   413)     19152.1  Rx     18EFCD1C  4  0F A1 01 02 
   414)     19152.7  Rx     18EF1CCD  8  A0 00 2A 00 44 06 00 00 
   415)     19153.3  Rx     18EFCD1C  8  A1 01 00 00 00 00 00 00 
   416)     19153.9  Rx     18EFCD1C  8  A0 00 1B 00 00 00 00 00 
   417)     19154.3  Rx     18EFCD1C  4  0F A1 01 02 
   418)     19154.8  Rx     18EF1CCD  8  A0 00 1B 00 7C E4 03 00 
   419)     19155.4  Rx     18EFCD1C  8  A1 01 00 00 00 00 00 00 
   420)     19156.0  Rx     18EFCD1C  8  A0 00 00 00 00 00 00 00 
   421)     19156.4  Rx     18EFCD1C  4  0F A1 01 02 
   422)     19157.0  Rx     18EF1CCD  8  A0 00 00 00 04 00 00 00 
   423)     19157.6  Rx     18EFCD1C  8  A1 01 00 00 00 00 00 00 
   424)     19158.0  Rx     18EFCD1C  4  0F A1 01 02 
   425)     19158.5  Rx     18EFCD1C  8  A1 01 00 00 00 00 00 00 
   426)     19159.0  Rx     18EFCD1C  4  0F A1 01 02 
   427)     19159.6  Rx     18EFCD1C  8  A1 01 00 00 00 00 00 00 
   428)     19160.0  Rx     18EFCD1C  4  0F A1 01 02 
   429)     19160.6  Rx     18EFCD1C  8  A1 01 00 00 00 00 00 00 
   430)     19161.0  Rx     18EFCD1C  4  0F A1 01 02 
   431)     19161.6  Rx     18EFCD1C  8  A1 01 00 00 00 00 00 00 
   432)     19162.0  Rx     18EFCD1C  4  0F A1 01 02 
   433)     19162.6  Rx     18EFCD1C  8  A1 01 00 00 00 00 00 00 
   434)     19163.0  Rx     18EFCD1C  4  0F A1 01 02 
   435)     19163.6  Rx     18EFCD1C  8  A1 01 00 00 00 00 00 00 
   436)     19164.1  Rx     18EFCD1C  8  A0 00 14 00 00 00 00 00 
   437)     19164.6  Rx     18EFCD1C  4  0F A1 01 02 
   438)     19165.1  Rx     18EF1CCD  8  A0 00 14 00 84 07 00 00 
   439)     19165.7  Rx     18EFCD1C  8  A1 01 00 00 00 00 00 00 
   440)     19166.3  Rx     18EFCD1C  8  A0 00 2A 00 00 00 00 00 
   441)     19166.7  Rx     18EFCD1C  4  0F A1 01 02 
   442)     19167.2  Rx     18EF1CCD  8  A0 00 2A 00 45 06 00 00 
   443)     19167.8  Rx     18EFCD1C  8  A1 01 00 00 00 00 00 00 
   444)     19168.4  Rx     18EFCD1C  8  A0 00 1B 00 00 00 00 00 
   445)     19168.9  Rx     18EFCD1C  4  0F A1 01 02 
   446)     19169.4  Rx     18EF1CCD  8  A0 00 1B 00 7C E4 03 00 
   447)     19170.0  Rx     18EFCD1C  8  A1 01 00 00 00 00 00 00 
   448)     19170.6  Rx     18EFCD1C  8  A0 00 00 00 00 00 00 00 
   449)     19171.0  Rx     18EFCD1C  4  0F A1 01 02 
   450)     19171.6  Rx     18EF1CCD  8  A0 00 00 00 04 00 00 00 
   451)     19172.1  Rx     18EFCD1C  8  A1 01 00 00 00 00 00 00 
   452)     19172.6  Rx     18EFCD1C  4  0F A1 01 02 
   453)     19173.1  Rx     18EFCD1C  8  A1 01 00 00 00 00 00 00 
   454)     19173.6  Rx     18EFCD1C  4  0F A1 01 02 
   455)     19174.2  Rx     18EFCD1C  8  A1 01 00 00 00 00 00 00 
   456)     19174.6  Rx     18EFCD1C  4  0F A1 01 02 
   457)     19175.1  Rx     18EFCD1C  8  A1 01 00 00 00 00 00 00 
   458)     19175.6  Rx     18EFCD1C  4  0F A1 01 02 
   459)     19176.2  Rx     18EFCD1C  8  A1 01 00 00 00 00 00 00 
   460)     19176.6  Rx     18EFCD1C  4  0F A1 01 00 
   461)     19177.1  Rx     18EFCD1C  8  A0 00 14 00 00 00 00 00 
   462)     19177.7  Rx     18EFCD1C  8  A0 00 2A 00 00 00 00 00 
   463)     19178.3  Rx     18EF1CCD  8  A0 00 14 00 83 07 00 00 
   464)     19178.8  Rx     18EF1CCD  8  A0 00 2A 00 46 06 00 00 
   465)     19179.4  Rx     18EFCD1C  8  A0 00 1B 00 00 00 00 00 
   466)     19180.0  Rx     18EFCD1C  8  A0 00 00 00 00 00 00 00 
   467)     19180.6  Rx     18EF1CCD  8  A0 00 1B 00 7C E4 03 00 
   468)     19181.2  Rx     18EF1CCD  8  A0 00 00 00 04 00 00 00 
   469)     19181.7  Rx     18EFCD1C  8  A0 00 14 00 00 00 00 00 
   470)     19182.3  Rx     18EFCD1C  8  A0 00 2A 00 00 00 00 00 
   471)     19182.9  Rx     18EF1CCD  8  A0 00 14 00 83 07 00 00 
   472)     19183.5  Rx     18EF1CCD  8  A0 00 2A 00 44 06 00 00 
   473)     19184.0  Rx     18EFCD1C  8  A0 00 1B 00 00 00 00 00 
   474)     19184.6  Rx     18EFCD1C  8  A0 00 00 00 00 00 00 00 
   475)     19185.2  Rx     18EF1CCD  8  A0 00 1B 00 7C E4 03 00 
   476)     19185.8  Rx     18EF1CCD  8  A0 00 00 00 04 00 00 00 
   477)     19186.3  Rx     18EFCD1C  8  A0 00 14 00 00 00 00 00 
   478)     19186.9  Rx     18EFCD1C  8  A0 00 2A 00 00 00 00 00 
   479)     19187.5  Rx     18EF1CCD  8  A0 00 14 00 84 07 00 00 
   480)     19188.1  Rx     18EF1CCD  8  A0 00 2A 00 42 06 00 00 
   481)     19188.7  Rx     18EFCD1C  8  A0 00 1B 00 00 00 00 00 
   482)     19189.2  Rx     18EFCD1C  8  A0 00 00 00 00 00 00 00 
   483)     19189.8  Rx     18EF1CCD  8  A0 00 1B 00 7C E4 03 00 
   484)     19190.4  Rx     18EF1CCD  8  A0 00 00 00 04 00 00 00 
   485)     19190.9  Rx     18FEF31C  8  F8 28 80 99 C4 CE 2C 89 
   486)     19191.5  Rx     18FEE81C  8  A8 3E 0C 00 00 00 2F 51 
   487)     19192.1  Rx     18FEE61C  8  E8 0E 0D 09 57 29 00 00 
   488)     19192.6  Rx     19F8021C  8  97 FC 6F 55 00 00 FF FF 
   489)     19193.2  Rx     19F8051C  8  A0 2F 97 EE 50 58 24 6E 
   490)     19193.7  Rx     19F8051C  8  A1 1C C0 00 A3 4A C9 A6 
   491)     19194.3  Rx     19F8051C  8  A2 98 06 80 2D 34 66 F9 
   492)     19194.8  Rx     19F8051C  8  A3 91 CB 02 C7 52 46 08 
   493)     19195.4  Rx     19F8051C  8  A4 00 00 00 00 40 00 0D 
   494)     19196.0  Rx     19F8051C  8  A5 52 00 92 00 FC 0F 00 
   495)     19196.5  Rx     19F8051C  8  A6 00 01 AF 02 20 03 FF 
   496)     19197.1  Rx     18EFCD1C  8  A0 00 14 00 00 00 00 00 
   497)     19197.7  Rx     18EFCD1C  8  A0 00 2A 00 00 00 00 00 
   498)     19198.3  Rx     18EF1CCD  8  A0 00 14 00 83 07 00 00 
   499)     19198.8  Rx     18EF1CCD  8  A0 00 2A 00 42 06 00 00 
   500)     19199.4  Rx     18EFCD1C  8  A0 00 1B 00 00 00 00 00 
   501)     19200.0  Rx     18EFCD1C  8  A0 00 00 00 00 00 00 00 
   502)     19200.6  Rx     18EF1CCD  8  A0 00 1B 00 7C E4 03 00 
   503)     19201.2  Rx     18EF1CCD  8  A0 00 00 00 04 00 00 00 
   504)     19201.7  Rx     18EFCD1C  8  A0 00 14 00 00 00 00 00 
   505)     19202.3  Rx     18EFCD1C  8  A0 00 2A 00 00 00 00 00 
   506)     19202.9  Rx     18EF1CCD  8  A0 00 14 00 82 07 00 00 
   507)     19203.4  Rx     18EF1CCD  8  A0 00 2A 00 41 06 00 00 
   508)     19204.0  Rx     18EFCD1C  8  A0 00 1B 00 00 00 00 00 
   509)     19204.6  Rx     18EFCD1C  8  A0 00 00 00 00 00 00 00 
   510)     19205.2  Rx     18EF1CCD  8  A0 00 1B 00 7C E4 03 00 
   511)     19205.8  Rx     18EF1CCD  8  A0 00 00 00 04 00 00 00 
   512)     19206.2  Rx     18EFCD1C  4  01 83 89 00 
   513)     19206.8  Rx     18EFCD1C  8  A0 00 14 00 00 00 00 00 
   514)     19207.2  Rx     18EF1CCD  4  01 11 83 01 
   515)     19207.8  Rx     18EF1CCD  8  A0 00 14 00 83 07 00 00 
   516)     19208.4  Rx     18EFCD1C  8  A0 00 2A 00 00 00 00 00 
   517)     19208.9  Rx     18EFCD1C  8  A0 00 1B 00 00 00 00 00 
   518)     19209.5  Rx     18EF1CCD  8  A0 00 2A 00 43 06 00 00 
   519)     19210.1  Rx     18EF1CCD  8  A0 00 1B 00 7C E4 03 00 
   520)     19210.7  Rx     18EFCD1C  8  A0 00 00 00 00 00 00 00 
   521)     19211.3  Rx     18EFCD1C  8  A0 00 14 00 00 00 00 00 
   522)     19211.8  Rx     18EF1CCD  8  A0 00 00 00 04 00 00 00 
   523)     19212.4  Rx     18EF1CCD  8  A0 00 14 00 83 07 00 00 
   524)     19213.0  Rx     18EFCD1C  8  A0 00 2A 00 00 00 00 00 
   525)     19213.6  Rx     18EFCD1C  8  A0 00 1B 00 00 00 00 00 
   526)     19214.1  Rx     18EF1CCD  8  A0 00 2A 00 45 06 00 00 
   527)     19214.7  Rx     18EF1CCD  8  A0 00 1B 00 7C E4 03 00 
   528)     19215.3  Rx     18EFCD1C  8  A0 00 00 00 00 00 00 00 
   529)     19215.9  Rx     18EFCD1C  8  A0 00 14 00 00 00 00 00 
   530)     19216.4  Rx     18EF1CCD  8  A0 00 00 00 04 00 00 00 
   531)     19217.0  Rx     18EF1CCD  8  A0 00 14 00 83 07 00 00 
   532)     19217.6  Rx     18EFCD1C  8  A0 00 2A 00 00 00 00 00 
   533)     19218.2  Rx     18EFCD1C  8  A0 00 1B 00 00 00 00 00 
   534)     19218.7  Rx     18EF1CCD  8  A0 00 2A 00 43 06 00 00 
   535)     19219.3  Rx     18EF1CCD  8  A0 00 1B 00 7C E4 03 00 
   536)     19219.9  Rx     18EFCD1C  8  A0 00 00 00 00 00 00 00 
   537)     19220.4  Rx     18FEF31C  8  F6 28 80 99 C5 CE 2C 89 
   538)     19221.0  Rx     18EF1CCD  8  A0 00 00 00 04 00 00 00 
   539)     19221.6  Rx     18FEE81C  8  A8 3E 0D 00 00 00 2E 51 
   540)     19222.1  Rx     18FEE61C  8  EC 0E 0D 09 57 29 00 00 
   541)     19222.7  Rx     19F8021C  8  9C FC 6F 55 00 00 FF FF 
   542)     19223.2  Rx     19F8051C  8  C0 2F 9C EE 50 68 4B 6E 
   543)     19223.8  Rx     19F8051C  8  C1 1C 00 20 3F 02 C9 A6 
   544)     19224.3  Rx     19F8051C  8  C2 98 06 00 13 C2 81 F9 
   545)     19224.9  Rx     19F8051C  8  C3 91 CB 02 F5 D4 45 08 
   546)     19225.4  Rx     19F8051C  8  C4 00 00 00 00 40 00 0D 
   547)     19226.0  Rx     19F8051C  8  C5 52 00 92 00 FC 0F 00 
   548)     19226.6  Rx     19F8051C  8  C6 00 01 AF 02 F4 01 FF 
   549)     19227.0  Rx     18EF8F1C  4  01 44 54 00 
   550)     19227.6  Rx     18EFCD1C  8  A0 00 14 00 00 00 00 00 
   551)     19228.1  Rx     18EF1C8F  4  01 03 44 11 
   552)     19228.6  Rx     18EF1CCD  8  A0 00 14 00 82 07 00 00 
   553)     19229.2  Rx     18EFCD1C  8  A0 00 2A 00 00 00 00 00 
   554)     19229.8  Rx     18EFCD1C  8  A0 00 1B 00 00 00 00 00 
   555)     19230.4  Rx     18EF1CCD  8  A0 00 2A 00 41 06 00 00 
   556)     19230.9  Rx     18EF1CCD  8  A0 00 1B 00 7C E4 03 00 
   557)     19231.5  Rx     18EFCD1C  8  A0 00 00 00 00 00 00 00 
   558)     19232.1  Rx     18EFCD1C  8  A0 00 14 00 00 00 00 00 
   559)     19232.7  Rx     18EF1CCD  8  A0 00 00 00 04 00 00 00 
   560)     19233.3  Rx     18EF1CCD  8  A0 00 14 00 82 07 00 00 
   561)     19233.8  Rx     18EFCD1C  8  A0 00 2A 00 00 00 00 00 
   562)     19234.4  Rx     18EFCD1C  8  A0 00 1B 00 00 00 00 00 
   563)     19235.0  Rx     18EF1CCD  8  A0 00 2A 00 41 06 00 00 
   564)     19235.6  Rx     18EF1CCD  8  A0 00 1B 00 7C E4 03 00 
   565)     19236.2  Rx     18EFCD1C  8  A0 00 00 00 00 00 00 00 
   566)     19236.7  Rx     18EFCD1C  8  A0 00 14 00 00 00 00 00 
   567)     19237.3  Rx     18EF1CCD  8  A0 00 00 00 04 00 00 00 
   568)     19237.9  Rx     18EF1CCD  8  A0 00 14 00 83 07 00 00 
   569)     19238.5  Rx     18EFCD1C  8  A0 00 2A 00 00 00 00 00 
   570)     19239.0  Rx     18EFCD1C  8  A0 00 1B 00 00 00 00 00 
   571)     19239.6  Rx     18EF1CCD  8  A0 00 2A 00 3F 06 00 00 
   572)     19240.2  Rx     18EF1CCD  8  A0 00 1B 00 7C E4 03 00 
   573)     19240.8  Rx     18EFCD1C  8  A0 00 00 00 00 00 00 00 
   574)     19241.3  Rx     18EFCD1C  8  A0 00 14 00 00 00 00 00 
   575)     19241.9  Rx     18EF1CCD  8  A0 00 00 00 04 00 00 00 
   576)     19242.5  Rx     18EF1CCD  8  A0 00 14 00 83 07 00 00 
   577)     19243.1  Rx     18EFCD1C  8  A0 00 2A 00 00 00 00 00 
   578)     19243.6  Rx     18EFCD1C  8  A0 00 1B 00 00 00 00 00 
   579)     19244.2  Rx     18EF1CCD  8  A0 00 2A 00 41 06 00 00 
   580)     19244.8  Rx     18EF1CCD  8  A0 00 1B 00 7C E4 03 00 
   581)     19245.4  Rx     18EFCD1C  8  A0 00 00 00 00 00 00 00 
   582)     19245.9  Rx     18EFCD1C  8  A0 00 14 00 00 00 00 00 
   583)     19246.5  Rx     18EF1CCD  8  A0 00 00 00 04 00 00 00 
   584)     19247.1  Rx     18EF1CCD  8  A0 00 14 00 83 07 00 00 
   585)     19247.7  Rx     18EFCD1C  8  A0 00 2A 00 00 00 00 00 
   586)     19248.2  Rx     18EFCD1C  8  A0 00 1B 00 00 00 00 00 
   587)     19248.8  Rx     18EF1CCD  8  A0 00 2A 00 42 06 00 00 
   588)     19249.4  Rx     18EF1CCD  8  A0 00 1B 00 7C E4 03 00 
   589)     19250.0  Rx     18EFCD1C  8  A0 00 00 00 00 00 00 00 
   590)     19250.5  Rx     18FEF31C  8  F6 28 80 99 C5 CE 2C 89 
   591)     19251.1  Rx     18EF1CCD  8  A0 00 00 00 04 00 00 00 
   592)     19251.6  Rx     18FEE81C  8  A8 3E 0E 00 00 00 2E 51 
   593)     19252.2  Rx     18FEE61C  8  00 0F 0D 09 57 29 00 00 
   594)     19252.8  Rx     19F0101C  8  A1 00 EE 50 78 72 6E 1C 
   595)     19253.3  Rx     19F8021C  8  A1 FC 6F 55 00 00 FF FF 
   596)     19253.9  Rx     19F8051C  8  E0 2F A1 EE 50 78 72 6E 
   597)     19254.4  Rx     19F8051C  8  E1 1C C0 C0 92 EE C8 A6 
   598)     19255.0  Rx     19F8051C  8  E2 98 06 E0 06 0F AA F9 
   599)     19255.6  Rx     19F8051C  8  E3 91 CB 02 FD 99 45 08 
   600)     19256.2  Rx     19F8051C  8  E4 00 00 00 00 40 00 0D 
   601)     19256.7  Rx     19F8051C  8  E5 52 00 92 00 FC 0F 00 
   602)     19257.3  Rx     19F8051C  8  E6 00 01 AF 02 58 02 FF 
   603)     19257.9  Rx     18EFCD1C  8  A0 00 14 00 00 00 00 00 
   604)     19258.4  Rx     18EFCD1C  8  A0 00 2A 00 00 00 00 00 
   605)     19259.0  Rx     18EF1CCD  8  A0 00 14 00 82 07 00 00 
   606)     19259.6  Rx     18EF1CCD  8  A0 00 2A 00 44 06 00 00 
   607)     19260.2  Rx     18EFCD1C  8  A0 00 1B 00 00 00 00 00 
   608)     19260.7  Rx     18EFCD1C  8  A0 00 00 00 00 00 00 00 
   609)     19261.3  Rx     18EF1CCD  8  A0 00 1B 00 7C E4 03 00 
   610)     19261.9  Rx     18EF1CCD  8  A0 00 00 00 04 00 00 00 
   611)     19262.5  Rx     18EFCD1C  8  A0 00 14 00 00 00 00 00 
   612)     19263.0  Rx     18EFCD1C  8  A0 00 2A 00 00 00 00 00 
   613)     19263.6  Rx     18EF1CCD  8  A0 00 14 00 83 07 00 00 
   614)     19264.2  Rx     18EF1CCD  8  A0 00 2A 00 43 06 00 00 
   615)     19264.8  Rx     18EFCD1C  8  A0 00 1B 00 00 00 00 00 
   616)     19265.4  Rx     18EFCD1C  8  A0 00 00 00 00 00 00 00 
   617)     19265.9  Rx     18EF1CCD  8  A0 00 1B 00 7C E4 03 00 
   618)     19266.5  Rx     18EF1CCD  8  A0 00 00 00 04 00 00 00 
   619)     19266.9  Rx     18EFCD1C  4  01 84 89 00 
   620)     19267.5  Rx     18EFCD1C  8  A0 00 14 00 00 00 00 00 
   621)     19267.9  Rx     18EF1CCD  4  01 12 84 01 
   622)     19268.5  Rx     18EF1CCD  8  A0 00 14 00 83 07 00 00 
   623)     19269.0  Rx     18EFCD1C  8  A0 00 2A 00 00 00 00 00 
   624)     19269.6  Rx     18EFCD1C  8  A0 00 1B 00 00 00 00 00 
   625)     19270.2  Rx     18EF1CCD  8  A0 00 2A 00 42 06 00 00 
   626)     19270.8  Rx     18EF1CCD  8  A0 00 1B 00 7C E4 03 00 
   627)     19271.3  Rx     18EFCD1C  8  A0 00 00 00 00 00 00 00 
   628)     19271.9  Rx     18EFCD1C  8  A0 00 14 00 00 00 00 00 
   629)     19272.5  Rx     18EF1CCD  8  A0 00 00 00 04 00 00 00 
   630)     19273.1  Rx     18EF1CCD  8  A0 00 14 00 82 07 00 00 
   631)     19273.6  Rx     18EFCD1C  8  A0 00 2A 00 00 00 00 00 
   632)     19274.2  Rx     18EFCD1C  8  A0 00 1B 00 00 00 00 00 
   633)     19274.8  Rx     18EF1CCD  8  A0 00 2A 00 41 06 00 00 
   634)     19275.4  Rx     18EF1CCD  8  A0 00 1B 00 7C E4 03 00 
   635)     19275.9  Rx     18EFCD1C  8  A0 00 00 00 00 00 00 00 
   636)     19276.5  Rx     18EFCD1C  8  A0 00 14 00 00 00 00 00 
   637)     19277.1  Rx     18EF1CCD  8  A0 00 00 00 04 00 00 00 
   638)     19277.7  Rx     18EF1CCD  8  A0 00 14 00 83 07 00 00 
   639)     19278.2  Rx     18EFCD1C  8  A0 00 2A 00 00 00 00 00 
   640)     19278.8  Rx     18EFCD1C  8  A0 00 1B 00 00 00 00 00 
   641)     19279.4  Rx     18EF1CCD  8  A0 00 2A 00 41 06 00 00 
   642)     19280.0  Rx     18EF1CCD  8  A0 00 1B 00 7C E4 03 00 
   643)     19280.6  Rx     18EFCD1C  8  A0 00 00 00 00 00 00 00 
   644)     19281.1  Rx     18FEF31C  8  F6 28 80 99 C5 CE 2C 89 
   645)     19281.7  Rx     18EF1CCD  8  A0 00 00 00 04 00 00 00 
   646)     19282.2  Rx     18FEE81C  8  A8 3E 0F 00 00 00 2E 51 
   647)     19282.8  Rx     18FEE61C  8  04 0F 0D 09 57 29 00 00 
   648)     19283.4  Rx     19F8021C  8  A6 FC 6F 55 00 00 FF FF 
   649)     19284.0  Rx     18EFCD1C  8  A0 00 1B 00 00 00 00 00 
   650)     19284.4  Rx     18EFCD1C  4  0F 33 00 00 
   651)     19285.0  Rx     18EF1CCD  8  A0 00 1B 00 7C E4 03 00 
   652)     19285.3  Rx     18EF1CCD  2  33 16 
   653)     19285.7  Rx     18EFCD1C  4  0F A1 01 02 
   654)     19286.3  Rx     18EFCD1C  8  A1 01 00 00 00 00 00 00 
   655)     19286.7  Rx     18EF8F1C  4  0F 33 00 00 
   656)     19287.2  Rx     18EF8F1C  5  0F C9 00 00 00 
   657)     19287.5  Rx     18EF1C8F  2  33 16 
   658)     19288.0  Rx     18EF8F1C  5  0F C9 00 00 00 
   659)     19288.4  Rx     18EF8F1C  5  0F C9 00 00 00 
   660)     19289.0  Rx     18EFCD1C  8  A0 00 00 00 00 00 00 00 
   661)     19289.5  Rx     18EFCD1C  4  0F A1 01 02 
   662)     19290.0  Rx     18EF1CCD  8  A0 00 00 00 04 00 00 00 
   663)     19290.6  Rx     18EFCD1C  8  A1 01 00 00 00 00 00 00 
   664)     19291.0  Rx     18EFCD1C  4  0F A1 01 02 
   665)     19291.6  Rx     18EFCD1C  8  A1 01 00 00 00 00 00 00 
   666)     19292.0  Rx     18EFCD1C  4  0F A1 01 02 
   667)     19292.6  Rx     18EFCD1C  8  A1 01 00 00 00 00 00 00 
   668)     19293.1  Rx     18EFCD1C  4  0F A1 01 02 
   669)     19293.6  Rx     18EFCD1C  8  A1 01 00 00 00 00 00 00 
   670)     19294.1  Rx     18EFCD1C  4  0F A1 01 02 
   671)     19294.7  Rx     18EFCD1C  8  A1 01 00 00 00 00 00 00 
   672)     19295.1  Rx     18EF8F1C  5  0F C9 00 00 00 
   673)     19295.5  Rx     18EFCD1C  4  0F A1 01 02 
   674)     19296.1  Rx     18EFCD1C  8  A1 01 00 00 00 00 00 00 
   675)     19296.5  Rx     18EFCD1C  4  0F A1 01 02 
   676)     19297.1  Rx     18EFCD1C  8  A1 01 00 00 00 00 00 00 
   677)     19297.7  Rx     18EFCD1C  8  A0 00 14 00 00 00 00 00 
   678)     19298.2  Rx     18EFCD1C  4  0F A1 01 02 
   679)     19298.7  Rx     18EF1CCD  8  A0 00 14 00 83 07 00 00 
   680)     19299.3  Rx     18EFCD1C  8  A1 01 00 00 00 00 00 00 
   681)     19299.9  Rx     18EFCD1C  8  A0 00 2A 00 00 00 00 00 
   682)     19300.3  Rx     18EFCD1C  4  0F A1 01 02 
   683)     19300.9  Rx     18EF1CCD  8  A0 00 2A 00 44 06 00 00 
   684)     19301.4  Rx     18EFCD1C  8  A1 01 00 00 00 00 00 00 
   685)     19302.0  Rx     18EFCD1C  8  A0 00 1B 00 00 00 00 00 
   686)     19302.5  Rx     18EFCD1C  4  0F A1 01 02 
   687)     19303.0  Rx     18EF1CCD  8  A0 00 1B 00 7C E4 03 00 
   688)     19303.6  Rx     18EFCD1C  8  A1 01 00 00 00 00 00 00 
   689)     19304.2  Rx     18EFCD1C  8  A0 00 00 00 00 00 00 00 
   690)     19304.6  Rx     18EFCD1C  4  0F A1 01 02 
   691)     19305.2  Rx     18EF1CCD  8  A0 00 00 00 04 00 00 00 
   692)     19305.7  Rx     18EFCD1C  8  A1 01 00 00 00 00 00 00 
   693)     19306.2  Rx     18EFCD1C  4  0F A1 01 02 
   694)     19306.7  Rx     18EFCD1C  8  A1 01 00 00 00 00 00 00 
   695)     19307.1  Rx     18EFCD1C  4  0F A1 01 02 
   696)     19307.7  Rx     18EFCD1C  8  A1 01 00 00 00 00 00 00 
   697)     19308.2  Rx     18EFCD1C  4  0F A1 01 02 
   698)     19308.7  Rx     18EFCD1C  8  A1 01 00 00 00 00 00 00 
   699)     19309.3  Rx     18FEF31C  8  F7 28 80 99 C0 CE 2C 89 
   700)     19309.8  Rx     18FEE81C  8  A8 3E 38 00 00 00 2E 51 
   701)     19310.4  Rx     18FEE61C  8  24 22 0D 09 57 29 00 00 
   702)     19311.0  Rx     19F8021C  8  85 FC 6F 55 00 00 FF FF 
   703)     19311.4  Rx     18EFCD1C  4  0F A1 01 02 
   704)     19312.0  Rx     18EFCD1C  8  A1 01 00 00 00 00 00 00 
   705)     19312.4  Rx     18EF8F1C  5  0F C9 00 00 00 
   706)     19312.9  Rx     18EF8F1C  4  01 57 03 00 
   707)     19313.3  Rx     18EFCD1C  4  0F A1 01 02 
   708)     19313.8  Rx     18EFCD1C  8  A1 01 00 00 00 00 00 00 
   709)     19314.3  Rx     18EF1C8F  4  01 04 57 11 
   710)     19314.7  Rx     18EFCD1C  4  0F A1 01 02 
   711)     19315.2  Rx     18EFCD1C  8  A1 01 00 00 00 00 00 00 
   712)     19315.8  Rx     18EFCD1C  8  A0 00 14 00 00 00 00 00 
   713)     19316.3  Rx     18EFCD1C  4  0F A1 01 02 
   714)     19316.8  Rx     18EF1CCD  8  A0 00 14 00 83 07 00 00 
   715)     19317.4  Rx     18EFCD1C  8  A1 01 00 00 00 00 00 00 
   716)     19317.9  Rx     19F8051C  8  80 2F 85 EE 50 96 C5 1D 
   717)     19318.5  Rx     19F8051C  8  81 1D 80 74 42 12 C9 A6 
   718)     19319.0  Rx     19F8051C  8  82 98 06 80 89 3D 5B F8 
   719)     19319.6  Rx     19F8051C  8  83 91 CB 02 D0 6B 45 08 
   720)     19320.2  Rx     19F8051C  8  84 00 00 00 00 40 00 0D 
   721)     19320.7  Rx     19F8051C  8  85 55 00 97 00 FC 0F 00 
   722)     19321.3  Rx     19F8051C  8  86 00 01 AF 02 BC 02 FF 
   723)     19323.0  Rx     18EFCD1C  8  A0 00 2A 00 00 00 00 00 
   724)     19323.4  Rx     18EFCD1C  4  0F A1 01 02 
   725)     19324.0  Rx     18EF1CCD  8  A0 00 2A 00 40 06 00 00 
   726)     19324.5  Rx     18EFCD1C  8  A1 01 00 00 00 00 00 00 
   727)     19343.0  Rx     18EFCD1C  8  A0 00 1B 00 00 00 00 00 
   728)     19343.4  Rx     18EFCD1C  4  0F A1 01 02 
   729)     19344.0  Rx     18EF1CCD  8  A0 00 1B 00 7C E4 03 00 
   730)     19344.5  Rx     18EFCD1C  8  A1 01 00 00 00 00 00 00 
   731)     19363.0  Rx     18EFCD1C  8  A0 00 00 00 00 00 00 00 
   732)     19363.4  Rx     18EFCD1C  4  0F A1 01 02 
   733)     19364.0  Rx     18EF1CCD  8  A0 00 00 00 04 00 00 00 
   734)     19364.6  Rx     18EFCD1C  8  A1 01 00 00 00 00 00 00 
   735)     19383.0  Rx     18EFCD1C  4  0F A1 01 02 
   736)     19383.6  Rx     18EFCD1C  8  A1 01 00 00 00 00 00 00 
   737)     19403.0  Rx     18EFCD1C  4  0F A1 01 02 
   738)     19403.6  Rx     18EFCD1C  8  A1 01 00 00 00 00 00 00 
   739)     19423.0  Rx     18EFCD1C  4  0F A1 01 02 
   740)     19423.6  Rx     18EFCD1C  8  A1 01 00 00 00 00 00 00 
   741)     19442.9  Rx     18EFCD1C  4  0F A1 01 02 
   742)     19443.6  Rx     18EFCD1C  8  A1 01 00 00 00 00 00 00 
   743)     19466.5  Rx     18EF8F1C  5  0F C9 00 00 00 
   744)     19467.2  Rx     18EFCD1C  4  0F A1 01 02 
   745)     19467.8  Rx     18EFCD1C  8  A1 01 00 00 00 00 00 00 
   746)     19483.6  Rx     18EFCD1C  4  0F A1 01 02 
   747)     19484.2  Rx     18EFCD1C  8  A1 01 00 00 00 00 00 00 
   748)     19504.4  Rx     18EFCD1C  8  A0 00 14 00 00 00 00 00 
   749)     19504.9  Rx     18EFCD1C  4  0F A1 01 02 
   750)     19505.5  Rx     18EF1CCD  8  A0 00 14 00 83 07 00 00 
   751)     19506.0  Rx     18EFCD1C  8  A1 01 00 00 00 00 00 00 
   752)     19523.0  Rx     18EFCD1C  8  A0 00 2A 00 00 00 00 00 
   753)     19523.5  Rx     18EFCD1C  4  0F A1 01 02 
   754)     19524.0  Rx     18EF1CCD  8  A0 00 2A 00 40 06 00 00 
   755)     19525.0  Rx     18EFCD1C  8  A1 01 00 00 00 00 00 00 
   756)     19543.0  Rx     18EFCD1C  8  A0 00 1B 00 00 00 00 00 
   757)     19543.5  Rx     18EFCD1C  4  0F A1 01 02 
   758)     19544.0  Rx     18EF1CCD  8  A0 00 1B 00 7C E4 03 00 
   759)     19544.6  Rx     18EFCD1C  8  A1 01 00 00 00 00 00 00 
   760)     19563.0  Rx     18EFCD1C  8  A0 00 00 00 00 00 00 00 
   761)     19563.5  Rx     18EFCD1C  4  0F A1 01 02 
   762)     19564.0  Rx     18EF1CCD  8  A0 00 00 00 04 00 00 00 
   763)     19564.6  Rx     18EFCD1C  8  A1 01 00 00 00 00 00 00 
   764)     19583.0  Rx     18EFCD1C  4  0F A1 01 02 
   765)     19583.8  Rx     18EFCD1C  8  A1 01 00 00 00 00 00 00 
   766)     19603.0  Rx     18EFCD1C  4  0F A1 01 02 
   767)     19603.7  Rx     18EFCD1C  8  A1 01 00 00 00 00 00 00 
   768)     19622.9  Rx     18EFCD1C  4  0F A1 01 02 
   769)     19623.6  Rx     18EFCD1C  8  A1 01 00 00 00 00 00 00 
   770)     19643.0  Rx     18EFCD1C  4  0F A1 01 02 
   771)     19643.6  Rx     18EFCD1C  8  A1 01 00 00 00 00 00 00 
   772)     19666.8  Rx     18EF8F1C  5  0F C9 00 00 00 
   773)     19667.4  Rx     18EFCD1C  4  0F A1 01 02 
   774)     19668.0  Rx     18EFCD1C  8  A1 01 00 00 00 00 00 00 
   775)     19683.0  Rx     18EFCD1C  4  0F A1 01 02 
   776)     19683.7  Rx     18EFCD1C  8  A1 01 00 00 00 00 00 00 
   777)     19703.8  Rx     18EFCD1C  8  A0 00 14 00 00 00 00 00 
   778)     19704.3  Rx     18EFCD1C  4  0F A1 01 02 
   779)     19704.9  Rx     18EF1CCD  8  A0 00 14 00 83 07 00 00 
   780)     19705.4  Rx     18EFCD1C  8  A1 01 00 00 00 00 00 00 
   781)     19724.5  Rx     18EFCD1C  8  A0 00 2A 00 00 00 00 00 
   782)     19724.9  Rx     18EFCD1C  4  0F A1 01 02 
   783)     19725.4  Rx     18EF1CCD  8  A0 00 2A 00 46 06 00 00 
   784)     19726.0  Rx     18EFCD1C  8  A1 01 00 00 00 00 00 00 
   785)     19743.1  Rx     18EFCD1C  8  A0 00 1B 00 00 00 00 00 
   786)     19743.5  Rx     18EFCD1C  4  0F A1 01 02 
   787)     19744.0  Rx     18EF1CCD  8  A0 00 1B 00 7C E4 03 00 
   788)     19745.1  Rx     18EFCD1C  8  A1 01 00 00 00 00 00 00 
   789)     19763.1  Rx     18EFCD1C  8  A0 00 00 00 00 00 00 00 
   790)     19763.5  Rx     18EFCD1C  4  0F A1 01 02 
   791)     19764.1  Rx     18EF1CCD  8  A0 00 00 00 04 00 00 00 
   792)     19764.7  Rx     18EFCD1C  8  A1 01 00 00 00 00 00 00 
   793)     19783.1  Rx     18EFCD1C  4  0F A1 01 02 
   794)     19783.7  Rx     18EFCD1C  8  A1 01 00 00 00 00 00 00 
   795)     19803.1  Rx     18EFCD1C  4  0F A1 01 02 
   796)     19803.7  Rx     18EFCD1C  8  A1 01 00 00 00 00 00 00 
   797)     19823.0  Rx     18EFCD1C  4  0F A1 01 02 
   798)     19823.6  Rx     18EFCD1C  8  A1 01 00 00 00 00 00 00 
   799)     19843.0  Rx     18EFCD1C  4  0F A1 01 02 
   800)     19843.6  Rx     18EFCD1C  8  A1 01 00 00 00 00 00 00 
   801)     19867.0  Rx     18EF8F1C  5  0F C9 00 00 00 
   802)     19867.5  Rx     18EFCD1C  4  01 C0 12 00 
   803)     19868.0  Rx     18EFCD1C  4  0F A1 01 02 
   804)     19868.4  Rx     18EF1CCD  4  01 13 C0 01 
   805)     19869.0  Rx     18EFCD1C  8  A1 01 00 00 00 00 00 00 
   806)     19883.6  Rx     18EFCD1C  4  0F A1 01 02 
   807)     19884.2  Rx     18EFCD1C  8  A1 01 00 00 00 00 00 00 
   808)     19903.2  Rx     18EFCD1C  8  A0 00 14 00 00 00 00 00 
   809)     19903.6  Rx     18EFCD1C  4  0F A1 01 02 
   810)     19904.2  Rx     18EF1CCD  8  A0 00 14 00 83 07 00 00 
   811)     19904.8  Rx     18EFCD1C  8  A1 01 00 00 00 00 00 00 
   812)     19924.1  Rx     18EFCD1C  8  A0 00 2A 00 00 00 00 00 
   813)     19924.5  Rx     18EFCD1C  4  0F A1 01 02 
   814)     19925.0  Rx     18EF1CCD  8  A0 00 2A 00 4B 06 00 00 
   815)     19925.6  Rx     18EFCD1C  8  A1 01 00 00 00 00 00 00 
   816)     19944.7  Rx     18EFCD1C  8  A0 00 1B 00 00 00 00 00 
   817)     19945.1  Rx     18EFCD1C  4  0F A1 01 02 
   818)     19945.7  Rx     18EF1CCD  8  A0 00 1B 00 7C E4 03 00 
   819)     19946.3  Rx     18EFCD1C  8  A1 01 00 00 00 00 00 00 
   820)     19963.1  Rx     18EFCD1C  8  A0 00 00 00 00 00 00 00 
   821)     19963.5  Rx     18EFCD1C  4  0F A1 01 02 
   822)     19964.1  Rx     18EF1CCD  8  A0 00 00 00 04 00 00 00 
   823)     19964.7  Rx     18EFCD1C  8  A1 01 00 00 00 00 00 00 
   824)     19983.1  Rx     18EFCD1C  4  0F A1 01 02 
   825)     19983.7  Rx     18EFCD1C  8  A1 01 00 00 00 00 00 00 
   826)     20003.1  Rx     18EFCD1C  4  0F A1 01 02 
   827)     20003.8  Rx     18EFCD1C  8  A1 01 00 00 00 00 00 00 
   828)     20023.0  Rx     18EFCD1C  4  0F A1 01 02 
   829)     20023.6  Rx     18EFCD1C  8  A1 01 00 00 00 00 00 00 
   830)     20043.0  Rx     18EFCD1C  4  0F A1 01 02 
   831)     20043.7  Rx     18EFCD1C  8  A1 01 00 00 00 00 00 00 
   832)     20067.6  Rx     18EF8F1C  5  0F C9 00 00 00 
   833)     20068.5  Rx     18EFCD1C  4  0F A1 01 02 
   834)     20070.6  Rx     18EFCD1C  8  A1 01 00 00 00 00 00 00 
   835)     20085.5  Rx     18EFCD1C  4  0F A1 01 02 
   836)     20086.1  Rx     18EFCD1C  8  A1 01 00 00 00 00 00 00 
   837)     20103.1  Rx     18EFCD1C  8  A0 00 14 00 00 00 00 00 
   838)     20103.5  Rx     18EFCD1C  4  0F A1 01 02 
   839)     20104.1  Rx     18EF1CCD  8  A0 00 14 00 82 07 00 00 
   840)     20104.7  Rx     18EFCD1C  8  A1 01 00 00 00 00 00 00 
   841)     20123.5  Rx     18EFCD1C  8  A0 00 2A 00 00 00 00 00 
   842)     20124.0  Rx     18EFCD1C  4  0F A1 01 02 
   843)     20124.6  Rx     18EF1CCD  8  A0 00 2A 00 42 06 00 00 
   844)     20125.1  Rx     18EFCD1C  8  A1 01 00 00 00 00 00 00 
   845)     20144.4  Rx     18EFCD1C  8  A0 00 1B 00 00 00 00 00 
   846)     20144.9  Rx     18EFCD1C  4  0F A1 01 02 
   847)     20145.4  Rx     18EF1CCD  8  A0 00 1B 00 7C E4 03 00 
   848)     20146.0  Rx     18EFCD1C  8  A1 01 00 00 00 00 00 00 
   849)     20163.1  Rx     18EFCD1C  8  A0 00 00 00 00 00 00 00 
   850)     20163.8  Rx     18EF1CCD  8  A0 00 00 00 04 00 00 00 
   851)     20165.3  Rx     18EFCD1C  4  0F A1 01 02 
   852)     20165.9  Rx     18EFCD1C  8  A1 01 00 00 00 00 00 00 
   853)     20183.4  Rx     18EFCD1C  4  0F A1 01 02 
   854)     20184.0  Rx     18EFCD1C  8  A1 01 00 00 00 00 00 00 
   855)     20203.1  Rx     18EFCD1C  4  0F A1 01 02 
   856)     20203.7  Rx     18EFCD1C  8  A1 01 00 00 00 00 00 00 
   857)     20223.1  Rx     18EFCD1C  4  0F A1 01 02 
   858)     20223.7  Rx     18EFCD1C  8  A1 01 00 00 00 00 00 00 
   859)     20244.5  Rx     18FEF31C  8  F7 28 80 99 C0 CE 2C 89 
   860)     20245.1  Rx     18FEE81C  8  A8 3E 33 00 00 00 2E 51 
   861)     20245.7  Rx     18FEE61C  8  28 22 0D 09 57 29 00 00 
   862)     20246.3  Rx     19F0101C  8  8A 00 EE 50 A6 EC 1D 1D 
   863)     20246.8  Rx     19F8021C  8  8A FC 6F 55 01 00 FF FF 
   864)     20247.2  Rx     18EFCD1C  4  0F A1 01 02 
   865)     20247.8  Rx     18EFCD1C  8  A1 01 00 00 00 00 00 00 
   866)     20266.2  Rx     18EF8F1C  5  0F C9 00 00 00 
   867)     20266.9  Rx     18EFCD1C  4  0F A1 01 02 
   868)     20267.4  Rx     18EFCD1C  8  A1 01 00 00 00 00 00 00 
   869)     20283.1  Rx     18EFCD1C  4  0F A1 01 02 
   870)     20283.8  Rx     18EFCD1C  8  A1 01 00 00 00 00 00 00 
   871)     20303.1  Rx     18EFCD1C  8  A0 00 14 00 00 00 00 00 
   872)     20303.6  Rx     18EFCD1C  4  0F A1 01 02 
   873)     20304.1  Rx     18EF1CCD  8  A0 00 14 00 83 07 00 00 
   874)     20304.7  Rx     18EFCD1C  8  A1 01 00 00 00 00 00 00 
   875)     20308.7  Rx     19F8051C  8  A0 2F 8A EE 50 A6 EC 1D 
   876)     20309.2  Rx     19F8051C  8  A1 1D 80 20 76 14 C9 A6 
   877)     20309.7  Rx     19F8051C  8  A2 98 06 40 DD D5 57 F8 
   878)     20310.3  Rx     19F8051C  8  A3 91 CB 02 BB 49 45 08 
   879)     20310.9  Rx     19F8051C  8  A4 00 00 00 00 40 00 0D 
   880)     20311.4  Rx     19F8051C  8  A5 55 00 97 00 FC 0F 00 
   881)     20312.0  Rx     19F8051C  8  A6 00 01 AF 02 20 03 FF 
   882)     20323.1  Rx     18EFCD1C  8  A0 00 2A 00 00 00 00 00 
   883)     20323.6  Rx     18EFCD1C  4  0F A1 01 02 
   884)     20324.2  Rx     18EF1CCD  8  A0 00 2A 00 3E 06 00 00 
   885)     20324.7  Rx     18EFCD1C  8  A1 01 00 00 00 00 00 00 
   886)     20343.6  Rx     18EFCD1C  8  A0 00 1B 00 00 00 00 00 
   887)     20344.0  Rx     18EFCD1C  4  0F A1 01 02 
   888)     20344.5  Rx     18EF1CCD  8  A0 00 1B 00 7C E4 03 00 
   889)     20345.1  Rx     18EFCD1C  8  A1 01 00 00 00 00 00 00 
   890)     20364.3  Rx     18EFCD1C  8  A0 00 00 00 00 00 00 00 
   891)     20364.7  Rx     18EFCD1C  4  0F A1 01 02 
   892)     20365.3  Rx     18EF1CCD  8  A0 00 00 00 04 00 00 00 
   893)     20365.9  Rx     18EFCD1C  8  A1 01 00 00 00 00 00 00 
   894)     20383.1  Rx     18EFCD1C  4  0F A1 01 02 
   895)     20385.2  Rx     18EFCD1C  8  A1 01 00 00 00 00 00 00 
   896)     20403.2  Rx     18EFCD1C  4  0F A1 01 02 
   897)     20403.8  Rx     18EFCD1C  8  A1 01 00 00 00 00 00 00 
   898)     20423.1  Rx     18EFCD1C  4  0F A1 01 02 
   899)     20423.7  Rx     18EFCD1C  8  A1 01 00 00 00 00 00 00 
   900)     20443.1  Rx     18EFCD1C  4  0F A1 01 02 
   901)     20443.7  Rx     18EFCD1C  8  A1 01 00 00 00 00 00 00 
   902)     20465.9  Rx     18EF8F1C  5  0F C9 00 00 00 
   903)     20466.6  Rx     18EFCD1C  4  0F A1 01 02 
   904)     20467.2  Rx     18EFCD1C  8  A1 01 00 00 00 00 00 00 
   905)     20483.1  Rx     18EFCD1C  4  0F A1 01 02 
   906)     20483.8  Rx     18EFCD1C  8  A1 01 00 00 00 00 00 00 
   907)     20503.2  Rx     18EFCD1C  8  A0 00 14 00 00 00 00 00 
   908)     20503.6  Rx     18EFCD1C  4  0F A1 01 02 
   909)     20504.2  Rx     18EF1CCD  8  A0 00 14 00 83 07 00 00 
   910)     20504.8  Rx     18EFCD1C  8  A1 01 00 00 00 00 00 00 
   911)     20523.1  Rx     18EFCD1C  8  A0 00 2A 00 00 00 00 00 
   912)     20523.5  Rx     18EFCD1C  4  0F A1 01 02 
   913)     20524.1  Rx     18EF1CCD  8  A0 00 2A 00 40 06 00 00 
   914)     20524.7  Rx     18EFCD1C  8  A1 01 00 00 00 00 00 00 
   915)     20543.2  Rx     18EFCD1C  8  A0 00 1B 00 00 00 00 00 
   916)     20543.5  Rx     18EFCD1C  4  0F A1 01 02 
   917)     20544.1  Rx     18EF1CCD  8  A0 00 1B 00 7C E4 03 00 
   918)     20544.7  Rx     18EFCD1C  8  A1 01 00 00 00 00 00 00 
   919)     20563.7  Rx     18EFCD1C  8  A0 00 00 00 00 00 00 00 
   920)     20564.1  Rx     18EFCD1C  4  0F A1 01 02 
   921)     20564.7  Rx     18EF1CCD  8  A0 00 00 00 04 00 00 00 
   922)     20565.3  Rx     18EFCD1C  8  A1 01 00 00 00 00 00 00 
   923)     20584.6  Rx     18EFCD1C  4  0F A1 01 02 
   924)     20585.1  Rx     18EFCD1C  8  A1 01 00 00 00 00 00 00 
   925)     20603.1  Rx     18EFCD1C  4  0F A1 01 02 
   926)     20605.2  Rx     18EFCD1C  8  A1 01 00 00 00 00 00 00 
   927)     20623.1  Rx     18EFCD1C  4  0F A1 01 02 
   928)     20623.7  Rx     18EFCD1C  8  A1 01 00 00 00 00 00 00 
   929)     20643.1  Rx     18EFCD1C  4  0F A1 01 02 
   930)     20643.7  Rx     18EFCD1C  8  A1 01 00 00 00 00 00 00 
   931)     20665.7  Rx     18EF8F1C  5  0F C9 00 00 00 
   932)     20667.7  Rx     18EFCD1C  4  0F A1 01 02 
   933)     20668.3  Rx     18EFCD1C  8  A1 01 00 00 00 00 00 00 
   934)     20683.1  Rx     18EFCD1C  4  0F A1 01 02 
   935)     20683.7  Rx     18EFCD1C  8  A1 01 00 00 00 00 00 00 
   936)     20703.1  Rx     18EFCD1C  8  A0 00 14 00 00 00 00 00 
   937)     20703.5  Rx     18EFCD1C  4  0F A1 01 02 
   938)     20704.1  Rx     18EF1CCD  8  A0 00 14 00 83 07 00 00 
   939)     20704.7  Rx     18EFCD1C  8  A1 01 00 00 00 00 00 00 
   940)     20733.5  Rx     18EFCD1C  8  A0 00 2A 00 00 00 00 00 
   941)     20734.0  Rx     18EFCD1C  4  0F A1 01 02 
   942)     20734.6  Rx     18EF1CCD  8  A0 00 2A 00 43 06 00 00 
   943)     20735.1  Rx     18EFCD1C  8  A1 01 00 00 00 00 00 00 
   944)     20743.1  Rx     18EFCD1C  8  A0 00 1B 00 00 00 00 00 
   945)     20743.5  Rx     18EFCD1C  4  0F A1 01 02 
   946)     20744.1  Rx     18EF1CCD  8  A0 00 1B 00 7C E4 03 00 
   947)     20744.7  Rx     18EFCD1C  8  A1 01 00 00 00 00 00 00 
   948)     20763.5  Rx     18EFCD1C  8  A0 00 00 00 00 00 00 00 
   949)     20763.9  Rx     18EFCD1C  4  0F A1 01 02 
   950)     20764.5  Rx     18EF1CCD  8  A0 00 00 00 04 00 00 00 
   951)     20765.1  Rx     18EFCD1C  8  A1 01 00 00 00 00 00 00 
   952)     20783.7  Rx     18EFCD1C  4  0F A1 01 02 
   953)     20784.3  Rx     18EFCD1C  8  A1 01 00 00 00 00 00 00 
   954)     20804.3  Rx     18EFCD1C  4  0F A1 01 02 
   955)     20804.9  Rx     18EFCD1C  8  A1 01 00 00 00 00 00 00 
   956)     20823.0  Rx     18EFCD1C  4  0F A1 01 02 
   957)     20823.6  Rx     18EFCD1C  8  A1 01 00 00 00 00 00 00 
   958)     20843.0  Rx     18EFCD1C  4  0F A1 01 02 
   959)     20843.7  Rx     18EFCD1C  8  A1 01 00 00 00 00 00 00 
   960)     20867.0  Rx     18EF8F1C  5  0F C9 00 00 00 
   961)     20867.7  Rx     18EFCD1C  4  0F A1 01 02 
   962)     20868.3  Rx     18EFCD1C  8  A1 01 00 00 00 00 00 00 
   963)     20883.1  Rx     18EFCD1C  4  0F A1 01 02 
   964)     20883.7  Rx     18EFCD1C  8  A1 01 00 00 00 00 00 00 
   965)     20903.1  Rx     18EFCD1C  8  A0 00 14 00 00 00 00 00 
   966)     20903.5  Rx     18EFCD1C  4  0F A1 01 02 
   967)     20904.1  Rx     18EF1CCD  8  A0 00 14 00 81 07 00 00 
   968)     20904.7  Rx     18EFCD1C  8  A1 01 00 00 00 00 00 00 
   969)     20923.1  Rx     18EFCD1C  8  A0 00 2A 00 00 00 00 00 
   970)     20923.5  Rx     18EFCD1C  4  0F A1 01 02 
   971)     20924.1  Rx     18EF1CCD  8  A0 00 2A 00 4B 06 00 00 
   972)     20924.7  Rx     18EFCD1C  8  A1 01 00 00 00 00 00 00 
   973)     20943.1  Rx     18EFCD1C  8  A0 00 1B 00 00 00 00 00 
   974)     20943.5  Rx     18EFCD1C  4  0F A1 01 02 
   975)     20944.1  Rx     18EF1CCD  8  A0 00 1B 00 7C E4 03 00 
   976)     20944.7  Rx     18EFCD1C  8  A1 01 00 00 00 00 00 00 
   977)     20963.2  Rx     18EFCD1C  8  A0 00 00 00 00 00 00 00 
   978)     20963.6  Rx     18EFCD1C  4  0F A1 01 02 
   979)     20964.1  Rx     18EF1CCD  8  A0 00 00 00 04 00 00 00 
   980)     20964.7  Rx     18EFCD1C  8  A1 01 00 00 00 00 00 00 
   981)     20983.7  Rx     18EFCD1C  4  0F A1 01 02 
   982)     20984.2  Rx     18EFCD1C  8  A1 01 00 00 00 00 00 00 
   983)     21003.9  Rx     18EFCD1C  4  0F A1 01 02 
   984)     21004.5  Rx     18EFCD1C  8  A1 01 00 00 00 00 00 00 
   985)     21024.2  Rx     18EFCD1C  4  0F A1 01 02 
   986)     21024.8  Rx     18EFCD1C  8  A1 01 00 00 00 00 00 00 
   987)     21043.0  Rx     18EFCD1C  4  0F A1 01 02 
   988)     21043.6  Rx     18EFCD1C  8  A1 01 00 00 00 00 00 00 
   989)     21068.8  Rx     18EF8F1C  5  0F C9 00 00 00 
   990)     21069.5  Rx     18EFCD1C  4  0F A1 01 02 
   991)     21070.1  Rx     18EFCD1C  8  A1 01 00 00 00 00 00 00 
   992)     21085.3  Rx     18EFCD1C  4  0F A1 01 02 
   993)     21085.8  Rx     18EFCD1C  8  A1 01 00 00 00 00 00 00 
   994)     21103.1  Rx     18EFCD1C  8  A0 00 14 00 00 00 00 00 
   995)     21103.5  Rx     18EFCD1C  4  0F A1 01 02 
   996)     21104.1  Rx     18EF1CCD  8  A0 00 14 00 83 07 00 00 
   997)     21104.7  Rx     18EFCD1C  8  A1 01 00 00 00 00 00 00 
   998)     21123.1  Rx     18EFCD1C  8  A0 00 2A 00 00 00 00 00 
   999)     21123.5  Rx     18EFCD1C  4  0F A1 01 02 
  1000)     21124.1  Rx     18EF1CCD  8  A0 00 2A 00 43 06 00 00 
  1001)     21124.6  Rx     18EFCD1C  8  A1 01 00 00 00 00 00 00 
  1002)     21143.1  Rx     18EFCD1C  8  A0 00 1B 00 00 00 00 00 
  1003)     21143.5  Rx     18EFCD1C  4  0F A1 01 02 
  1004)     21144.1  Rx     18EF1CCD  8  A0 00 1B 00 7C E4 03 00 
  1005)     21144.6  Rx     18EFCD1C  8  A1 01 00 00 00 00 00 00 
  1006)     21163.1  Rx     18EFCD1C  8  A0 00 00 00 00 00 00 00 
  1007)     21163.5  Rx     18EFCD1C  4  0F A1 01 02 
  1008)     21164.1  Rx     18EF1CCD  8  A0 00 00 00 04 00 00 00 
  1009)     21164.7  Rx     18EFCD1C  8  A1 01 00 00 00 00 00 00 
  1010)     21183.1  Rx     18EFCD1C  4  0F A1 01 02 
  1011)     21183.7  Rx     18EFCD1C  8  A1 01 00 00 00 00 00 00 
  1012)     21203.7  Rx     18EFCD1C  4  0F A1 01 02 
  1013)     21204.3  Rx     18EFCD1C  8  A1 01 00 00 00 00 00 00 
  1014)     21224.0  Rx     18EFCD1C  4  0F A1 01 02 
  1015)     21224.5  Rx     18EFCD1C  8  A1 01 00 00 00 00 00 00 
  1016)     21245.1  Rx     18FEF31C  8  F7 28 80 99 C0 CE 2C 89 
  1017)     21245.7  Rx     18FEE81C  8  A8 3E 43 00 00 00 2E 51 
  1018)     21246.2  Rx     18FEE61C  8  2C 22 0D 09 57 29 00 00 
  1019)     21246.8  Rx     19F8021C  8  8F FC 6F 55 01 00 FF FF 
  1020)     21247.3  Rx     18EFCD1C  4  0F A1 01 02 
  1021)     21247.8  Rx     18EFCD1C  8  A1 01 00 00 00 00 00 00 
  1022)     21267.1  Rx     18EF8F1C  5  0F C9 00 00 00 
  1023)     21267.8  Rx     18EFCD1C  4  0F A1 01 02 
  1024)     21268.4  Rx     18EFCD1C  8  A1 01 00 00 00 00 00 00 
  1025)     21283.1  Rx     18EFCD1C  4  0F A1 01 02 
  1026)     21283.7  Rx     18EFCD1C  8  A1 01 00 00 00 00 00 00 
  1027)     21293.5  Rx     19F8051C  8  C0 2F 8F EE 50 B6 13 1E 
  1028)     21294.1  Rx     19F8051C  8  C1 1D 80 2D DE 0E C9 A6 
  1029)     21294.6  Rx     19F8051C  8  C2 98 06 60 C0 D8 54 F8 
  1030)     21295.1  Rx     19F8051C  8  C3 91 CB 02 42 8D 45 08 
  1031)     21295.7  Rx     19F8051C  8  C4 00 00 00 00 40 00 0D 
  1032)     21296.3  Rx     19F8051C  8  C5 55 00 97 00 FC 0F 00 
  1033)     21296.8  Rx     19F8051C  8  C6 00 01 AF 02 F4 01 FF 
  1034)     21303.1  Rx     18EFCD1C  8  A0 00 14 00 00 00 00 00 
  1035)     21303.5  Rx     18EFCD1C  4  0F A1 01 02 
  1036)     21304.1  Rx     18EF1CCD  8  A0 00 14 00 83 07 00 00 
  1037)     21304.7  Rx     18EFCD1C  8  A1 01 00 00 00 00 00 00 
  1038)     21323.1  Rx     18EFCD1C  8  A0 00 2A 00 00 00 00 00 
  1039)     21323.5  Rx     18EFCD1C  4  0F A1 01 02 
  1040)     21324.1  Rx     18EF1CCD  8  A0 00 2A 00 3D 06 00 00 
  1041)     21324.7  Rx     18EFCD1C  8  A1 01 00 00 00 00 00 00 
  1042)     21343.1  Rx     18EFCD1C  8  A0 00 1B 00 00 00 00 00 
  1043)     21343.5  Rx     18EFCD1C  4  0F A1 01 02 
  1044)     21344.1  Rx     18EF1CCD  8  A0 00 1B 00 7C E4 03 00 
  1045)     21344.7  Rx     18EFCD1C  8  A1 01 00 00 00 00 00 00 
  1046)     21363.1  Rx     18EFCD1C  8  A0 00 00 00 00 00 00 00 
  1047)     21363.5  Rx     18EFCD1C  4  0F A1 01 02 
  1048)     21364.1  Rx     18EF1CCD  8  A0 00 00 00 04 00 00 00 
  1049)     21364.7  Rx     18EFCD1C  8  A1 01 00 00 00 00 00 00 
  1050)     21383.1  Rx     18EFCD1C  4  0F A1 01 02 
  1051)     21383.7  Rx     18EFCD1C  8  A1 01 00 00 00 00 00 00 
  1052)     21403.1  Rx     18EFCD1C  4  0F A1 01 02 
  1053)     21403.8  Rx     18EFCD1C  8  A1 01 00 00 00 00 00 00 
  1054)     21423.7  Rx     18EFCD1C  4  0F A1 01 02 
  1055)     21424.2  Rx     18EFCD1C  8  A1 01 00 00 00 00 00 00 
  1056)     21444.1  Rx     18EFCD1C  4  0F A1 01 02 
  1057)     21444.6  Rx     18EFCD1C  8  A1 01 00 00 00 00 00 00 
  1058)     21467.0  Rx     18EF8F1C  5  0F C9 00 00 00 
  1059)     21467.4  Rx     18EF8F1C  4  01 58 04 00 
  1060)     21468.0  Rx     18EFCD1C  4  0F A1 01 02 
  1061)     21468.4  Rx     18EF1C8F  4  01 05 58 11 
  1062)     21469.0  Rx     18EFCD1C  8  A1 01 00 00 00 00 00 00 
  1063)     21483.1  Rx     18EFCD1C  4  0F A1 01 02 
  1064)     21483.8  Rx     18EFCD1C  8  A1 01 00 00 00 00 00 00 
  1065)     21503.1  Rx     18EFCD1C  8  A0 00 14 00 00 00 00 00 
  1066)     21503.6  Rx     18EFCD1C  4  0F A1 01 02 
  1067)     21504.2  Rx     18EF1CCD  8  A0 00 14 00 84 07 00 00 
  1068)     21504.7  Rx     18EFCD1C  8  A1 01 00 00 00 00 00 00 
  1069)     21523.1  Rx     18EFCD1C  8  A0 00 2A 00 00 00 00 00 
  1070)     21523.6  Rx     18EFCD1C  4  0F A1 01 02 
  1071)     21524.1  Rx     18EF1CCD  8  A0 00 2A 00 42 06 00 00 
  1072)     21524.7  Rx     18EFCD1C  8  A1 01 00 00 00 00 00 00 
  1073)     21543.1  Rx     18EFCD1C  8  A0 00 1B 00 00 00 00 00 
  1074)     21543.6  Rx     18EFCD1C  4  0F A1 01 02 
  1075)     21544.1  Rx     18EF1CCD  8  A0 00 1B 00 7C E4 03 00 
  1076)     21544.7  Rx     18EFCD1C  8  A1 01 00 00 00 00 00 00 
  1077)     21563.1  Rx     18EFCD1C  8  A0 00 00 00 00 00 00 00 
  1078)     21563.6  Rx     18EFCD1C  4  0F A1 01 02 
  1079)     21564.2  Rx     18EF1CCD  8  A0 00 00 00 04 00 00 00 
  1080)     21564.7  Rx     18EFCD1C  8  A1 01 00 00 00 00 00 00 
  1081)     21583.1  Rx     18EFCD1C  4  0F A1 01 02 
  1082)     21583.9  Rx     18EFCD1C  8  A1 01 00 00 00 00 00 00 
  1083)     21603.2  Rx     18EFCD1C  4  0F A1 01 02 
  1084)     21603.8  Rx     18EFCD1C  8  A1 01 00 00 00 00 00 00 
  1085)     21623.1  Rx     18EFCD1C  4  0F A1 01 02 
  1086)     21623.7  Rx     18EFCD1C  8  A1 01 00 00 00 00 00 00 
  1087)     21644.1  Rx     18EFCD1C  4  0F A1 01 02 
  1088)     21644.7  Rx     18EFCD1C  8  A1 01 00 00 00 00 00 00 
  1089)     21666.6  Rx     18EF8F1C  5  0F C9 00 00 00 
  1090)     21667.3  Rx     18EFCD1C  4  0F A1 01 02 
  1091)     21667.9  Rx     18EFCD1C  8  A1 01 00 00 00 00 00 00 
  1092)     21683.2  Rx     18EFCD1C  4  0F A1 01 02 
  1093)     21684.7  Rx     18EFCD1C  8  A1 01 00 00 00 00 00 00 
  1094)     21703.2  Rx     18EFCD1C  8  A0 00 14 00 00 00 00 00 
  1095)     21703.6  Rx     18EFCD1C  4  0F A1 01 02 
  1096)     21704.2  Rx     18EF1CCD  8  A0 00 14 00 83 07 00 00 
  1097)     21704.8  Rx     18EFCD1C  8  A1 01 00 00 00 00 00 00 
  1098)     21723.2  Rx     18EFCD1C  8  A0 00 2A 00 00 00 00 00 
  1099)     21723.6  Rx     18EFCD1C  4  0F A1 01 02 
  1100)     21724.2  Rx     18EF1CCD  8  A0 00 2A 00 49 06 00 00 
  1101)     21724.7  Rx     18EFCD1C  8  A1 01 00 00 00 00 00 00 
  1102)     21743.2  Rx     18EFCD1C  8  A0 00 1B 00 00 00 00 00 
  1103)     21743.6  Rx     18EFCD1C  4  0F A1 01 02 
  1104)     21744.2  Rx     18EF1CCD  8  A0 00 1B 00 7C E4 03 00 
  1105)     21744.8  Rx     18EFCD1C  8  A1 01 00 00 00 00 00 00 
  1106)     21763.2  Rx     18EFCD1C  8  A0 00 00 00 00 00 00 00 
  1107)     21763.6  Rx     18EFCD1C  4  0F A1 01 02 
  1108)     21764.2  Rx     18EF1CCD  8  A0 00 00 00 04 00 00 00 
  1109)     21764.8  Rx     18EFCD1C  8  A1 01 00 00 00 00 00 00 
  1110)     21783.2  Rx     18EFCD1C  4  0F A1 01 02 
  1111)     21783.9  Rx     18EFCD1C  8  A1 01 00 00 00 00 00 00 
  1112)     21803.2  Rx     18EFCD1C  4  0F A1 01 02 
  1113)     21803.8  Rx     18EFCD1C  8  A1 01 00 00 00 00 00 00 
  1114)     21823.2  Rx     18EFCD1C  4  0F A1 01 02 
  1115)     21823.8  Rx     18EFCD1C  8  A1 01 00 00 00 00 00 00 
  1116)     21843.1  Rx     18EFCD1C  4  0F A1 01 02 
  1117)     21843.8  Rx     18EFCD1C  8  A1 01 00 00 00 00 00 00 
  1118)     21866.9  Rx     18EF8F1C  5  0F C9 00 00 00 
  1119)     21867.6  Rx     18EFCD1C  4  0F A1 01 02 
  1120)     21868.1  Rx     18EFCD1C  8  A1 01 00 00 00 00 00 00 
  1121)     21884.1  Rx     18EFCD1C  4  01 C1 13 00 
  1122)     21884.7  Rx     18EFCD1C  4  0F A1 01 02 
  1123)     21885.1  Rx     18EF1CCD  4  01 14 C1 01 
  1124)     21885.7  Rx     18EFCD1C  8  A1 01 00 00 00 00 00 00 
  1125)     21886.1  Rx     18EFCD1C  4  0F 33 00 00 
  1126)     21886.4  Rx     18EFCD1C  2  0F 32 
  1127)     21886.8  Rx     18EF1CCD  2  33 16 
  1128)     21888.2  Rx     18EC1CCD  8  10 01 01 25 FF 00 EF 00 
  1129)     21896.5  Rx     1CECCD1C  8  11 25 01 FF FF 00 EF 00 
  1130)     21897.1  Rx     18EB1CCD  8  01 32 26 B8 87 9F F5 12 
  1131)     21903.2  Rx     18EFCD1C  8  A0 00 14 00 00 00 00 00 
  1132)     21903.7  Rx     18EFCD1C  4  0F A1 01 02 
  1133)     21905.1  Rx     18EFCD1C  8  A1 01 00 00 00 00 00 00 
  1134)     21907.8  Rx     18EB1CCD  8  02 D1 18 24 1D 9B 0A 75 
  1135)     21918.8  Rx     18EB1CCD  8  03 F8 28 1A 90 AA 92 39 
  1136)     21923.2  Rx     18EFCD1C  8  A0 00 2A 00 00 00 00 00 
  1137)     21923.7  Rx     18EFCD1C  4  0F A1 01 02 
  1138)     21924.2  Rx     18EFCD1C  8  A1 01 00 00 00 00 00 00 
  1139)     21929.9  Rx     18EB1CCD  8  04 3D F1 F2 A8 E8 3F 50 
  1140)     21940.9  Rx     18EB1CCD  8  05 81 C2 AA 2C 13 2D 85 
  1141)     21943.3  Rx     18EFCD1C  8  A0 00 1B 00 00 00 00 00 
  1142)     21943.7  Rx     18EFCD1C  4  0F A1 01 02 
  1143)     21944.2  Rx     18EFCD1C  8  A1 01 00 00 00 00 00 00 
  1144)     21951.9  Rx     18EB1CCD  8  06 AF 6C F6 AA E9 89 6E 
  1145)     21962.9  Rx     18EB1CCD  8  07 D2 21 4F 54 05 1F F7 
  1146)     21963.5  Rx     18EFCD1C  8  A0 00 00 00 00 00 00 00 
  1147)     21963.9  Rx     18EFCD1C  4  0F A1 01 02 
  1148)     21964.5  Rx     18EFCD1C  8  A1 01 00 00 00 00 00 00 
  1149)     21974.0  Rx     18EB1CCD  8  08 0C DC A7 6A 36 0D 55 
  1150)     21983.4  Rx     18EFCD1C  4  0F A1 01 02 
  1151)     21984.0  Rx     18EFCD1C  8  A1 01 00 00 00 00 00 00 
  1152)     21984.9  Rx     18EB1CCD  8  09 5C 50 DE E5 23 A1 4C 
  1153)     21995.9  Rx     18EB1CCD  8  0A 08 97 76 01 F1 78 EC 
  1154)     22003.2  Rx     18EFCD1C  4  0F A1 01 02 
  1155)     22003.8  Rx     18EFCD1C  8  A1 01 00 00 00 00 00 00 
  1156)     22007.0  Rx     18EB1CCD  8  0B CD 5C 19 26 E2 CE 0D 
  1157)     22018.0  Rx     18EB1CCD  8  0C 6E 48 71 C3 7D F4 A3 
  1158)     22023.1  Rx     18EFCD1C  4  0F A1 01 02 
  1159)     22023.7  Rx     18EFCD1C  8  A1 01 00 00 00 00 00 00 
  1160)     22029.0  Rx     18EB1CCD  8  0D 7B F4 A8 B3 8B 66 C7 
  1161)     22040.0  Rx     18EB1CCD  8  0E C2 7A 47 62 04 E1 F4 
  1162)     22043.1  Rx     18EFCD1C  4  0F A1 01 02 
  1163)     22043.7  Rx     18EFCD1C  8  A1 01 00 00 00 00 00 00 
  1164)     22051.0  Rx     18EB1CCD  8  0F 56 50 1A 3E FF 8C 50 
  1165)     22062.1  Rx     18EB1CCD  8  10 41 CF 44 44 6A D0 1D 
  1166)     22068.7  Rx     18EF8F1C  5  0F C9 00 00 00 
  1167)     22069.4  Rx     18EFCD1C  4  0F A1 01 02 
  1168)     22070.0  Rx     18EFCD1C  8  A1 01 00 00 00 00 00 00 
  1169)     22073.1  Rx     18EB1CCD  8  11 38 0C 56 B6 03 FE 64 
  1170)     22084.1  Rx     18EB1CCD  8  12 CE 32 02 1B 00 73 5D 
  1171)     22086.6  Rx     18EFCD1C  4  0F A1 01 02 
  1172)     22087.2  Rx     18EFCD1C  8  A1 01 00 00 00 00 00 00 
  1173)     22095.1  Rx     18EB1CCD  8  13 18 3A 91 7B 12 D1 2D 
  1174)     22103.2  Rx     18EFCD1C  8  A0 00 14 00 00 00 00 00 
  1175)     22104.6  Rx     18EFCD1C  4  0F A1 01 02 
  1176)     22105.2  Rx     18EFCD1C  8  A1 01 00 00 00 00 00 00 
  1177)     22106.2  Rx     18EB1CCD  8  14 21 6F F0 5E 63 C5 3C 
  1178)     22117.2  Rx     18EB1CCD  8  15 60 75 DF F6 4C C6 08 
  1179)     22123.2  Rx     18EFCD1C  8  A0 00 2A 00 00 00 00 00 
  1180)     22123.7  Rx     18EFCD1C  4  0F A1 01 02 
  1181)     22124.2  Rx     18EFCD1C  8  A1 01 00 00 00 00 00 00 
  1182)     22128.2  Rx     18EB1CCD  8  16 32 B7 40 1F 60 26 69 
  1183)     22139.3  Rx     18EB1CCD  8  17 46 9C FD 65 BF 7E 97 
  1184)     22143.2  Rx     18EFCD1C  8  A0 00 1B 00 00 00 00 00 
  1185)     22143.6  Rx     18EFCD1C  4  0F A1 01 02 
  1186)     22144.2  Rx     18EFCD1C  8  A1 01 00 00 00 00 00 00 
  1187)     22150.3  Rx     18EB1CCD  8  18 E6 80 31 73 71 60 94 
  1188)     22161.3  Rx     18EB1CCD  8  19 1D B7 2C 45 2A AD 1D 
  1189)     22163.2  Rx     18EFCD1C  8  A0 00 00 00 00 00 00 00 
  1190)     22163.6  Rx     18EFCD1C  4  0F A1 01 02 
  1191)     22164.2  Rx     18EFCD1C  8  A1 01 00 00 00 00 00 00 
  1192)     22172.4  Rx     18EB1CCD  8  1A 70 92 58 A0 75 97 A6 
  1193)     22183.1  Rx     18EFCD1C  4  0F A1 01 02 
  1194)     22183.7  Rx     18EB1CCD  8  1B 33 1E AF EA B3 3A 62 
  1195)     22184.3  Rx     18EFCD1C  8  A1 01 00 00 00 00 00 00 
  1196)     22194.4  Rx     18EB1CCD  8  1C 4F 43 DE 23 1A D4 78 
  1197)     22203.4  Rx     18EFCD1C  4  0F A1 01 02 
  1198)     22204.0  Rx     18EFCD1C  8  A1 01 00 00 00 00 00 00 
  1199)     22205.4  Rx     18EB1CCD  8  1D F3 9C 76 61 CA 01 F3 
  1200)     22216.4  Rx     18EB1CCD  8  1E 9D BC E3 56 25 34 AE 
  1201)     22223.1  Rx     18EFCD1C  4  0F A1 01 02 
  1202)     22223.8  Rx     18EFCD1C  8  A1 01 00 00 00 00 00 00 
  1203)     22227.5  Rx     18EB1CCD  8  1F 7B 21 63 3D 52 09 C9 
  1204)     22238.5  Rx     18EB1CCD  8  20 08 83 04 57 16 39 59 
  1205)     22244.5  Rx     18FEF31C  8  F6 28 80 99 C0 CE 2C 89 
  1206)     22245.0  Rx     18FEE81C  8  A8 3E 3D 00 00 00 2E 51 
  1207)     22245.6  Rx     18FEE61C  8  30 22 0D 09 57 29 00 00 
  1208)     22246.2  Rx     19F8021C  8  94 FC 6F 55 00 00 FF FF 
  1209)     22246.5  Rx     18EFCD1C  4  0F A1 01 02 
  1210)     22247.1  Rx     18EFCD1C  8  A1 01 00 00 00 00 00 00 
  1211)     22249.5  Rx     18EB1CCD  8  21 CF DD FE C1 3C BD 22 
  1212)     22260.5  Rx     18EB1CCD  8  22 DE 63 10 CF 06 43 8A 
  1213)     22267.1  Rx     18EF8F1C  5  0F C9 00 00 00 
  1214)     22267.7  Rx     18EFCD1C  4  0F A1 01 02 
  1215)     22268.3  Rx     18EFCD1C  8  A1 01 00 00 00 00 00 00 
  1216)     22271.6  Rx     18EB1CCD  8  23 1E 94 9D FF 7F 0D 47 
  1217)     22282.6  Rx     18EB1CCD  8  24 13 C2 B0 AF 17 FB D7 
  1218)     22283.8  Rx     18EFCD1C  4  0F A1 01 02 
  1219)     22284.4  Rx     18EFCD1C  8  A1 01 00 00 00 00 00 00 
  1220)     22293.7  Rx     18EB1CCD  8  25 0C 7D F6 D6 9B FF FF 
  1221)     22294.2  Rx     19F8051C  8  E0 2F 94 EE 50 C6 3A 1E 
  1222)     22294.7  Rx     19F8051C  8  E1 1D C0 33 0C F9 C8 A6 
  1223)     22295.3  Rx     19F8051C  8  E2 98 06 20 F0 DF 77 F8 
  1224)     22295.8  Rx     19F8051C  8  E3 91 CB 02 89 A1 45 08 
  1225)     22296.4  Rx     19F8051C  8  E4 00 00 00 00 40 00 0D 
  1226)     22297.0  Rx     19F8051C  8  E5 55 00 97 00 FC 0F 00 
  1227)     22297.5  Rx     19F8051C  8  E6 00 01 AF 02 58 02 FF 
  1228)     22298.1  Rx     1CECCD1C  8  13 01 01 25 FF 00 EF 00 
  1229)     22300.4  Rx     1CECCD1C  8  10 11 00 03 FF 00 EF 00 
  1230)     22304.7  Rx     18EF1CCD  8  A0 00 14 00 83 07 00 00 
  1231)     22305.3  Rx     18EFCD1C  8  A0 00 14 00 00 00 00 00 
  1232)     22305.9  Rx     18EF1CCD  8  A0 00 2A 00 42 06 00 00 
  1233)     22306.3  Rx     18EFCD1C  4  0F A1 01 02 
  1234)     22306.8  Rx     18EF1CCD  8  A0 00 1B 00 7C E4 03 00 
  1235)     22307.4  Rx     18EFCD1C  8  A1 01 00 00 00 00 00 00 
  1236)     22308.0  Rx     18EF1CCD  8  A0 00 00 00 04 00 00 00 
  1237)     22309.1  Rx     18EF1CCD  8  A0 00 14 00 83 07 00 00 
  1238)     22309.8  Rx     18EF1CCD  8  A0 00 2A 00 40 06 00 00 
  1239)     22310.8  Rx     18EF1CCD  8  A0 00 1B 00 7C E4 03 00 
  1240)     22311.8  Rx     18EF1CCD  8  A0 00 00 00 04 00 00 00 
  1241)     22313.4  Rx     18EC1CCD  8  11 03 01 FF FF 00 EF 00 
  1242)     22314.0  Rx     18EF1CCD  8  A0 00 14 00 82 07 00 00 
  1243)     22314.5  Rx     1CEBCD1C  8  01 32 A4 08 71 04 5A C4 
  1244)     22315.2  Rx     1CEBCD1C  8  02 0B CE 77 A1 75 B3 51 
  1245)     22315.7  Rx     1CEBCD1C  8  03 03 48 3C FF FF FF FF 
  1246)     22316.4  Rx     18EC1CCD  8  13 11 00 03 FF 00 EF 00 
  1247)     22323.2  Rx     18EFCD1C  8  A0 00 2A 00 00 00 00 00 
  1248)     22323.9  Rx     18EF1CCD  8  A0 00 2A 00 3D 06 00 00 
  1249)     22325.0  Rx     18EFCD1C  4  0F A1 01 02 
  1250)     22325.6  Rx     18EFCD1C  8  A1 01 00 00 00 00 00 00 
  1251)     22332.8  Rx     18EF1CCD  8  A1 40 B2 F8 FF FF 00 00 
  1252)     22343.2  Rx     18EFCD1C  8  A0 00 1B 00 00 00 00 00 
  1253)     22343.6  Rx     18EFCD1C  4  0F A1 01 02 
  1254)     22344.2  Rx     18EF1CCD  8  A0 00 1B 00 7C E4 03 00 
  1255)     22352.8  Rx     18EF1CCD  8  A1 40 B2 F8 FF FF 00 00 
  1256)     22363.3  Rx     18EFCD1C  8  A0 00 00 00 00 00 00 00 
  1257)     22363.9  Rx     18EFCD1C  8  A0 01 05 00 58 4D 00 00 
  1258)     22364.4  Rx     18EF1CCD  8  A0 00 00 00 04 00 00 00 
  1259)     22365.0  Rx     18EF1CCD  8  A0 01 05 00 58 4D 00 00 
  1260)     22365.6  Rx     18EFCD1C  8  A0 01 06 00 68 01 00 00 
  1261)     22366.2  Rx     18EF1CCD  8  A0 01 06 00 68 01 00 00 
  1262)     22384.2  Rx     1CECCD1C  8  10 0D 00 02 FF 00 EF 00 
  1263)     22384.9  Rx     18EC1CCD  8  11 02 01 FF FF 00 EF 00 
  1264)     22385.8  Rx     1CEBCD1C  8  01 F0 05 00 4F 00 14 00 
  1265)     22386.3  Rx     1CEBCD1C  8  02 28 00 00 B0 32 1E FF 
  1266)     22386.9  Rx     18EC1CCD  8  13 0D 00 02 FF 00 EF 00 
  1267)     22403.2  Rx     18EFCD1C  4  0F A2 01 02 
  1268)     22413.0  Rx     18EF1CCD  8  A2 00 00 00 0E 00 00 00 
  1269)     22414.1  Rx     18EFCD1C  8  A1 11 00 00 00 00 00 00 
  1270)     22424.2  Rx     1CECCD1C  8  10 0B 00 02 FF 00 EF 00 
  1271)     22424.8  Rx     18EC1CCD  8  11 02 01 FF FF 00 EF 00 
  1272)     22425.8  Rx     1CEBCD1C  8  01 0F A3 01 02 01 00 03 
  1273)     22426.4  Rx     1CEBCD1C  8  02 02 06 07 04 FF FF FF 
  1274)     22427.0  Rx     18EC1CCD  8  13 0B 00 02 FF 00 EF 00 
  1275)     22433.0  Rx     18EF1CCD  8  A3 88 0C 89 0C B2 F8 00 
  1276)     22443.3  Rx     18EFCD1C  8  A1 01 00 00 B2 F8 FF FF 
  1277)     22453.1  Rx     18EF1CCD  8  A1 40 B2 F8 FF FF 00 00 
  1278)     22467.2  Rx     18EF8F1C  5  0F C9 00 00 00 
  1279)     22503.8  Rx     18EFCD1C  8  A0 00 14 00 00 00 00 00 
  1280)     22504.4  Rx     18EF1CCD  8  A0 00 14 00 83 07 00 00 
  1281)     22513.2  Rx     18EF1CCD  8  A2 00 00 00 00 00 00 00 
  1282)     22524.8  Rx     18EFCD1C  8  A0 00 2A 00 00 00 00 00 
  1283)     22525.4  Rx     18EF1CCD  8  A0 00 2A 00 46 06 00 00 
  1284)     22533.3  Rx     18EF1CCD  8  A3 00 00 00 00 B2 F8 B2 
  1285)     22543.2  Rx     18EFCD1C  8  A0 00 1B 00 00 00 00 00 
  1286)     22543.9  Rx     18EF1CCD  8  A0 00 1B 00 7C E4 03 00 
  1287)     22553.3  Rx     18EF1CCD  8  A1 40 B2 F8 FF FF 00 00 
  1288)     22563.2  Rx     18EFCD1C  8  A0 00 00 00 00 00 00 00 
  1289)     22563.9  Rx     18EF1CCD  8  A0 00 00 00 04 00 00 00 
  1290)     22613.5  Rx     18EF1CCD  8  A2 00 00 00 00 00 00 00 
  1291)     22633.5  Rx     18EF1CCD  8  A3 00 00 00 00 B2 F8 B2 
  1292)     22643.3  Rx     18EFCD1C  8  A1 01 00 00 B2 F8 FF FF 
  1293)     22653.5  Rx     18EF1CCD  8  A1 40 B2 F8 FF FF 00 00 
  1294)     22667.1  Rx     18EF8F1C  5  0F C9 00 00 00 
  1295)     22703.3  Rx     18EFCD1C  8  A0 00 14 00 00 00 00 00 
  1296)     22703.9  Rx     18EF1CCD  8  A0 00 14 00 83 07 00 00 
  1297)     22713.7  Rx     18EF1CCD  8  A2 00 00 00 00 00 00 00 
  1298)     22723.9  Rx     18EFCD1C  8  A0 00 2A 00 00 00 00 00 
  1299)     22724.6  Rx     18EF1CCD  8  A0 00 2A 00 49 06 00 00 
  1300)     22733.8  Rx     18EF1CCD  8  A3 00 00 00 00 B2 F8 B2 
  1301)     22744.8  Rx     18EFCD1C  8  A0 00 1B 00 00 00 00 00 
  1302)     22745.4  Rx     18EF1CCD  8  A0 00 1B 00 7C E4 03 00 
  1303)     22753.8  Rx     18EF1CCD  8  A1 40 B2 F8 FF FF 00 00 
  1304)     22763.3  Rx     18EFCD1C  8  A0 00 00 00 00 00 00 00 
  1305)     22763.9  Rx     18EF1CCD  8  A0 00 00 00 04 00 00 00 
  1306)     22813.9  Rx     18EF1CCD  8  A2 00 00 00 00 00 00 00 
  1307)     22834.0  Rx     18EF1CCD  8  A3 00 00 00 00 B2 F8 B2 
  1308)     22843.3  Rx     18EFCD1C  8  A1 01 00 00 B2 F8 FF FF 
  1309)     22854.0  Rx     18EF1CCD  8  A1 40 B2 F8 FF FF 00 00 
  1310)     22866.0  Rx     18EF8F1C  5  0F C9 00 00 00 
  1311)     22903.3  Rx     18EFCD1C  8  A0 00 14 00 00 00 00 00 
  1312)     22903.9  Rx     18EF1CCD  8  A0 00 14 00 83 07 00 00 
  1313)     22914.2  Rx     18EF1CCD  8  A2 00 00 00 00 00 00 00 
  1314)     22923.2  Rx     18EFCD1C  8  A0 00 2A 00 00 00 00 00 
  1315)     22923.9  Rx     18EF1CCD  8  A0 00 2A 00 45 06 00 00 
  1316)     22934.2  Rx     18EF1CCD  8  A3 00 00 00 00 B2 F8 B2 
  1317)     22944.1  Rx     18EFCD1C  8  A0 00 1B 00 00 00 00 00 
  1318)     22944.7  Rx     18EF1CCD  8  A0 00 1B 00 7C E4 03 00 
  1319)     22954.2  Rx     18EF1CCD  8  A1 40 B2 F8 FF FF 00 00 
  1320)     22964.9  Rx     18EFCD1C  8  A0 00 00 00 00 00 00 00 
  1321)     22965.5  Rx     18EF1CCD  8  A0 00 00 00 04 00 00 00 
  1322)     23014.3  Rx     18EF1CCD  8  A2 00 00 00 00 00 00 00 
  1323)     23034.3  Rx     18EF1CCD  8  A3 00 00 00 00 B2 F8 B2 
  1324)     23043.2  Rx     18EFCD1C  8  A1 01 00 00 B2 F8 FF FF 
  1325)     23054.3  Rx     18EF1CCD  8  A1 40 B2 F8 FF FF 00 00 
  1326)     23067.6  Rx     18EF8F1C  5  0F C9 00 00 00 
  1327)     23103.1  Rx     18EFCD1C  8  A0 00 14 00 00 00 00 00 
  1328)     23103.8  Rx     18EF1CCD  8  A0 00 14 00 84 07 00 00 
  1329)     23114.5  Rx     18EF1CCD  8  A2 00 00 00 00 00 00 00 
  1330)     23123.1  Rx     18EFCD1C  8  A0 00 2A 00 00 00 00 00 
  1331)     23123.8  Rx     18EF1CCD  8  A0 00 2A 00 40 06 00 00 
  1332)     23134.5  Rx     18EF1CCD  8  A3 00 00 00 00 B2 F8 B2 
  1333)     23143.1  Rx     18EFCD1C  8  A0 00 1B 00 00 00 00 00 
  1334)     23143.8  Rx     18EF1CCD  8  A0 00 1B 00 7C E4 03 00 
  1335)     23154.5  Rx     18EF1CCD  8  A1 40 B2 F8 FF FF 00 00 
  1336)     23164.1  Rx     18EFCD1C  8  A0 00 00 00 00 00 00 00 
  1337)     23164.7  Rx     18EF1CCD  8  A0 00 00 00 04 00 00 00 
  1338)     23214.7  Rx     18EF1CCD  8  A2 00 00 00 00 00 00 00 
  1339)     23234.7  Rx     18EF1CCD  8  A3 00 00 00 00 B2 F8 B2 
  1340)     23244.4  Rx     18FEF31C  8  F6 28 80 99 C1 CE 2C 89 
  1341)     23245.0  Rx     18FEE81C  8  A8 3E 3B 00 00 00 2E 51 
  1342)     23245.5  Rx     18FEE61C  8  34 22 0D 09 57 29 00 00 
  1343)     23246.1  Rx     19F8021C  8  99 FC 6F 55 01 00 FF FF 
  1344)     23246.7  Rx     18EFCD1C  8  A1 01 00 00 B2 F8 FF FF 
  1345)     23254.8  Rx     18EF1CCD  8  A1 40 B2 F8 FF FF 00 00 
  1346)     23265.9  Rx     18EF8F1C  5  0F C9 00 00 00 
  1347)     23293.1  Rx     19F8051C  8  00 2F 99 EE 50 D6 61 1E 
  1348)     23293.6  Rx     19F8051C  8  01 1D 00 A1 0B FD C8 A6 
  1349)     23294.2  Rx     19F8051C  8  02 98 06 20 23 0B AD F8 
  1350)     23294.8  Rx     19F8051C  8  03 91 CB 02 FB AF 45 08 
  1351)     23295.4  Rx     19F8051C  8  04 00 00 00 00 40 00 0D 
  1352)     23295.9  Rx     19F8051C  8  05 55 00 97 00 FC 0F 00 
  1353)     23296.5  Rx     19F8051C  8  06 00 01 AF 02 BC 02 FF 
  1354)     23303.2  Rx     18EFCD1C  8  A0 00 14 00 00 00 00 00 
  1355)     23303.9  Rx     18EF1CCD  8  A0 00 14 00 83 07 00 00 
  1356)     23314.9  Rx     18EF1CCD  8  A2 00 00 00 00 00 00 00 
  1357)     23323.2  Rx     18EFCD1C  8  A0 00 2A 00 00 00 00 00 
  1358)     23323.8  Rx     18EF1CCD  8  A0 00 2A 00 42 06 00 00 
  1359)     23335.0  Rx     18EF1CCD  8  A3 00 00 00 00 B2 F8 B2 
  1360)     23343.2  Rx     18EFCD1C  8  A0 00 1B 00 00 00 00 00 
  1361)     23343.8  Rx     18EF1CCD  8  A0 00 1B 00 7C E4 03 00 
  1362)     23355.0  Rx     18EF1CCD  8  A1 40 B2 F8 FF FF 00 00 
  1363)     23363.3  Rx     18EFCD1C  8  A0 00 00 00 00 00 00 00 
  1364)     23363.9  Rx     18EF1CCD  8  A0 00 00 00 04 00 00 00 
  1365)     23415.2  Rx     18EF1CCD  8  A2 00 00 00 00 00 00 00 
  1366)     23435.2  Rx     18EF1CCD  8  A3 00 00 00 00 B2 F8 B2 
  1367)     23443.2  Rx     18EFCD1C  8  A1 01 00 00 B2 F8 FF FF 
  1368)     23455.3  Rx     18EF1CCD  8  A1 40 B2 F8 FF FF 00 00 
  1369)     23465.7  Rx     18EF8F1C  5  0F C9 00 00 00 
  1370)     23503.2  Rx     18EFCD1C  8  A0 00 14 00 00 00 00 00 
  1371)     23503.8  Rx     18EF1CCD  8  A0 00 14 00 84 07 00 00 
  1372)     23515.4  Rx     18EF1CCD  8  A2 00 00 00 00 00 00 00 
  1373)     23523.2  Rx     18EFCD1C  8  A0 00 2A 00 00 00 00 00 
  1374)     23523.8  Rx     18EF1CCD  8  A0 00 2A 00 46 06 00 00 
  1375)     23535.5  Rx     18EF1CCD  8  A3 00 00 00 00 B2 F8 B2 
  1376)     23543.2  Rx     18EFCD1C  8  A0 00 1B 00 00 00 00 00 
  1377)     23543.9  Rx     18EF1CCD  8  A0 00 1B 00 7C E4 03 00 
  1378)     23555.5  Rx     18EF1CCD  8  A1 40 B2 F8 FF FF 00 00 
  1379)     23563.3  Rx     18EFCD1C  8  A0 00 00 00 00 00 00 00 
  1380)     23563.9  Rx     18EF1CCD  8  A0 00 00 00 04 00 00 00 
  1381)     23615.6  Rx     18EF1CCD  8  A2 00 00 00 00 00 00 00 
  1382)     23635.7  Rx     18EF1CCD  8  A3 00 00 00 00 B2 F8 B2 
  1383)     23643.3  Rx     18EFCD1C  8  A1 01 00 00 B2 F8 FF FF 
  1384)     23655.7  Rx     18EF1CCD  8  A1 40 B2 F8 FF FF 00 00 
  1385)     23667.5  Rx     18EF8F1C  5  0F C9 00 00 00 
  1386)     23667.9  Rx     18EF8F1C  4  01 59 05 00 
  1387)     23668.5  Rx     18EF1C8F  4  01 06 59 11 
  1388)     23669.2  Rx     18EF8F1C  4  0F 33 00 00 
  1389)     23669.6  Rx     18EF8F1C  2  0F 32 
  1390)     23669.9  Rx     18EF1C8F  2  33 16 
  1391)     23671.6  Rx     18EC1C8F  8  10 01 01 25 FF 00 EF 00 
  1392)     23703.2  Rx     18EFCD1C  8  A0 00 14 00 00 00 00 00 
  1393)     23703.9  Rx     18EF1CCD  8  A0 00 14 00 83 07 00 00 
  1394)     23709.3  Rx     1CEC8F1C  8  11 25 01 FF FF 00 EF 00 
  1395)     23710.5  Rx     18EB1C8F  8  01 32 2F B8 AA B5 31 7A 
  1396)     23715.9  Rx     18EF1CCD  8  A2 00 00 00 00 00 00 00 
  1397)     23721.5  Rx     18EB1C8F  8  02 02 D5 E6 C7 BA DC 6F 
  1398)     23723.3  Rx     18EFCD1C  8  A0 00 2A 00 00 00 00 00 
  1399)     23723.9  Rx     18EF1CCD  8  A0 00 2A 00 48 06 00 00 
  1400)     23732.5  Rx     18EB1C8F  8  03 7D 2C 87 97 C3 13 48 
  1401)     23735.9  Rx     18EF1CCD  8  A3 00 00 00 00 B2 F8 B2 
  1402)     23743.2  Rx     18EFCD1C  8  A0 00 1B 00 00 00 00 00 
  1403)     23743.8  Rx     18EB1C8F  8  04 A3 8B A0 D1 A8 6A BB 
  1404)     23744.3  Rx     18EF1CCD  8  A0 00 1B 00 7C E4 03 00 
  1405)     23754.5  Rx     18EB1C8F  8  05 AD DA 6A 06 8C 6B E2 
  1406)     23755.9  Rx     18EF1CCD  8  A1 40 B2 F8 FF FF 00 00 
  1407)     23763.2  Rx     18EFCD1C  8  A0 00 00 00 00 00 00 00 
  1408)     23763.9  Rx     18EF1CCD  8  A0 00 00 00 04 00 00 00 
  1409)     23765.5  Rx     18EB1C8F  8  06 6A 04 C9 90 83 9C E4 
  1410)     23776.6  Rx     18EB1C8F  8  07 3C A3 FB 04 87 EB BA 
  1411)     23787.5  Rx     18EB1C8F  8  08 F9 59 1B 8B E5 58 2E 
  1412)     23798.5  Rx     18EB1C8F  8  09 B1 46 81 2F 5B 4A B2 
  1413)     23809.5  Rx     18EB1C8F  8  0A 7D AB CE 15 89 E3 58 
  1414)     23816.1  Rx     18EF1CCD  8  A2 00 00 00 00 00 00 00 
  1415)     23820.6  Rx     18EB1C8F  8  0B 55 A2 20 7D C1 D8 39 
  1416)     23831.6  Rx     18EB1C8F  8  0C 80 BC D4 E0 24 1D 5E 
  1417)     23836.2  Rx     18EF1CCD  8  A3 00 00 00 00 B2 F8 B2 
  1418)     23842.5  Rx     18EB1C8F  8  0D B2 06 27 32 D5 E1 DD 
  1419)     23843.4  Rx     18EFCD1C  8  A1 01 00 00 B2 F8 FF FF 
  1420)     23853.6  Rx     18EB1C8F  8  0E 39 0B 07 E7 02 06 20 
  1421)     23856.2  Rx     18EF1CCD  8  A1 40 B2 F8 FF FF 00 00 
  1422)     23864.5  Rx     18EB1C8F  8  0F 59 1F D8 74 D9 09 58 
  1423)     23866.9  Rx     18EF8F1C  5  0F C9 00 00 00 
  1424)     23875.6  Rx     18EB1C8F  8  10 BA C4 7F 13 D9 91 18 
  1425)     23886.6  Rx     18EB1C8F  8  11 3A D8 1F 57 4C 8F 2B 
  1426)     23897.6  Rx     18EB1C8F  8  12 92 6C 6F BF F8 C1 A6 
  1427)     23903.2  Rx     18EFCD1C  8  A0 00 14 00 00 00 00 00 
  1428)     23903.7  Rx     18EFCD1C  4  01 C2 14 00 
  1429)     23904.2  Rx     18EF1CCD  8  A0 00 14 00 84 07 00 00 
  1430)     23904.6  Rx     18EF1CCD  4  01 15 C2 00 
  1431)     23905.4  Rx     18EFCD1C  4  0F 33 00 00 
  1432)     23905.8  Rx     18EF1CCD  2  33 13 
  1433)     23908.5  Rx     18EB1C8F  8  13 38 B5 33 74 4C C3 AA 
  1434)     23916.4  Rx     18EF1CCD  8  A2 00 00 00 00 00 00 00 
  1435)     23919.5  Rx     18EB1C8F  8  14 CF AB 3E 8D AF 5F 94 
  1436)     23923.2  Rx     18EFCD1C  8  A0 00 2A 00 00 00 00 00 
  1437)     23923.9  Rx     18EF1CCD  8  A0 00 2A 00 43 06 00 00 
  1438)     23930.6  Rx     18EB1C8F  8  15 48 E0 EF 20 08 47 50 
  1439)     23936.4  Rx     18EF1CCD  8  A3 00 00 00 00 B2 F8 B2 
  1440)     23941.6  Rx     18EB1C8F  8  16 35 EE 12 C2 42 FA AC 
  1441)     23943.3  Rx     18EFCD1C  8  A0 00 1B 00 00 00 00 00 
  1442)     23943.9  Rx     18EF1CCD  8  A0 00 1B 00 7C E4 03 00 
  1443)     23952.5  Rx     18EB1C8F  8  17 A7 A8 90 0D A3 1C 57 
  1444)     23956.4  Rx     18EF1CCD  8  A1 40 B2 F8 FF FF 00 00 
  1445)     23963.3  Rx     18EFCD1C  8  A0 00 00 00 00 00 00 00 
  1446)     23963.8  Rx     18EB1C8F  8  18 1D B0 78 A7 D8 23 B8 
  1447)     23964.4  Rx     18EF1CCD  8  A0 00 00 00 04 00 00 00 
  1448)     23974.6  Rx     18EB1C8F  8  19 99 DF 73 8E 94 88 39 
  1449)     23985.5  Rx     18EB1C8F  8  1A E6 9F 53 4A D7 95 BD 
  1450)     23996.5  Rx     18EB1C8F  8  1B FB C2 F6 79 6D 41 77 
  1451)     24007.4  Rx     18EB1C8F  8  1C F4 90 A5 7B 51 22 C9 
  1452)     24016.5  Rx     18EF1CCD  8  A2 00 00 00 00 00 00 00 
  1453)     24018.5  Rx     18EB1C8F  8  1D E5 20 07 57 39 6D 03 
  1454)     24029.5  Rx     18EB1C8F  8  1E 19 B4 05 E2 BB 6C 80 
  1455)     24036.5  Rx     18EF1CCD  8  A3 00 00 00 00 B2 F8 B2 
  1456)     24040.5  Rx     18EB1C8F  8  1F 00 D4 08 14 66 B1 65 
  1457)     24044.2  Rx     18EFCD1C  8  A1 01 00 00 B2 F8 FF FF 
  1458)     24051.5  Rx     18EB1C8F  8  20 63 5E A6 15 F9 AC 9A 
  1459)     24056.6  Rx     18EF1CCD  8  A1 40 B2 F8 FF FF 00 00 
  1460)     24062.5  Rx     18EB1C8F  8  21 04 BC 3D AE DD 42 E2 
  1461)     24068.8  Rx     18EF8F1C  5  0F C9 00 00 00 
  1462)     24073.5  Rx     18EB1C8F  8  22 62 C5 94 D1 82 81 64 
  1463)     24084.5  Rx     18EB1C8F  8  23 34 E6 20 D0 F0 A9 76 
  1464)     24095.5  Rx     18EB1C8F  8  24 63 2F 59 E9 14 23 93 
  1465)     24103.2  Rx     18EFCD1C  8  A0 00 14 00 00 00 00 00 
  1466)     24103.8  Rx     18EF1CCD  8  A0 00 14 00 83 07 00 00 
  1467)     24106.6  Rx     18EB1C8F  8  25 AC 44 7B 9B 49 FF FF 
  1468)     24107.7  Rx     1CEC8F1C  8  13 01 01 25 FF 00 EF 00 
  1469)     24108.8  Rx     1CEC8F1C  8  10 11 00 03 FF 00 EF 00 
  1470)     24116.7  Rx     18EF1CCD  8  A2 00 00 00 00 00 00 00 
  1471)     24118.7  Rx     18EC1C8F  8  11 03 01 FF FF 00 EF 00 
  1472)     24120.0  Rx     1CEB8F1C  8  01 32 F8 F7 D7 F9 F1 9A 
  1473)     24120.5  Rx     1CEB8F1C  8  02 5A 37 10 46 1B 2C 4C 
  1474)     24121.1  Rx     1CEB8F1C  8  03 3E 12 2D FF FF FF FF 
  1475)     24121.7  Rx     18EC1C8F  8  13 11 00 03 FF 00 EF 00 
  1476)     24123.2  Rx     18EFCD1C  8  A0 00 2A 00 00 00 00 00 
  1477)     24123.8  Rx     18EF1CCD  8  A0 00 2A 00 40 06 00 00 
  1478)     24136.8  Rx     18EF1CCD  8  A3 00 00 00 00 B2 F8 B2 
  1479)     24143.1  Rx     18EFCD1C  8  A0 00 1B 00 00 00 00 00 
  1480)     24143.8  Rx     18EF1CCD  8  A0 00 1B 00 7C E4 03 00 
  1481)     24156.8  Rx     18EF1CCD  8  A1 40 B2 F8 FF FF 00 00 
  1482)     24163.2  Rx     18EFCD1C  8  A0 00 00 00 00 00 00 00 
  1483)     24163.9  Rx     18EF1CCD  8  A0 00 00 00 04 00 00 00 
  1484)     24217.0  Rx     18EF1CCD  8  A2 00 00 00 00 00 00 00 
  1485)     24237.0  Rx     18EF1CCD  8  A3 00 00 00 00 B2 F8 B2 
  1486)     24245.3  Rx     18FEF31C  8  F6 28 80 99 C1 CE 2C 89 
  1487)     24245.9  Rx     18FEE81C  8  A8 3E 41 00 00 00 2E 51 
  1488)     24246.5  Rx     18FEE61C  8  38 22 0D 09 57 29 00 00 
  1489)     24247.0  Rx     19F8021C  8  9E FC 6F 55 00 00 FF FF 
  1490)     24247.6  Rx     18EFCD1C  8  A1 01 00 00 B2 F8 FF FF 
  1491)     24257.0  Rx     18EF1CCD  8  A1 40 B2 F8 FF FF 00 00 
  1492)     24267.4  Rx     18EF8F1C  5  0F C9 00 00 00 
  1493)     24268.6  Rx     18EC1C8F  8  10 6B 00 10 FF 00 EF 00 
  1494)     24303.2  Rx     18EFCD1C  8  A0 00 14 00 00 00 00 00 
  1495)     24303.8  Rx     18EF1CCD  8  A0 00 14 00 83 07 00 00 
  1496)     24307.2  Rx     19F8051C  8  20 2F 9E EE 50 E6 88 1E 
  1497)     24307.8  Rx     19F8051C  8  21 1D C0 14 E0 DE C8 A6 
  1498)     24308.3  Rx     19F8051C  8  22 98 06 A0 A2 F5 8C F8 
  1499)     24308.8  Rx     19F8051C  8  23 91 CB 02 63 BC 45 08 
  1500)     24309.4  Rx     19F8051C  8  24 00 00 00 00 40 00 0D 
  1501)     24310.0  Rx     19F8051C  8  25 55 00 97 00 FC 0F 00 
  1502)     24310.6  Rx     19F8051C  8  26 00 01 AF 02 20 03 FF 
  1503)     24311.1  Rx     1CEC8F1C  8  11 10 01 FF FF 00 EF 00 
  1504)     24311.7  Rx     18EB1C8F  8  01 F2 C9 00 0A D7 A3 BC 
  1505)     24317.2  Rx     18EF1CCD  8  A2 00 00 00 00 00 00 00 
  1506)     24322.5  Rx     18EB1C8F  8  02 00 00 00 00 00 00 00 
  1507)     24323.3  Rx     18EFCD1C  8  A0 00 2A 00 00 00 00 00 
  1508)     24324.0  Rx     18EF1CCD  8  A0 00 2A 00 45 06 00 00 
  1509)     24333.5  Rx     18EB1C8F  8  03 00 00 00 00 00 0A D7 
  1510)     24337.2  Rx     18EF1CCD  8  A3 00 00 00 00 B2 F8 B2 
  1511)     24343.2  Rx     18EFCD1C  8  A0 00 1B 00 00 00 00 00 
  1512)     24343.8  Rx     18EF1CCD  8  A0 00 1B 00 7C E4 03 00 
  1513)     24344.5  Rx     18EB1C8F  8  04 A3 BC 00 00 00 00 00 
  1514)     24355.6  Rx     18EB1C8F  8  05 00 00 00 00 00 00 00 
  1515)     24357.3  Rx     18EF1CCD  8  A1 40 B2 F8 FF FF 00 00 
  1516)     24363.2  Rx     18EFCD1C  8  A0 00 00 00 00 00 00 00 
  1517)     24363.9  Rx     18EF1CCD  8  A0 00 00 00 04 00 00 00 
  1518)     24366.6  Rx     18EB1C8F  8  06 0A D7 A3 3C 4D 86 32 
  1519)     24377.5  Rx     18EB1C8F  8  07 3C 00 00 00 00 00 00 
  1520)     24388.5  Rx     18EB1C8F  8  08 00 00 00 00 00 00 4D 
  1521)     24399.5  Rx     18EB1C8F  8  09 86 32 3C 00 00 00 00 
  1522)     24410.6  Rx     18EB1C8F  8  0A 00 00 00 00 00 00 00 
  1523)     24417.5  Rx     18EF1CCD  8  A2 00 00 00 00 00 00 00 
  1524)     24421.6  Rx     18EB1C8F  8  0B 00 4D 86 32 BC 00 00 
  1525)     24432.5  Rx     18EB1C8F  8  0C 00 00 00 00 00 00 00 
  1526)     24437.5  Rx     18EF1CCD  8  A3 00 00 00 00 B2 F8 B2 
  1527)     24443.6  Rx     18EB1C8F  8  0D 00 00 00 00 00 00 00 
  1528)     24444.1  Rx     18EFCD1C  8  A1 01 00 00 B2 F8 FF FF 
  1529)     24454.6  Rx     18EB1C8F  8  0E 00 00 00 00 00 00 00 
  1530)     24457.5  Rx     18EF1CCD  8  A1 40 B2 F8 FF FF 00 00 
  1531)     24465.6  Rx     18EB1C8F  8  0F 00 00 00 80 3F 00 00 
  1532)     24467.1  Rx     18EF8F1C  5  0F C9 00 00 00 
  1533)     24476.6  Rx     18EB1C8F  8  10 80 3F FF FF FF FF FF 
  1534)     24503.2  Rx     18EFCD1C  8  A0 00 14 00 00 00 00 00 
  1535)     24503.9  Rx     18EF1CCD  8  A0 00 14 00 82 07 00 00 
  1536)     24517.7  Rx     18EF1CCD  8  A2 00 00 00 00 00 00 00 
  1537)     24523.2  Rx     18EFCD1C  8  A0 00 2A 00 00 00 00 00 
  1538)     24523.9  Rx     18EF1CCD  8  A0 00 2A 00 47 06 00 00 
  1539)     24537.7  Rx     18EF1CCD  8  A3 00 00 00 00 B2 F8 B2 
  1540)     24543.2  Rx     18EFCD1C  8  A0 00 1B 00 00 00 00 00 
  1541)     24543.9  Rx     18EF1CCD  8  A0 00 1B 00 7C E4 03 00 
  1542)     24557.8  Rx     18EF1CCD  8  A1 40 B2 F8 FF FF 00 00 
  1543)     24570.9  Rx     18EFCD1C  8  A0 00 00 00 00 00 00 00 
  1544)     24571.6  Rx     18EF1CCD  8  A0 00 00 00 04 00 00 00 
  1545)     24582.3  Rx     1CEC8F1C  8  13 6B 00 10 FF 00 EF 00 
  1546)     24617.9  Rx     18EF1CCD  8  A2 00 00 00 00 00 00 00 
  1547)     24638.0  Rx     18EF1CCD  8  A3 00 00 00 00 B2 F8 B2 
  1548)     24643.4  Rx     18EFCD1C  8  A1 01 00 00 B2 F8 FF FF 
  1549)     24658.0  Rx     18EF1CCD  8  A1 40 B2 F8 FF FF 00 00 
  1550)     24667.4  Rx     18EF8F1C  5  0F 0D 02 02 00 
  1551)     24686.7  Rx     18EF1C8F  8  0D 00 00 B4 38 B9 6E FC 
  1552)     24687.6  Rx     18EF1C8F  8  0D 01 17 00 28 00 84 03 
  1553)     24688.6  Rx     18EF1C8F  8  0D 02 0F 00 FF FF 10 00 
  1554)     24703.3  Rx     18EFCD1C  8  A0 00 14 00 00 00 00 00 
  1555)     24703.9  Rx     18EF1CCD  8  A0 00 14 00 83 07 00 00 
  1556)     24706.7  Rx     18EF1C8F  8  0D 10 00 D6 86 B9 6F FC 
  1557)     24707.6  Rx     18EF1C8F  8  0D 11 10 00 27 00 83 03 
  1558)     24708.6  Rx     18EF1C8F  8  0D 12 12 00 0F 00 0E 00 
  1559)     24718.2  Rx     18EF1CCD  8  A2 00 00 00 00 00 00 00 
  1560)     24723.3  Rx     18EFCD1C  8  A0 00 2A 00 00 00 00 00 
  1561)     24723.9  Rx     18EF1CCD  8  A0 00 2A 00 42 06 00 00 
  1562)     24726.7  Rx     18EF1C8F  8  0D 20 00 F6 D4 B9 6F FC 
  1563)     24727.7  Rx     18EF1C8F  8  0D 21 17 00 29 00 80 03 
  1564)     24728.6  Rx     18EF1C8F  8  0D 22 15 00 01 00 11 00 
  1565)     24738.2  Rx     18EF1CCD  8  A3 00 00 00 00 B2 F8 B2 
  1566)     24743.3  Rx     18EFCD1C  8  A0 00 1B 00 00 00 00 00 
  1567)     24743.9  Rx     18EF1CCD  8  A0 00 1B 00 7C E4 03 00 
  1568)     24746.8  Rx     18EF1C8F  8  0D 30 00 16 23 BA 6F FC 
  1569)     24747.7  Rx     18EF1C8F  8  0D 31 0E 00 29 00 88 03 
  1570)     24748.6  Rx     18EF1C8F  8  0D 32 17 00 0F 00 0E 00 
  1571)     24758.3  Rx     18EF1CCD  8  A1 40 B2 F8 FF FF 00 00 
  1572)     24763.3  Rx     18EFCD1C  8  A0 00 00 00 00 00 00 00 
  1573)     24764.0  Rx     18EF1CCD  8  A0 00 00 00 04 00 00 00 
  1574)     24766.8  Rx     18EF1C8F  8  0D 40 00 36 71 BA 6F FC 
  1575)     24767.7  Rx     18EF1C8F  8  0D 41 19 00 28 00 7E 03 
  1576)     24768.7  Rx     18EF1C8F  8  0D 42 14 00 04 00 0F 00 
  1577)     24786.8  Rx     18EF1C8F  8  0D 50 00 54 BF BA 6F FC 
