;$FILEVERSION=1.1
;$STARTTIME=46287.6072565046
;
;   Start time: 9/22/2026 14:34:26.962.0
;   Generated by PCAN-View v5.3.3.958
;
;   Message Number
;   |         Time Offset (ms)
;   |         |        Type
;   |         |        |        ID (hex)
;   |         |        |        |     Data Length
;   |         |        |        |     |   Data Bytes (hex) ...
;   |         |        |        |     |   |
;---+--   ----+----  --+--  ----+---  +  -+ -- -- -- -- -- -- --
     1)         8.9  Rx     18EFCD1C  8  A0 00 1B 00 00 00 00 00 
     2)        28.9  Rx     18EFCD1C  8  A0 00 00 00 00 00 00 00 
     3)       168.9  Rx     18EFCD1C  8  A0 00 14 00 00 00 00 00 
     4)       188.9  Rx     18EFCD1C  8  A0 00 2A 00 00 00 00 00 
     5)       208.9  Rx     18EFCD1C  8  A0 00 1B 00 00 00 00 00 
     6)       228.9  Rx     18EFCD1C  8  A0 00 00 00 00 00 00 00 
     7)       369.0  Rx     18EFCD1C  8  A0 00 14 00 00 00 00 00 
     8)       389.0  Rx     18EFCD1C  8  A0 00 2A 00 00 00 00 00 
     9)       409.0  Rx     18EFCD1C  8  A0 00 1B 00 00 00 00 00 
    10)       429.0  Rx     18EFCD1C  8  A0 00 00 00 00 00 00 00 
    11)       569.0  Rx     18EFCD1C  8  A0 00 14 00 00 00 00 00 
    12)       589.0  Rx     18EFCD1C  8  A0 00 2A 00 00 00 00 00 
    13)       609.0  Rx     18EFCD1C  8  A0 00 1B 00 00 00 00 00 
    14)       629.0  Rx     18EFCD1C  8  A0 00 00 00 00 00 00 00 
    15)       769.0  Rx     18EFCD1C  8  A0 00 14 00 00 00 00 00 
    16)       789.0  Rx     18EFCD1C  8  A0 00 2A 00 00 00 00 00 
    17)       809.0  Rx     18EFCD1C  8  A0 00 1B 00 00 00 00 00 
    18)       829.0  Rx     18EFCD1C  8  A0 00 00 00 00 00 00 00 
    19)       971.6  Rx     18FEF31C  8  B5 28 80 99 9C D0 2C 89 
    20)       972.2  Rx     18FEE81C  8  FD 38 12 00 00 00 30 51 
    21)       972.8  Rx     18FEE61C  8  6D 22 0C 09 57 29 00 00 
    22)       973.4  Rx     19F8021C  8  5B FC B5 4D 00 00 FF FF 
    23)       974.0  Rx     18EFCD1C  8  A0 00 14 00 00 00 00 00 
    24)       976.0  Rx     19F8051C  8  A0 2F 5B EE 50 F8 42 FB 
    25)       976.6  Rx     19F8051C  8  A1 1A 80 4B AD CC B9 A6 
    26)       977.2  Rx     19F8051C  8  A2 98 06 20 68 A7 27 67 
    27)       977.8  Rx     19F8051C  8  A3 92 CB 02 17 FC 47 08 
    28)       978.4  Rx     19F8051C  8  A4 00 00 00 00 40 00 0E 
    29)       979.0  Rx     19F8051C  8  A5 55 00 8E 00 FC 0F 00 
    30)       979.6  Rx     19F8051C  8  A6 00 01 AF 02 F4 01 FF 
    31)       989.0  Rx     18EFCD1C  8  A0 00 2A 00 00 00 00 00 
    32)      1009.0  Rx     18EFCD1C  8  A0 00 1B 00 00 00 00 00 
    33)      1029.0  Rx     18EFCD1C  8  A0 00 00 00 00 00 00 00 
    34)      1169.7  Rx     18EFCD1C  8  A0 00 14 00 00 00 00 00 
    35)      1190.6  Rx     18EFCD1C  8  A0 00 2A 00 00 00 00 00 
    36)      1208.9  Rx     18EFCD1C  8  A0 00 1B 00 00 00 00 00 
    37)      1228.9  Rx     18EFCD1C  8  A0 00 00 00 00 00 00 00 
    38)      1312.9  Rx     18EF8F1C  4  01 D9 22 00 
    39)      1369.0  Rx     18EFCD1C  8  A0 00 14 00 00 00 00 00 
    40)      1390.1  Rx     18EFCD1C  8  A0 00 2A 00 00 00 00 00 
    41)      1409.0  Rx     18EFCD1C  8  A0 00 1B 00 00 00 00 00 
    42)      1428.9  Rx     18EFCD1C  8  A0 00 00 00 00 00 00 00 
    43)      1569.0  Rx     18EFCD1C  8  A0 00 14 00 00 00 00 00 
    44)      1589.0  Rx     18EFCD1C  8  A0 00 2A 00 00 00 00 00 
    45)      1610.1  Rx     18EFCD1C  8  A0 00 1B 00 00 00 00 00 
    46)      1628.9  Rx     18EFCD1C  8  A0 00 00 00 00 00 00 00 
    47)      1768.9  Rx     18EFCD1C  8  A0 00 14 00 00 00 00 00 
    48)      1788.9  Rx     18EFCD1C  8  A0 00 2A 00 00 00 00 00 
    49)      1809.4  Rx     18EFCD1C  8  A0 00 1B 00 00 00 00 00 
    50)      1830.2  Rx     18EFCD1C  8  A0 00 00 00 00 00 00 00 
    51)      1970.4  Rx     18FEF31C  8  B5 28 80 99 9B D0 2C 89 
    52)      1971.0  Rx     18FEE81C  8  FD 38 0F 00 00 00 30 51 
    53)      1971.6  Rx     18FEE61C  8  71 22 0C 09 57 29 00 00 
    54)      1972.2  Rx     19F8021C  8  60 FC B5 4D 00 00 FF FF 
    55)      1972.8  Rx     18EFCD1C  8  A0 00 14 00 00 00 00 00 
    56)      1974.8  Rx     19F8051C  8  C0 2F 60 EE 50 08 6A FB 
    57)      1975.4  Rx     19F8051C  8  C1 1A 00 10 FE B8 B9 A6 
    58)      1975.9  Rx     19F8051C  8  C2 98 06 E0 89 D3 18 67 
    59)      1977.0  Rx     19F8051C  8  C3 92 CB 02 9E FA 47 08 
    60)      1977.6  Rx     19F8051C  8  C4 00 00 00 00 40 00 0E 
    61)      1978.2  Rx     19F8051C  8  C5 55 00 8E 00 FC 0F 00 
    62)      1978.8  Rx     19F8051C  8  C6 00 01 AF 02 58 02 FF 
    63)      1988.9  Rx     18EFCD1C  8  A0 00 2A 00 00 00 00 00 
    64)      1989.3  Rx     18EFCD1C  4  01 FC 1B 00 
    65)      2008.9  Rx     18EFCD1C  8  A0 00 1B 00 00 00 00 00 
    66)      2029.6  Rx     18EFCD1C  8  A0 00 00 00 00 00 00 00 
    67)      2168.9  Rx     18EFCD1C  8  A0 00 14 00 00 00 00 00 
    68)      2188.8  Rx     18EFCD1C  8  A0 00 2A 00 00 00 00 00 
    69)      2208.9  Rx     18EFCD1C  8  A0 00 1B 00 00 00 00 00 
    70)      2228.9  Rx     18EFCD1C  8  A0 00 00 00 00 00 00 00 
    71)      2368.9  Rx     18EFCD1C  8  A0 00 14 00 00 00 00 00 
    72)      2388.8  Rx     18EFCD1C  8  A0 00 2A 00 00 00 00 00 
    73)      2408.9  Rx     18EFCD1C  8  A0 00 1B 00 00 00 00 00 
    74)      2428.9  Rx     18EFCD1C  8  A0 00 00 00 00 00 00 00 
    75)      2568.8  Rx     18EFCD1C  8  A0 00 14 00 00 00 00 00 
    76)      2588.8  Rx     18EFCD1C  8  A0 00 2A 00 00 00 00 00 
    77)      2608.9  Rx     18EFCD1C  8  A0 00 1B 00 00 00 00 00 
    78)      2628.8  Rx     18EFCD1C  8  A0 00 00 00 00 00 00 00 
    79)      2768.8  Rx     18EFCD1C  8  A0 00 14 00 00 00 00 00 
    80)      2788.8  Rx     18EFCD1C  8  A0 00 2A 00 00 00 00 00 
    81)      2808.8  Rx     18EFCD1C  8  A0 00 1B 00 00 00 00 00 
    82)      2828.8  Rx     18EFCD1C  8  A0 00 00 00 00 00 00 00 
    83)      2970.2  Rx     18FEF31C  8  B5 28 80 99 9B D0 2C 89 
    84)      2970.8  Rx     18FEE81C  8  FD 38 12 00 00 00 30 51 
    85)      2971.4  Rx     18FEE61C  8  75 22 0C 09 57 29 00 00 
    86)      2972.0  Rx     19F8021C  8  65 FC B5 4D 00 00 FF FF 
    87)      2972.6  Rx     18EFCD1C  8  A0 00 14 00 00 00 00 00 
    88)      2975.7  Rx     19F8051C  8  E0 2F 65 EE 50 18 91 FB 
    89)      2976.3  Rx     19F8051C  8  E1 1A C0 5A 91 AE B9 A6 
    90)      2976.9  Rx     19F8051C  8  E2 98 06 00 D2 3A F1 66 
    91)      2977.4  Rx     19F8051C  8  E3 92 CB 02 65 0E 48 08 
    92)      2978.1  Rx     19F8051C  8  E4 00 00 00 00 40 00 0E 
    93)      2978.7  Rx     19F8051C  8  E5 55 00 8E 00 FC 0F 00 
    94)      2979.3  Rx     19F8051C  8  E6 00 01 AF 02 BC 02 FF 
    95)      2988.7  Rx     18EFCD1C  8  A0 00 2A 00 00 00 00 00 
    96)      3008.8  Rx     18EFCD1C  8  A0 00 1B 00 00 00 00 00 
    97)      3028.8  Rx     18EFCD1C  8  A0 00 00 00 00 00 00 00 
    98)      3168.7  Rx     18EFCD1C  8  A0 00 14 00 00 00 00 00 
    99)      3188.7  Rx     18EFCD1C  8  A0 00 2A 00 00 00 00 00 
   100)      3208.7  Rx     18EFCD1C  8  A0 00 1B 00 00 00 00 00 
   101)      3228.7  Rx     18EFCD1C  8  A0 00 00 00 00 00 00 00 
   102)      3314.5  Rx     18EF8F1C  4  01 DA 22 00 
   103)      3368.7  Rx     18EFCD1C  8  A0 00 14 00 00 00 00 00 
   104)      3388.7  Rx     18EFCD1C  8  A0 00 2A 00 00 00 00 00 
   105)      3408.7  Rx     18EFCD1C  8  A0 00 1B 00 00 00 00 00 
   106)      3428.7  Rx     18EFCD1C  8  A0 00 00 00 00 00 00 00 
   107)      3568.8  Rx     18EFCD1C  8  A0 00 14 00 00 00 00 00 
   108)      3588.7  Rx     18EFCD1C  8  A0 00 2A 00 00 00 00 00 
   109)      3608.7  Rx     18EFCD1C  8  A0 00 1B 00 00 00 00 00 
   110)      3628.8  Rx     18EFCD1C  8  A0 00 00 00 00 00 00 00 
   111)      3770.7  Rx     18EFCD1C  8  A0 00 14 00 00 00 00 00 
   112)      3788.7  Rx     18EFCD1C  8  A0 00 2A 00 00 00 00 00 
   113)      3808.7  Rx     18EFCD1C  8  A0 00 1B 00 00 00 00 00 
   114)      3828.7  Rx     18EFCD1C  8  A0 00 00 00 00 00 00 00 
   115)      3970.7  Rx     18FEF31C  8  B4 28 80 99 9A D0 2C 89 
   116)      3971.3  Rx     18FEE81C  8  FD 38 12 00 00 00 30 51 
   117)      3971.9  Rx     18FEE61C  8  79 22 0C 09 57 29 00 00 
   118)      3972.5  Rx     19F0101C  8  6A 00 EE 50 28 B8 FB 1A 
   119)      3973.1  Rx     19F8021C  8  6A FC B5 4D 00 00 FF FF 
   120)      3973.7  Rx     18EFCD1C  8  A0 00 14 00 00 00 00 00 
   121)      3975.5  Rx     19F8051C  8  00 2F 6A EE 50 28 B8 FB 
   122)      3976.1  Rx     19F8051C  8  01 1A 00 5B 83 98 B9 A6 
   123)      3976.7  Rx     19F8051C  8  02 98 06 80 5C CD BB 66 
   124)      3977.2  Rx     19F8051C  8  03 92 CB 02 BE FC 47 08 
   125)      3977.9  Rx     19F8051C  8  04 00 00 00 00 40 00 0E 
   126)      3978.5  Rx     19F8051C  8  05 55 00 8E 00 FC 0F 00 
   127)      3979.1  Rx     19F8051C  8  06 00 01 AF 02 20 03 FF 
   128)      3990.5  Rx     18EFCD1C  8  A0 00 2A 00 00 00 00 00 
   129)      3991.0  Rx     18EFCD1C  4  01 FD 1B 00 
   130)      4008.6  Rx     18EFCD1C  8  A0 00 1B 00 00 00 00 00 
   131)      4028.6  Rx     18EFCD1C  8  A0 00 00 00 00 00 00 00 
   132)      4168.5  Rx     18EFCD1C  8  A0 00 14 00 00 00 00 00 
   133)      4189.4  Rx     18EFCD1C  8  A0 00 2A 00 00 00 00 00 
   134)      4210.4  Rx     18EFCD1C  8  A0 00 1B 00 00 00 00 00 
   135)      4228.5  Rx     18EFCD1C  8  A0 00 00 00 00 00 00 00 
   136)      4368.5  Rx     18EFCD1C  8  A0 00 14 00 00 00 00 00 
   137)      4388.5  Rx     18EFCD1C  8  A0 00 2A 00 00 00 00 00 
   138)      4409.6  Rx     18EFCD1C  8  A0 00 1B 00 00 00 00 00 
   139)      4428.5  Rx     18EFCD1C  8  A0 00 00 00 00 00 00 00 
   140)      4568.5  Rx     18EFCD1C  8  A0 00 14 00 00 00 00 00 
   141)      4588.5  Rx     18EFCD1C  8  A0 00 2A 00 00 00 00 00 
   142)      4608.4  Rx     18EFCD1C  8  A0 00 1B 00 00 00 00 00 
   143)      4629.6  Rx     18EFCD1C  8  A0 00 00 00 00 00 00 00 
   144)      4768.4  Rx     18EFCD1C  8  A0 00 14 00 00 00 00 00 
   145)      4788.4  Rx     18EFCD1C  8  A0 00 2A 00 00 00 00 00 
   146)      4808.4  Rx     18EFCD1C  8  A0 00 1B 00 00 00 00 00 
   147)      4828.4  Rx     18EFCD1C  8  A0 00 00 00 00 00 00 00 
   148)      4969.9  Rx     18FEF31C  8  B3 28 80 99 9A D0 2C 89 
   149)      4970.5  Rx     18FEE81C  8  FD 38 02 00 00 00 2F 51 
   150)      4971.1  Rx     18FEE61C  8  7D 22 0C 09 57 29 00 00 
   151)      4971.7  Rx     19F8021C  8  6F FC B5 4D 00 00 FF FF 
   152)      4972.3  Rx     18EFCD1C  8  A0 00 14 00 00 00 00 00 
   153)      4975.2  Rx     19F8051C  8  20 2F 6F EE 50 38 DF FB 
   154)      4975.8  Rx     19F8051C  8  21 1A 00 F2 35 64 B9 A6 
   155)      4976.4  Rx     19F8051C  8  22 98 06 A0 CE B6 AB 66 
   156)      4977.0  Rx     19F8051C  8  23 92 CB 02 2F B1 47 08 
   157)      4977.6  Rx     19F8051C  8  24 00 00 00 00 40 00 0E 
   158)      4978.2  Rx     19F8051C  8  25 55 00 8E 00 FC 0F 00 
   159)      4978.8  Rx     19F8051C  8  26 00 01 AF 02 F4 01 FF 
   160)      4988.4  Rx     18EFCD1C  8  A0 00 2A 00 00 00 00 00 
   161)      5008.4  Rx     18EFCD1C  8  A0 00 1B 00 00 00 00 00 
   162)      5028.4  Rx     18EFCD1C  8  A0 00 00 00 00 00 00 00 
   163)      5168.4  Rx     18EFCD1C  8  A0 00 14 00 00 00 00 00 
   164)      5188.4  Rx     18EFCD1C  8  A0 00 2A 00 00 00 00 00 
   165)      5208.4  Rx     18EFCD1C  8  A0 00 1B 00 00 00 00 00 
   166)      5228.4  Rx     18EFCD1C  8  A0 00 00 00 00 00 00 00 
   167)      5368.4  Rx     18EFCD1C  8  A0 00 14 00 00 00 00 00 
   168)      5388.4  Rx     18EFCD1C  8  A0 00 2A 00 00 00 00 00 
   169)      5408.4  Rx     18EFCD1C  8  A0 00 1B 00 00 00 00 00 
   170)      5428.4  Rx     18EFCD1C  8  A0 00 00 00 00 00 00 00 
   171)      5514.8  Rx     18EF8F1C  4  01 DB 22 00 
   172)      5568.4  Rx     18EFCD1C  8  A0 00 14 00 00 00 00 00 
   173)      5588.4  Rx     18EFCD1C  8  A0 00 2A 00 00 00 00 00 
   174)      5608.4  Rx     18EFCD1C  8  A0 00 1B 00 00 00 00 00 
   175)      5628.3  Rx     18EFCD1C  8  A0 00 00 00 00 00 00 00 
   176)      5768.3  Rx     18EFCD1C  8  A0 00 14 00 00 00 00 00 
   177)      5788.3  Rx     18EFCD1C  8  A0 00 2A 00 00 00 00 00 
   178)      5808.3  Rx     18EFCD1C  8  A0 00 1B 00 00 00 00 00 
   179)      5828.3  Rx     18EFCD1C  8  A0 00 00 00 00 00 00 00 
   180)      5970.9  Rx     18FEF31C  8  B3 28 80 99 9A D0 2C 89 
   181)      5971.5  Rx     18FEE81C  8  FD 38 0A 00 00 00 30 51 
   182)      5972.1  Rx     18FEE61C  8  81 22 0C 09 57 29 00 00 
   183)      5972.6  Rx     19F8021C  8  74 FC B5 4D 00 00 FF FF 
   184)      5973.3  Rx     18EFCD1C  8  A0 00 14 00 00 00 00 00 
   185)      5975.3  Rx     19F8051C  8  40 2F 74 EE 50 48 06 FC 
   186)      5975.9  Rx     19F8051C  8  41 1A C0 CB 89 5C B9 A6 
   187)      5976.5  Rx     19F8051C  8  42 98 06 E0 3F BB B6 66 
   188)      5977.1  Rx     19F8051C  8  43 92 CB 02 1D EF 47 08 
   189)      5977.7  Rx     19F8051C  8  44 00 00 00 00 40 00 0E 
   190)      5978.3  Rx     19F8051C  8  45 55 00 8E 00 FC 0F 00 
   191)      5978.9  Rx     19F8051C  8  46 00 01 AF 02 58 02 FF 
   192)      5988.2  Rx     18EFCD1C  8  A0 00 2A 00 00 00 00 00 
   193)      6008.3  Rx     18EFCD1C  8  A0 00 1B 00 00 00 00 00 
   194)      6008.7  Rx     18EFCD1C  4  01 FE 1B 00 
   195)      6028.3  Rx     18EFCD1C  8  A0 00 00 00 00 00 00 00 
   196)      6168.2  Rx     18EFCD1C  8  A0 00 14 00 00 00 00 00 
   197)      6188.2  Rx     18EFCD1C  8  A0 00 2A 00 00 00 00 00 
   198)      6208.2  Rx     18EFCD1C  8  A0 00 1B 00 00 00 00 00 
   199)      6228.2  Rx     18EFCD1C  8  A0 00 00 00 00 00 00 00 
   200)      6369.5  Rx     18EFCD1C  8  A0 00 14 00 00 00 00 00 
   201)      6388.2  Rx     18EFCD1C  8  A0 00 2A 00 00 00 00 00 
   202)      6408.2  Rx     18EFCD1C  8  A0 00 1B 00 00 00 00 00 
   203)      6428.2  Rx     18EFCD1C  8  A0 00 00 00 00 00 00 00 
   204)      6569.8  Rx     18EFCD1C  8  A0 00 14 00 00 00 00 00 
   205)      6588.2  Rx     18EFCD1C  8  A0 00 2A 00 00 00 00 00 
   206)      6608.2  Rx     18EFCD1C  8  A0 00 1B 00 00 00 00 00 
   207)      6628.2  Rx     18EFCD1C  8  A0 00 00 00 00 00 00 00 
   208)      6768.2  Rx     18EFCD1C  8  A0 00 14 00 00 00 00 00 
   209)      6789.9  Rx     18EFCD1C  8  A0 00 2A 00 00 00 00 00 
   210)      6808.2  Rx     18EFCD1C  8  A0 00 1B 00 00 00 00 00 
   211)      6828.2  Rx     18EFCD1C  8  A0 00 00 00 00 00 00 00 
   212)      6969.6  Rx     18FEF31C  8  B3 28 80 99 9A D0 2C 89 
   213)      6970.2  Rx     18FEE81C  8  FD 38 0A 00 00 00 2F 51 
   214)      6970.8  Rx     18FEE61C  8  85 22 0C 09 57 29 00 00 
   215)      6971.4  Rx     19F8021C  8  79 FC B5 4D 00 00 FF FF 
   216)      6972.0  Rx     18EFCD1C  8  A0 00 14 00 00 00 00 00 
   217)      6974.0  Rx     19F8051C  8  60 2F 79 EE 50 58 2D FC 
   218)      6974.6  Rx     19F8051C  8  61 1A C0 D0 39 52 B9 A6 
   219)      6975.2  Rx     19F8051C  8  62 98 06 E0 21 F9 AC 66 
   220)      6975.8  Rx     19F8051C  8  63 92 CB 02 E8 CB 47 08 
   221)      6976.4  Rx     19F8051C  8  64 00 00 00 00 40 00 0E 
   222)      6977.0  Rx     19F8051C  8  65 55 00 8E 00 FC 0F 00 
   223)      6977.6  Rx     19F8051C  8  66 00 01 AF 02 BC 02 FF 
   224)      6988.3  Rx     18EFCD1C  8  A0 00 2A 00 00 00 00 00 
   225)      7009.8  Rx     18EFCD1C  8  A0 00 1B 00 00 00 00 00 
   226)      7028.1  Rx     18EFCD1C  8  A0 00 00 00 00 00 00 00 
   227)      7168.1  Rx     18EFCD1C  8  A0 00 14 00 00 00 00 00 
   228)      7188.1  Rx     18EFCD1C  8  A0 00 2A 00 00 00 00 00 
   229)      7208.6  Rx     18EFCD1C  8  A0 00 1B 00 00 00 00 00 
   230)      7229.7  Rx     18EFCD1C  8  A0 00 00 00 00 00 00 00 
   231)      7368.1  Rx     18EFCD1C  8  A0 00 14 00 00 00 00 00 
   232)      7388.1  Rx     18EFCD1C  8  A0 00 2A 00 00 00 00 00 
   233)      7408.1  Rx     18EFCD1C  8  A0 00 1B 00 00 00 00 00 
   234)      7428.8  Rx     18EFCD1C  8  A0 00 00 00 00 00 00 00 
   235)      7515.7  Rx     18EF8F1C  4  01 DC 22 00 
   236)      7568.1  Rx     18EFCD1C  8  A0 00 14 00 00 00 00 00 
   237)      7588.1  Rx     18EFCD1C  8  A0 00 2A 00 00 00 00 00 
   238)      7608.1  Rx     18EFCD1C  8  A0 00 1B 00 00 00 00 00 
   239)      7628.2  Rx     18EFCD1C  8  A0 00 00 00 00 00 00 00 
   240)      7768.1  Rx     18EFCD1C  8  A0 00 14 00 00 00 00 00 
   241)      7788.1  Rx     18EFCD1C  8  A0 00 2A 00 00 00 00 00 
   242)      7808.1  Rx     18EFCD1C  8  A0 00 1B 00 00 00 00 00 
   243)      7828.1  Rx     18EFCD1C  8  A0 00 00 00 00 00 00 00 
   244)      7969.3  Rx     18FEF31C  8  B3 28 80 99 99 D0 2C 89 
   245)      7969.9  Rx     18FEE81C  8  FD 38 04 00 00 00 2F 51 
   246)      7970.5  Rx     18FEE61C  8  89 22 0C 09 57 29 00 00 
   247)      7971.1  Rx     19F8021C  8  7E FC B5 4D 00 00 FF FF 
   248)      7971.7  Rx     18EFCD1C  8  A0 00 14 00 00 00 00 00 
   249)      7988.1  Rx     18EFCD1C  8  A0 00 2A 00 00 00 00 00 
   250)      7999.9  Rx     19F8051C  8  80 2F 7E EE 50 68 54 FC 
   251)      8000.4  Rx     19F8051C  8  81 1A C0 24 44 44 B9 A6 
   252)      8001.0  Rx     19F8051C  8  82 98 06 80 BC 48 99 66 
   253)      8001.6  Rx     19F8051C  8  83 92 CB 02 EB C7 47 08 
   254)      8002.2  Rx     19F8051C  8  84 00 00 00 00 40 00 0E 
   255)      8002.8  Rx     19F8051C  8  85 55 00 8E 00 FC 0F 00 
   256)      8003.4  Rx     19F8051C  8  86 00 01 AF 02 20 03 FF 
   257)      8008.1  Rx     18EFCD1C  8  A0 00 1B 00 00 00 00 00 
   258)      8028.1  Rx     18EFCD1C  8  A0 00 00 00 00 00 00 00 
   259)      8028.5  Rx     18EFCD1C  4  01 00 1B 00 
   260)      8168.1  Rx     18EFCD1C  8  A0 00 14 00 00 00 00 00 
   261)      8188.1  Rx     18EFCD1C  8  A0 00 2A 00 00 00 00 00 
   262)      8208.1  Rx     18EFCD1C  8  A0 00 1B 00 00 00 00 00 
   263)      8228.1  Rx     18EFCD1C  8  A0 00 00 00 00 00 00 00 
   264)      8368.2  Rx     18EFCD1C  8  A0 00 14 00 00 00 00 00 
   265)      8388.2  Rx     18EFCD1C  8  A0 00 2A 00 00 00 00 00 
   266)      8408.2  Rx     18EFCD1C  8  A0 00 1B 00 00 00 00 00 
   267)      8428.2  Rx     18EFCD1C  8  A0 00 00 00 00 00 00 00 
   268)      8568.2  Rx     18EFCD1C  8  A0 00 14 00 00 00 00 00 
   269)      8588.1  Rx     18EFCD1C  8  A0 00 2A 00 00 00 00 00 
   270)      8608.2  Rx     18EFCD1C  8  A0 00 1B 00 00 00 00 00 
   271)      8628.1  Rx     18EFCD1C  8  A0 00 00 00 00 00 00 00 
   272)      8768.1  Rx     18EFCD1C  8  A0 00 14 00 00 00 00 00 
   273)      8788.1  Rx     18EFCD1C  8  A0 00 2A 00 00 00 00 00 
   274)      8808.1  Rx     18EFCD1C  8  A0 00 1B 00 00 00 00 00 
   275)      8828.1  Rx     18EFCD1C  8  A0 00 00 00 00 00 00 00 
   276)      8970.8  Rx     18FEF31C  8  B2 28 80 99 9A D0 2C 89 
   277)      8971.4  Rx     18FEE81C  8  FD 38 07 00 00 00 30 51 
   278)      8972.0  Rx     18FEE61C  8  8D 22 0C 09 57 29 00 00 
   279)      8972.6  Rx     19F0101C  8  83 00 EE 50 EE 7B FC 1A 
   280)      8973.2  Rx     19F8021C  8  83 FC B5 4D 00 00 FF FF 
   281)      8973.8  Rx     18EFCD1C  8  A0 00 14 00 00 00 00 00 
   282)      8975.8  Rx     19F8051C  8  A0 2F 83 EE 50 EE 7B FC 
   283)      8976.3  Rx     19F8051C  8  A1 1A 80 23 AA 23 B9 A6 
   284)      8976.9  Rx     19F8051C  8  A2 98 06 A0 DA FF B3 66 
   285)      8977.5  Rx     19F8051C  8  A3 92 CB 02 8B 43 48 08 
   286)      8978.1  Rx     19F8051C  8  A4 00 00 00 00 40 00 0E 
   287)      8978.7  Rx     19F8051C  8  A5 55 00 8E 00 FC 0F 00 
   288)      8979.3  Rx     19F8051C  8  A6 00 01 AF 02 F4 01 FF 
   289)      8988.1  Rx     18EFCD1C  8  A0 00 2A 00 00 00 00 00 
   290)      9008.1  Rx     18EFCD1C  8  A0 00 1B 00 00 00 00 00 
   291)      9028.1  Rx     18EFCD1C  8  A0 00 00 00 00 00 00 00 
   292)      9169.2  Rx     18EFCD1C  8  A0 00 14 00 00 00 00 00 
   293)      9188.1  Rx     18EFCD1C  8  A0 00 2A 00 00 00 00 00 
   294)      9208.1  Rx     18EFCD1C  8  A0 00 1B 00 00 00 00 00 
   295)      9228.1  Rx     18EFCD1C  8  A0 00 00 00 00 00 00 00 
   296)      9369.1  Rx     18EFCD1C  8  A0 00 14 00 00 00 00 00 
   297)      9389.2  Rx     18EFCD1C  8  A0 00 2A 00 00 00 00 00 
   298)      9408.1  Rx     18EFCD1C  8  A0 00 1B 00 00 00 00 00 
   299)      9428.1  Rx     18EFCD1C  8  A0 00 00 00 00 00 00 00 
   300)      9568.2  Rx     18EFCD1C  8  A0 00 14 00 00 00 00 00 
   301)      9589.3  Rx     18EFCD1C  8  A0 00 2A 00 00 00 00 00 
   302)      9608.1  Rx     18EFCD1C  8  A0 00 1B 00 00 00 00 00 
   303)      9628.1  Rx     18EFCD1C  8  A0 00 00 00 00 00 00 00 
   304)      9711.5  Rx     18EF8F1C  4  01 DD 22 00 
   305)      9768.1  Rx     18EFCD1C  8  A0 00 14 00 00 00 00 00 
   306)      9789.3  Rx     18EFCD1C  8  A0 00 2A 00 00 00 00 00 
   307)      9809.9  Rx     18EFCD1C  8  A0 00 1B 00 00 00 00 00 
   308)      9828.1  Rx     18EFCD1C  8  A0 00 00 00 00 00 00 00 
   309)      9969.5  Rx     18FEF31C  8  B3 28 80 99 9B D0 2C 89 
   310)      9970.1  Rx     18FEE81C  8  FD 38 0B 00 00 00 30 51 
   311)      9970.7  Rx     18FEE61C  8  91 22 0C 09 57 29 00 00 
   312)      9971.3  Rx     19F8021C  8  88 FC B5 4D 00 00 FF FF 
   313)      9971.9  Rx     18EFCD1C  8  A0 00 14 00 00 00 00 00 
   314)      9973.9  Rx     19F8051C  8  C0 2F 88 EE 50 88 A2 FC 
   315)      9974.5  Rx     19F8051C  8  C1 1A C0 2F 5F 3B B9 A6 
   316)      9975.1  Rx     19F8051C  8  C2 98 06 80 D6 BE EA 66 
   317)      9975.7  Rx     19F8051C  8  C3 92 CB 02 D0 3E 48 08 
   318)      9976.3  Rx     19F8051C  8  C4 00 00 00 00 40 00 0E 
   319)      9976.9  Rx     19F8051C  8  C5 55 00 8E 00 FC 0F 00 
   320)      9977.5  Rx     19F8051C  8  C6 00 01 AF 02 58 02 FF 
   321)      9988.0  Rx     18EFCD1C  8  A0 00 2A 00 00 00 00 00 
   322)     10008.3  Rx     18EFCD1C  8  A0 00 1B 00 00 00 00 00 
   323)     10029.8  Rx     18EFCD1C  8  A0 00 00 00 00 00 00 00 
   324)     10030.2  Rx     18EFCD1C  4  01 01 1B 00 
   325)     10168.0  Rx     18EFCD1C  8  A0 00 14 00 00 00 00 00 
   326)     10188.0  Rx     18EFCD1C  8  A0 00 2A 00 00 00 00 00 
   327)     10208.0  Rx     18EFCD1C  8  A0 00 1B 00 00 00 00 00 
   328)     10228.6  Rx     18EFCD1C  8  A0 00 00 00 00 00 00 00 
   329)     10368.0  Rx     18EFCD1C  8  A0 00 14 00 00 00 00 00 
   330)     10388.0  Rx     18EFCD1C  8  A0 00 2A 00 00 00 00 00 
   331)     10408.0  Rx     18EFCD1C  8  A0 00 1B 00 00 00 00 00 
   332)     10428.0  Rx     18EFCD1C  8  A0 00 00 00 00 00 00 00 
   333)     10568.0  Rx     18EFCD1C  8  A0 00 14 00 00 00 00 00 
   334)     10588.0  Rx     18EFCD1C  8  A0 00 2A 00 00 00 00 00 
   335)     10608.0  Rx     18EFCD1C  8  A0 00 1B 00 00 00 00 00 
   336)     10628.0  Rx     18EFCD1C  8  A0 00 00 00 00 00 00 00 
   337)     10768.0  Rx     18EFCD1C  8  A0 00 14 00 00 00 00 00 
   338)     10788.0  Rx     18EFCD1C  8  A0 00 2A 00 00 00 00 00 
   339)     10808.0  Rx     18EFCD1C  8  A0 00 1B 00 00 00 00 00 
   340)     10828.0  Rx     18EFCD1C  8  A0 00 00 00 00 00 00 00 
   341)     10969.5  Rx     18FEF31C  8  B2 28 80 99 9B D0 2C 89 
   342)     10970.1  Rx     18FEE81C  8  FD 38 05 00 00 00 30 51 
   343)     10970.7  Rx     18FEE61C  8  95 22 0C 09 57 29 00 00 
   344)     10971.3  Rx     19F8021C  8  8D FC B5 4D 00 00 FF FF 
   345)     10971.9  Rx     18EFCD1C  8  A0 00 14 00 00 00 00 00 
   346)     10975.1  Rx     19F8051C  8  E0 2F 8D EE 50 98 C9 FC 
   347)     10975.7  Rx     19F8051C  8  E1 1A 40 B5 CA 2D B9 A6 
   348)     10976.3  Rx     19F8051C  8  E2 98 06 20 D7 42 04 67 
   349)     10976.9  Rx     19F8051C  8  E3 92 CB 02 CB 43 48 08 
   350)     10977.5  Rx     19F8051C  8  E4 00 00 00 00 40 00 0E 
   351)     10978.1  Rx     19F8051C  8  E5 55 00 8E 00 FC 0F 00 
   352)     10978.7  Rx     19F8051C  8  E6 00 01 AF 02 BC 02 FF 
   353)     10988.0  Rx     18EFCD1C  8  A0 00 2A 00 00 00 00 00 
   354)     11008.0  Rx     18EFCD1C  8  A0 00 1B 00 00 00 00 00 
   355)     11028.0  Rx     18EFCD1C  8  A0 00 00 00 00 00 00 00 
   356)     11167.9  Rx     18EFCD1C  8  A0 00 14 00 00 00 00 00 
   357)     11187.9  Rx     18EFCD1C  8  A0 00 2A 00 00 00 00 00 
   358)     11207.9  Rx     18EFCD1C  8  A0 00 1B 00 00 00 00 00 
   359)     11227.9  Rx     18EFCD1C  8  A0 00 00 00 00 00 00 00 
   360)     11367.9  Rx     18EFCD1C  8  A0 00 14 00 00 00 00 00 
   361)     11387.8  Rx     18EFCD1C  8  A0 00 2A 00 00 00 00 00 
   362)     11407.9  Rx     18EFCD1C  8  A0 00 1B 00 00 00 00 00 
   363)     11427.8  Rx     18EFCD1C  8  A0 00 00 00 00 00 00 00 
   364)     11567.8  Rx     18EFCD1C  8  A0 00 14 00 00 00 00 00 
   365)     11587.7  Rx     18EFCD1C  8  A0 00 2A 00 00 00 00 00 
   366)     11607.8  Rx     18EFCD1C  8  A0 00 1B 00 00 00 00 00 
   367)     11627.8  Rx     18EFCD1C  8  A0 00 00 00 00 00 00 00 
   368)     11713.6  Rx     18EF8F1C  4  01 DE 22 00 
   369)     11767.8  Rx     18EFCD1C  8  A0 00 14 00 00 00 00 00 
   370)     11787.8  Rx     18EFCD1C  8  A0 00 2A 00 00 00 00 00 
   371)     11807.8  Rx     18EFCD1C  8  A0 00 1B 00 00 00 00 00 
   372)     11827.8  Rx     18EFCD1C  8  A0 00 00 00 00 00 00 00 
   373)     11970.1  Rx     18FEF31C  8  B2 28 80 99 9B D0 2C 89 
   374)     11970.7  Rx     18FEE81C  8  FD 38 0A 00 00 00 30 51 
   375)     11971.3  Rx     18FEE61C  8  99 22 0C 09 57 29 00 00 
   376)     11971.9  Rx     19F8021C  8  92 FC B5 4D 00 00 FF FF 
   377)     11972.5  Rx     18EFCD1C  8  A0 00 14 00 00 00 00 00 
   378)     11974.5  Rx     19F8051C  8  00 2F 92 EE 50 A8 F0 FC 
   379)     11975.1  Rx     19F8051C  8  01 1A 40 F0 A3 2D B9 A6 
   380)     11975.7  Rx     19F8051C  8  02 98 06 00 61 69 0B 67 
   381)     11976.2  Rx     19F8051C  8  03 92 CB 02 C3 3A 48 08 
   382)     11976.9  Rx     19F8051C  8  04 00 00 00 00 40 00 0E 
   383)     11977.5  Rx     19F8051C  8  05 55 00 8E 00 FC 0F 00 
   384)     11978.1  Rx     19F8051C  8  06 00 01 AF 02 20 03 FF 
   385)     11987.8  Rx     18EFCD1C  8  A0 00 2A 00 00 00 00 00 
   386)     12007.8  Rx     18EFCD1C  8  A0 00 1B 00 00 00 00 00 
   387)     12027.8  Rx     18EFCD1C  8  A0 00 00 00 00 00 00 00 
   388)     12047.6  Rx     18EFCD1C  4  01 02 1B 00 
   389)     12168.6  Rx     18EFCD1C  8  A0 00 14 00 00 00 00 00 
   390)     12189.3  Rx     18EFCD1C  8  A0 00 2A 00 00 00 00 00 
   391)     12207.8  Rx     18EFCD1C  8  A0 00 1B 00 00 00 00 00 
   392)     12227.8  Rx     18EFCD1C  8  A0 00 00 00 00 00 00 00 
   393)     12367.8  Rx     18EFCD1C  8  A0 00 14 00 00 00 00 00 
   394)     12388.9  Rx     18EFCD1C  8  A0 00 2A 00 00 00 00 00 
   395)     12409.1  Rx     18EFCD1C  8  A0 00 1B 00 00 00 00 00 
   396)     12427.9  Rx     18EFCD1C  8  A0 00 00 00 00 00 00 00 
   397)     12567.8  Rx     18EFCD1C  8  A0 00 14 00 00 00 00 00 
   398)     12587.8  Rx     18EFCD1C  8  A0 00 2A 00 00 00 00 00 
   399)     12609.0  Rx     18EFCD1C  8  A0 00 1B 00 00 00 00 00 
   400)     12629.3  Rx     18EFCD1C  8  A0 00 00 00 00 00 00 00 
   401)     12767.8  Rx     18EFCD1C  8  A0 00 14 00 00 00 00 00 
   402)     12787.8  Rx     18EFCD1C  8  A0 00 2A 00 00 00 00 00 
   403)     12808.0  Rx     18EFCD1C  8  A0 00 1B 00 00 00 00 00 
   404)     12829.4  Rx     18EFCD1C  8  A0 00 00 00 00 00 00 00 
   405)     12969.3  Rx     18FEF31C  8  B3 28 80 99 9D D0 2C 89 
   406)     12969.9  Rx     18FEE81C  8  FD 38 06 00 00 00 30 51 
   407)     12970.5  Rx     18FEE61C  8  9D 22 0C 09 57 29 00 00 
   408)     12971.1  Rx     19F8021C  8  97 FC B5 4D 00 00 FF FF 
   409)     12971.7  Rx     18EFCD1C  8  A0 00 14 00 00 00 00 00 
   410)     12973.7  Rx     19F8051C  8  20 2F 97 EE 50 B8 17 FD 
   411)     12975.0  Rx     19F8051C  8  21 1A 40 84 15 5F B9 A6 
   412)     12975.6  Rx     19F8051C  8  22 98 06 A0 EE 34 68 67 
   413)     12976.1  Rx     19F8051C  8  23 92 CB 02 8A 34 48 08 
   414)     12976.8  Rx     19F8051C  8  24 00 00 00 00 40 00 0E 
   415)     12977.4  Rx     19F8051C  8  25 55 00 8E 00 FC 0F 00 
   416)     12978.0  Rx     19F8051C  8  26 00 01 AF 02 F4 01 FF 
   417)     12987.8  Rx     18EFCD1C  8  A0 00 2A 00 00 00 00 00 
   418)     13007.8  Rx     18EFCD1C  8  A0 00 1B 00 00 00 00 00 
   419)     13027.8  Rx     18EFCD1C  8  A0 00 00 00 00 00 00 00 
   420)     13167.8  Rx     18EFCD1C  8  A0 00 14 00 00 00 00 00 
   421)     13187.8  Rx     18EFCD1C  8  A0 00 2A 00 00 00 00 00 
   422)     13207.8  Rx     18EFCD1C  8  A0 00 1B 00 00 00 00 00 
   423)     13227.8  Rx     18EFCD1C  8  A0 00 00 00 00 00 00 00 
   424)     13367.8  Rx     18EFCD1C  8  A0 00 14 00 00 00 00 00 
   425)     13387.8  Rx     18EFCD1C  8  A0 00 2A 00 00 00 00 00 
   426)     13407.8  Rx     18EFCD1C  8  A0 00 1B 00 00 00 00 00 
   427)     13427.8  Rx     18EFCD1C  8  A0 00 00 00 00 00 00 00 
   428)     13567.8  Rx     18EFCD1C  8  A0 00 14 00 00 00 00 00 
   429)     13587.8  Rx     18EFCD1C  8  A0 00 2A 00 00 00 00 00 
   430)     13607.8  Rx     18EFCD1C  8  A0 00 1B 00 00 00 00 00 
   431)     13627.8  Rx     18EFCD1C  8  A0 00 00 00 00 00 00 00 
   432)     13767.8  Rx     18EFCD1C  8  A0 00 14 00 00 00 00 00 
   433)     13787.8  Rx     18EFCD1C  8  A0 00 2A 00 00 00 00 00 
   434)     13807.8  Rx     18EFCD1C  8  A0 00 1B 00 00 00 00 00 
   435)     13827.8  Rx     18EFCD1C  8  A0 00 00 00 00 00 00 00 
   436)     13913.4  Rx     18EF8F1C  4  01 DF 22 00 
