;$FILEVERSION=1.1
;$STARTTIME=46287.6078939236
;
;   Start time: 9/22/2026 14:35:22.035.0
;   Generated by PCAN-View v5.3.3.958
;
;   Message Number
;   |         Time Offset (ms)
;   |         |        Type
;   |         |        |        ID (hex)
;   |         |        |        |     Data Length
;   |         |        |        |     |   Data Bytes (hex) ...
;   |         |        |        |     |   |
;---+--   ----+----  --+--  ----+---  +  -+ -- -- -- -- -- -- --
     1)        39.3  Rx     18EF8F1C  4  01 F2 22 00 
     2)        94.3  Rx     18EFCD1C  8  A0 00 14 00 00 00 00 00 
     3)       114.3  Rx     18EFCD1C  8  A0 00 2A 00 00 00 00 00 
     4)       134.3  Rx     18EFCD1C  8  A0 00 1B 00 00 00 00 00 
     5)       154.4  Rx     18EFCD1C  8  A0 00 00 00 00 00 00 00 
     6)       295.6  Rx     18EFCD1C  8  A0 00 14 00 00 00 00 00 
     7)       314.4  Rx     18EFCD1C  8  A0 00 2A 00 00 00 00 00 
     8)       334.4  Rx     18EFCD1C  8  A0 00 1B 00 00 00 00 00 
     9)       354.4  Rx     18EFCD1C  8  A0 00 00 00 00 00 00 00 
    10)       495.5  Rx     18EFCD1C  8  A0 00 14 00 00 00 00 00 
    11)       515.6  Rx     18EFCD1C  8  A0 00 2A 00 00 00 00 00 
    12)       534.4  Rx     18EFCD1C  8  A0 00 1B 00 00 00 00 00 
    13)       554.4  Rx     18EFCD1C  8  A0 00 00 00 00 00 00 00 
    14)       694.9  Rx     18EFCD1C  8  A0 00 14 00 00 00 00 00 
    15)       715.5  Rx     18EFCD1C  8  A0 00 2A 00 00 00 00 00 
    16)       734.3  Rx     18EFCD1C  8  A0 00 1B 00 00 00 00 00 
    17)       754.3  Rx     18EFCD1C  8  A0 00 00 00 00 00 00 00 
    18)       895.8  Rx     18FEF31C  8  B5 28 80 99 98 D0 2C 89 
    19)       896.3  Rx     18FEE81C  8  FD 38 19 00 00 00 30 51 
    20)       896.9  Rx     18FEE61C  8  59 23 0C 09 57 29 00 00 
    21)       897.5  Rx     19F8021C  8  73 FC B5 4D 00 00 FF FF 
    22)       898.1  Rx     18EFCD1C  8  A0 00 14 00 00 00 00 00 
    23)       900.3  Rx     19F8051C  8  80 2F 73 EE 50 68 A7 03 
    24)       900.9  Rx     19F8051C  8  81 1B 00 1C 00 AD B9 A6 
    25)       901.5  Rx     19F8051C  8  82 98 06 40 04 71 4F 66 
    26)       902.1  Rx     19F8051C  8  83 92 CB 02 EF 12 48 08 
    27)       902.7  Rx     19F8051C  8  84 00 00 00 00 40 00 0E 
    28)       903.3  Rx     19F8051C  8  85 55 00 8E 00 FC 0F 00 
    29)       903.8  Rx     19F8051C  8  86 00 01 AF 02 20 03 FF 
    30)       914.8  Rx     18EFCD1C  8  A0 00 2A 00 00 00 00 00 
    31)       935.4  Rx     18EFCD1C  8  A0 00 1B 00 00 00 00 00 
    32)       954.3  Rx     18EFCD1C  8  A0 00 00 00 00 00 00 00 
    33)      1094.2  Rx     18EFCD1C  8  A0 00 14 00 00 00 00 00 
    34)      1114.2  Rx     18EFCD1C  8  A0 00 2A 00 00 00 00 00 
    35)      1135.0  Rx     18EFCD1C  8  A0 00 1B 00 00 00 00 00 
    36)      1155.3  Rx     18EFCD1C  8  A0 00 00 00 00 00 00 00 
    37)      1294.3  Rx     18EFCD1C  8  A0 00 14 00 00 00 00 00 
    38)      1294.7  Rx     18EFCD1C  4  01 18 1B 00 
    39)      1314.2  Rx     18EFCD1C  8  A0 00 2A 00 00 00 00 00 
    40)      1334.2  Rx     18EFCD1C  8  A0 00 1B 00 00 00 00 00 
    41)      1355.2  Rx     18EFCD1C  8  A0 00 00 00 00 00 00 00 
    42)      1494.2  Rx     18EFCD1C  8  A0 00 14 00 00 00 00 00 
    43)      1514.2  Rx     18EFCD1C  8  A0 00 2A 00 00 00 00 00 
    44)      1534.2  Rx     18EFCD1C  8  A0 00 1B 00 00 00 00 00 
    45)      1554.2  Rx     18EFCD1C  8  A0 00 00 00 00 00 00 00 
    46)      1694.2  Rx     18EFCD1C  8  A0 00 14 00 00 00 00 00 
    47)      1714.1  Rx     18EFCD1C  8  A0 00 2A 00 00 00 00 00 
    48)      1734.2  Rx     18EFCD1C  8  A0 00 1B 00 00 00 00 00 
    49)      1754.2  Rx     18EFCD1C  8  A0 00 00 00 00 00 00 00 
    50)      1895.5  Rx     18FEF31C  8  B4 28 80 99 9A D0 2C 89 
    51)      1896.1  Rx     18FEE81C  8  FD 38 15 00 00 00 30 51 
    52)      1896.7  Rx     18FEE61C  8  5D 23 0C 09 57 29 00 00 
    53)      1897.2  Rx     19F8021C  8  78 FC B5 4D 00 00 FF FF 
    54)      1897.9  Rx     18EFCD1C  8  A0 00 14 00 00 00 00 00 
    55)      1901.0  Rx     19F8051C  8  A0 2F 78 EE 50 78 CE 03 
    56)      1901.6  Rx     19F8051C  8  A1 1B C0 5D 75 8F B9 A6 
    57)      1902.1  Rx     19F8051C  8  A2 98 06 E0 DE E6 AB 66 
    58)      1902.7  Rx     19F8051C  8  A3 92 CB 02 3D 82 48 08 
    59)      1903.3  Rx     19F8051C  8  A4 00 00 00 00 40 00 0E 
    60)      1903.9  Rx     19F8051C  8  A5 55 00 8E 00 FC 0F 00 
    61)      1904.5  Rx     19F8051C  8  A6 00 01 AF 02 F4 01 FF 
    62)      1914.1  Rx     18EFCD1C  8  A0 00 2A 00 00 00 00 00 
    63)      1934.2  Rx     18EFCD1C  8  A0 00 1B 00 00 00 00 00 
    64)      1954.2  Rx     18EFCD1C  8  A0 00 00 00 00 00 00 00 
    65)      2094.2  Rx     18EFCD1C  8  A0 00 14 00 00 00 00 00 
    66)      2114.1  Rx     18EFCD1C  8  A0 00 2A 00 00 00 00 00 
    67)      2134.1  Rx     18EFCD1C  8  A0 00 1B 00 00 00 00 00 
    68)      2154.1  Rx     18EFCD1C  8  A0 00 00 00 00 00 00 00 
    69)      2238.5  Rx     18EF8F1C  4  01 F3 22 00 
    70)      2294.1  Rx     18EFCD1C  8  A0 00 14 00 00 00 00 00 
    71)      2314.1  Rx     18EFCD1C  8  A0 00 2A 00 00 00 00 00 
    72)      2334.1  Rx     18EFCD1C  8  A0 00 1B 00 00 00 00 00 
    73)      2354.1  Rx     18EFCD1C  8  A0 00 00 00 00 00 00 00 
    74)      2494.1  Rx     18EFCD1C  8  A0 00 14 00 00 00 00 00 
    75)      2514.0  Rx     18EFCD1C  8  A0 00 2A 00 00 00 00 00 
    76)      2534.0  Rx     18EFCD1C  8  A0 00 1B 00 00 00 00 00 
    77)      2554.0  Rx     18EFCD1C  8  A0 00 00 00 00 00 00 00 
    78)      2694.0  Rx     18EFCD1C  8  A0 00 14 00 00 00 00 00 
    79)      2714.1  Rx     18EFCD1C  8  A0 00 2A 00 00 00 00 00 
    80)      2734.1  Rx     18EFCD1C  8  A0 00 1B 00 00 00 00 00 
    81)      2754.0  Rx     18EFCD1C  8  A0 00 00 00 00 00 00 00 
    82)      2896.9  Rx     18FEF31C  8  B4 28 80 99 9A D0 2C 89 
    83)      2897.5  Rx     18FEE81C  8  FD 38 11 00 00 00 30 51 
    84)      2898.1  Rx     18FEE61C  8  61 23 0C 09 57 29 00 00 
    85)      2898.7  Rx     19F8021C  8  7D FC B5 4D 00 00 FF FF 
    86)      2899.3  Rx     18EFCD1C  8  A0 00 14 00 00 00 00 00 
    87)      2901.4  Rx     19F8051C  8  C0 2F 7D EE 50 88 F5 03 
    88)      2902.0  Rx     19F8051C  8  C1 1B 40 B5 6A 83 B9 A6 
    89)      2902.6  Rx     19F8051C  8  C2 98 06 80 F8 94 D2 66 
    90)      2903.1  Rx     19F8051C  8  C3 92 CB 02 B2 BE 48 08 
    91)      2903.8  Rx     19F8051C  8  C4 00 00 00 00 40 00 0E 
    92)      2904.4  Rx     19F8051C  8  C5 55 00 8E 00 FC 0F 00 
    93)      2905.0  Rx     19F8051C  8  C6 00 01 AF 02 58 02 FF 
    94)      2914.1  Rx     18EFCD1C  8  A0 00 2A 00 00 00 00 00 
    95)      2934.1  Rx     18EFCD1C  8  A0 00 1B 00 00 00 00 00 
    96)      2954.1  Rx     18EFCD1C  8  A0 00 00 00 00 00 00 00 
    97)      3095.4  Rx     18EFCD1C  8  A0 00 14 00 00 00 00 00 
    98)      3114.1  Rx     18EFCD1C  8  A0 00 2A 00 00 00 00 00 
    99)      3134.1  Rx     18EFCD1C  8  A0 00 1B 00 00 00 00 00 
   100)      3154.1  Rx     18EFCD1C  8  A0 00 00 00 00 00 00 00 
   101)      3294.6  Rx     18EFCD1C  8  A0 00 14 00 00 00 00 00 
   102)      3315.3  Rx     18EFCD1C  8  A0 00 2A 00 00 00 00 00 
   103)      3315.7  Rx     18EFCD1C  4  01 19 1B 00 
   104)      3334.1  Rx     18EFCD1C  8  A0 00 1B 00 00 00 00 00 
   105)      3354.1  Rx     18EFCD1C  8  A0 00 00 00 00 00 00 00 
   106)      3494.2  Rx     18EFCD1C  8  A0 00 14 00 00 00 00 00 
   107)      3514.8  Rx     18EFCD1C  8  A0 00 2A 00 00 00 00 00 
   108)      3535.1  Rx     18EFCD1C  8  A0 00 1B 00 00 00 00 00 
   109)      3554.1  Rx     18EFCD1C  8  A0 00 00 00 00 00 00 00 
   110)      3694.2  Rx     18EFCD1C  8  A0 00 14 00 00 00 00 00 
   111)      3714.3  Rx     18EFCD1C  8  A0 00 2A 00 00 00 00 00 
   112)      3735.1  Rx     18EFCD1C  8  A0 00 1B 00 00 00 00 00 
   113)      3754.2  Rx     18EFCD1C  8  A0 00 00 00 00 00 00 00 
   114)      3895.8  Rx     18FEF31C  8  B4 28 80 99 9A D0 2C 89 
   115)      3896.4  Rx     18FEE81C  8  FD 38 12 00 00 00 30 51 
   116)      3896.9  Rx     18FEE61C  8  65 23 0C 09 57 29 00 00 
   117)      3897.5  Rx     19F0101C  8  82 00 EE 50 98 1C 04 1B 
   118)      3898.1  Rx     19F8021C  8  82 FC B5 4D 00 00 FF FF 
   119)      3898.7  Rx     18EFCD1C  8  A0 00 14 00 00 00 00 00 
   120)      3900.5  Rx     19F8051C  8  E0 2F 82 EE 50 98 1C 04 
   121)      3901.1  Rx     19F8051C  8  E1 1B 40 D7 CD 75 B9 A6 
   122)      3901.6  Rx     19F8051C  8  E2 98 06 60 33 3F C8 66 
   123)      3902.5  Rx     19F8051C  8  E3 92 CB 02 DD C8 48 08 
   124)      3903.1  Rx     19F8051C  8  E4 00 00 00 00 40 00 0E 
   125)      3903.7  Rx     19F8051C  8  E5 55 00 8E 00 FC 0F 00 
   126)      3904.3  Rx     19F8051C  8  E6 00 01 AF 02 BC 02 FF 
   127)      3914.2  Rx     18EFCD1C  8  A0 00 2A 00 00 00 00 00 
   128)      3934.6  Rx     18EFCD1C  8  A0 00 1B 00 00 00 00 00 
   129)      3955.2  Rx     18EFCD1C  8  A0 00 00 00 00 00 00 00 
   130)      4094.2  Rx     18EFCD1C  8  A0 00 14 00 00 00 00 00 
   131)      4114.2  Rx     18EFCD1C  8  A0 00 2A 00 00 00 00 00 
   132)      4134.2  Rx     18EFCD1C  8  A0 00 1B 00 00 00 00 00 
   133)      4155.2  Rx     18EFCD1C  8  A0 00 00 00 00 00 00 00 
   134)      4294.3  Rx     18EFCD1C  8  A0 00 14 00 00 00 00 00 
   135)      4314.2  Rx     18EFCD1C  8  A0 00 2A 00 00 00 00 00 
   136)      4334.2  Rx     18EFCD1C  8  A0 00 1B 00 00 00 00 00 
   137)      4354.3  Rx     18EFCD1C  8  A0 00 00 00 00 00 00 00 
   138)      4440.6  Rx     18EF8F1C  4  01 F4 22 00 
   139)      4494.2  Rx     18EFCD1C  8  A0 00 14 00 00 00 00 00 
   140)      4514.2  Rx     18EFCD1C  8  A0 00 2A 00 00 00 00 00 
   141)      4534.2  Rx     18EFCD1C  8  A0 00 1B 00 00 00 00 00 
   142)      4554.2  Rx     18EFCD1C  8  A0 00 00 00 00 00 00 00 
   143)      4694.2  Rx     18EFCD1C  8  A0 00 14 00 00 00 00 00 
   144)      4714.2  Rx     18EFCD1C  8  A0 00 2A 00 00 00 00 00 
   145)      4734.2  Rx     18EFCD1C  8  A0 00 1B 00 00 00 00 00 
   146)      4754.2  Rx     18EFCD1C  8  A0 00 00 00 00 00 00 00 
   147)      4895.6  Rx     18FEF31C  8  B4 28 80 99 9A D0 2C 89 
   148)      4896.2  Rx     18FEE81C  8  FD 38 05 00 00 00 30 51 
   149)      4896.8  Rx     18FEE61C  8  69 23 0C 09 57 29 00 00 
   150)      4897.4  Rx     19F8021C  8  87 FC B5 4D 00 00 FF FF 
   151)      4898.0  Rx     18EFCD1C  8  A0 00 14 00 00 00 00 00 
   152)      4901.1  Rx     19F8051C  8  00 2F 87 EE 50 A8 43 04 
   153)      4901.7  Rx     19F8051C  8  01 1B 80 CF 33 6D B9 A6 
   154)      4902.3  Rx     19F8051C  8  02 98 06 E0 F8 1C D0 66 
   155)      4902.8  Rx     19F8051C  8  03 92 CB 02 99 BB 48 08 
   156)      4903.4  Rx     19F8051C  8  04 00 00 00 00 40 00 0E 
   157)      4904.0  Rx     19F8051C  8  05 55 00 8E 00 FC 0F 00 
   158)      4904.7  Rx     19F8051C  8  06 00 01 AF 02 20 03 FF 
   159)      4914.3  Rx     18EFCD1C  8  A0 00 2A 00 00 00 00 00 
   160)      4934.2  Rx     18EFCD1C  8  A0 00 1B 00 00 00 00 00 
   161)      4954.2  Rx     18EFCD1C  8  A0 00 00 00 00 00 00 00 
   162)      5094.2  Rx     18EFCD1C  8  A0 00 14 00 00 00 00 00 
   163)      5114.2  Rx     18EFCD1C  8  A0 00 2A 00 00 00 00 00 
   164)      5134.2  Rx     18EFCD1C  8  A0 00 1B 00 00 00 00 00 
   165)      5154.2  Rx     18EFCD1C  8  A0 00 00 00 00 00 00 00 
   166)      5294.4  Rx     18EFCD1C  8  A0 00 14 00 00 00 00 00 
   167)      5314.3  Rx     18EFCD1C  8  A0 00 2A 00 00 00 00 00 
   168)      5334.3  Rx     18EFCD1C  8  A0 00 1B 00 00 00 00 00 
   169)      5334.7  Rx     18EFCD1C  4  01 1A 1B 00 
   170)      5354.3  Rx     18EFCD1C  8  A0 00 00 00 00 00 00 00 
   171)      5494.3  Rx     18EFCD1C  8  A0 00 14 00 00 00 00 00 
   172)      5514.3  Rx     18EFCD1C  8  A0 00 2A 00 00 00 00 00 
   173)      5534.3  Rx     18EFCD1C  8  A0 00 1B 00 00 00 00 00 
   174)      5554.2  Rx     18EFCD1C  8  A0 00 00 00 00 00 00 00 
   175)      5695.8  Rx     18EFCD1C  8  A0 00 14 00 00 00 00 00 
   176)      5714.2  Rx     18EFCD1C  8  A0 00 2A 00 00 00 00 00 
   177)      5734.2  Rx     18EFCD1C  8  A0 00 1B 00 00 00 00 00 
   178)      5754.2  Rx     18EFCD1C  8  A0 00 00 00 00 00 00 00 
   179)      5896.4  Rx     18FEF31C  8  B3 28 80 99 9A D0 2C 89 
   180)      5897.0  Rx     18FEE81C  8  FD 38 08 00 00 00 30 51 
   181)      5897.5  Rx     18FEE61C  8  6D 23 0C 09 57 29 00 00 
   182)      5898.1  Rx     19F8021C  8  8C FC B5 4D 00 00 FF FF 
   183)      5898.8  Rx     18EFCD1C  8  A0 00 14 00 00 00 00 00 
   184)      5900.7  Rx     19F8051C  8  20 2F 8C EE 50 B8 6A 04 
   185)      5901.3  Rx     19F8051C  8  21 1B C0 AD E8 68 B9 A6 
   186)      5901.9  Rx     19F8051C  8  22 98 06 80 86 CF B5 66 
   187)      5902.5  Rx     19F8051C  8  23 92 CB 02 17 AA 48 08 
   188)      5903.1  Rx     19F8051C  8  24 00 00 00 00 40 00 0E 
   189)      5903.7  Rx     19F8051C  8  25 55 00 8E 00 FC 0F 00 
   190)      5904.3  Rx     19F8051C  8  26 00 01 AF 02 84 03 FF 
   191)      5914.1  Rx     18EFCD1C  8  A0 00 2A 00 00 00 00 00 
   192)      5934.2  Rx     18EFCD1C  8  A0 00 1B 00 00 00 00 00 
   193)      5954.2  Rx     18EFCD1C  8  A0 00 00 00 00 00 00 00 
   194)      6094.3  Rx     18EFCD1C  8  A0 00 14 00 00 00 00 00 
   195)      6115.2  Rx     18EFCD1C  8  A0 00 2A 00 00 00 00 00 
   196)      6134.2  Rx     18EFCD1C  8  A0 00 1B 00 00 00 00 00 
   197)      6154.3  Rx     18EFCD1C  8  A0 00 00 00 00 00 00 00 
   198)      6294.2  Rx     18EFCD1C  8  A0 00 14 00 00 00 00 00 
   199)      6314.7  Rx     18EFCD1C  8  A0 00 2A 00 00 00 00 00 
   200)      6335.2  Rx     18EFCD1C  8  A0 00 1B 00 00 00 00 00 
   201)      6354.2  Rx     18EFCD1C  8  A0 00 00 00 00 00 00 00 
   202)      6494.3  Rx     18EFCD1C  8  A0 00 14 00 00 00 00 00 
   203)      6514.3  Rx     18EFCD1C  8  A0 00 2A 00 00 00 00 00 
   204)      6535.0  Rx     18EFCD1C  8  A0 00 1B 00 00 00 00 00 
   205)      6555.4  Rx     18EFCD1C  8  A0 00 00 00 00 00 00 00 
   206)      6640.1  Rx     18EF8F1C  4  01 F5 22 00 
   207)      6694.2  Rx     18EFCD1C  8  A0 00 14 00 00 00 00 00 
   208)      6714.3  Rx     18EFCD1C  8  A0 00 2A 00 00 00 00 00 
   209)      6734.6  Rx     18EFCD1C  8  A0 00 1B 00 00 00 00 00 
   210)      6755.3  Rx     18EFCD1C  8  A0 00 00 00 00 00 00 00 
   211)      6895.6  Rx     18FEF31C  8  B2 28 80 99 9A D0 2C 89 
   212)      6896.2  Rx     18FEE81C  8  FD 38 0E 00 00 00 30 51 
   213)      6896.8  Rx     18FEE61C  8  71 23 0C 09 57 29 00 00 
   214)      6897.4  Rx     19F8021C  8  91 FC B5 4D 00 00 FF FF 
   215)      6898.0  Rx     18EFCD1C  8  A0 00 14 00 00 00 00 00 
   216)      6900.0  Rx     19F8051C  8  40 2F 91 EE 50 C8 91 04 
   217)      6901.3  Rx     19F8051C  8  41 1B 00 DC 59 1D B9 A6 
   218)      6901.9  Rx     19F8051C  8  42 98 06 00 F1 05 D0 66 
   219)      6902.4  Rx     19F8051C  8  43 92 CB 02 E8 AB 48 08 
   220)      6903.1  Rx     19F8051C  8  44 00 00 00 00 40 00 0D 
   221)      6903.7  Rx     19F8051C  8  45 56 00 98 00 FC 0F 00 
   222)      6904.3  Rx     19F8051C  8  46 00 01 AF 02 58 02 FF 
   223)      6914.3  Rx     18EFCD1C  8  A0 00 2A 00 00 00 00 00 
   224)      6934.3  Rx     18EFCD1C  8  A0 00 1B 00 00 00 00 00 
   225)      6954.8  Rx     18EFCD1C  8  A0 00 00 00 00 00 00 00 
   226)      7094.3  Rx     18EFCD1C  8  A0 00 14 00 00 00 00 00 
   227)      7114.3  Rx     18EFCD1C  8  A0 00 2A 00 00 00 00 00 
   228)      7134.3  Rx     18EFCD1C  8  A0 00 1B 00 00 00 00 00 
   229)      7154.3  Rx     18EFCD1C  8  A0 00 00 00 00 00 00 00 
   230)      7294.3  Rx     18EFCD1C  8  A0 00 14 00 00 00 00 00 
   231)      7314.3  Rx     18EFCD1C  8  A0 00 2A 00 00 00 00 00 
   232)      7334.3  Rx     18EFCD1C  8  A0 00 1B 00 00 00 00 00 
   233)      7354.3  Rx     18EFCD1C  8  A0 00 00 00 00 00 00 00 
   234)      7354.7  Rx     18EFCD1C  4  01 1B 1B 00 
   235)      7494.3  Rx     18EFCD1C  8  A0 00 14 00 00 00 00 00 
   236)      7514.2  Rx     18EFCD1C  8  A0 00 2A 00 00 00 00 00 
   237)      7534.3  Rx     18EFCD1C  8  A0 00 1B 00 00 00 00 00 
   238)      7554.3  Rx     18EFCD1C  8  A0 00 00 00 00 00 00 00 
   239)      7694.2  Rx     18EFCD1C  8  A0 00 14 00 00 00 00 00 
   240)      7714.2  Rx     18EFCD1C  8  A0 00 2A 00 00 00 00 00 
   241)      7734.2  Rx     18EFCD1C  8  A0 00 1B 00 00 00 00 00 
   242)      7754.2  Rx     18EFCD1C  8  A0 00 00 00 00 00 00 00 
   243)      7895.5  Rx     18FEF31C  8  B2 28 80 99 9A D0 2C 89 
   244)      7896.1  Rx     18FEE81C  8  FD 38 10 00 00 00 30 51 
   245)      7896.7  Rx     18FEE61C  8  75 23 0C 09 57 29 00 00 
   246)      7897.3  Rx     19F8021C  8  96 FC B5 4D 00 00 FF FF 
   247)      7898.0  Rx     18EFCD1C  8  A0 00 14 00 00 00 00 00 
   248)      7901.4  Rx     19F8051C  8  60 2F 96 EE 50 D8 B8 04 
   249)      7901.9  Rx     19F8051C  8  61 1B 40 0A ED 17 B9 A6 
   250)      7902.5  Rx     19F8051C  8  62 98 06 E0 41 1A C9 66 
   251)      7903.1  Rx     19F8051C  8  63 92 CB 02 2A FB 48 08 
   252)      7903.7  Rx     19F8051C  8  64 00 00 00 00 40 00 0D 
   253)      7904.3  Rx     19F8051C  8  65 56 00 98 00 FC 0F 00 
   254)      7904.9  Rx     19F8051C  8  66 00 01 AF 02 BC 02 FF 
   255)      7914.2  Rx     18EFCD1C  8  A0 00 2A 00 00 00 00 00 
   256)      7934.2  Rx     18EFCD1C  8  A0 00 1B 00 00 00 00 00 
   257)      7954.2  Rx     18EFCD1C  8  A0 00 00 00 00 00 00 00 
   258)      8094.2  Rx     18EFCD1C  8  A0 00 14 00 00 00 00 00 
   259)      8114.2  Rx     18EFCD1C  8  A0 00 2A 00 00 00 00 00 
   260)      8134.3  Rx     18EFCD1C  8  A0 00 1B 00 00 00 00 00 
   261)      8154.3  Rx     18EFCD1C  8  A0 00 00 00 00 00 00 00 
   262)      8294.3  Rx     18EFCD1C  8  A0 00 14 00 00 00 00 00 
   263)      8314.3  Rx     18EFCD1C  8  A0 00 2A 00 00 00 00 00 
   264)      8334.3  Rx     18EFCD1C  8  A0 00 1B 00 00 00 00 00 
   265)      8354.3  Rx     18EFCD1C  8  A0 00 00 00 00 00 00 00 
   266)      8495.9  Rx     18EFCD1C  8  A0 00 14 00 00 00 00 00 
   267)      8514.3  Rx     18EFCD1C  8  A0 00 2A 00 00 00 00 00 
   268)      8534.3  Rx     18EFCD1C  8  A0 00 1B 00 00 00 00 00 
   269)      8554.3  Rx     18EFCD1C  8  A0 00 00 00 00 00 00 00 
   270)      8695.2  Rx     18EFCD1C  8  A0 00 14 00 00 00 00 00 
   271)      8716.0  Rx     18EFCD1C  8  A0 00 2A 00 00 00 00 00 
   272)      8734.3  Rx     18EFCD1C  8  A0 00 1B 00 00 00 00 00 
   273)      8754.4  Rx     18EFCD1C  8  A0 00 00 00 00 00 00 00 
   274)      8838.2  Rx     18EF8F1C  4  01 F6 22 00 
   275)      8896.0  Rx     18FEF31C  8  B2 28 80 99 99 D0 2C 89 
   276)      8896.6  Rx     18FEE81C  8  FD 38 0F 00 00 00 30 51 
   277)      8897.2  Rx     18FEE61C  8  79 23 0C 09 57 29 00 00 
   278)      8897.8  Rx     19F0101C  8  9B 00 EE 50 E8 DF 04 1B 
   279)      8898.4  Rx     19F8021C  8  9B FC B5 4D 00 00 FF FF 
   280)      8899.0  Rx     18EFCD1C  8  A0 00 14 00 00 00 00 00 
   281)      8900.7  Rx     19F8051C  8  80 2F 9B EE 50 E8 DF 04 
   282)      8901.3  Rx     19F8051C  8  81 1B 00 12 5F 30 B9 A6 
   283)      8901.9  Rx     19F8051C  8  82 98 06 40 3F 42 9A 66 
   284)      8902.5  Rx     19F8051C  8  83 92 CB 02 55 DC 48 08 
   285)      8903.1  Rx     19F8051C  8  84 00 00 00 00 40 00 0D 
   286)      8903.7  Rx     19F8051C  8  85 56 00 98 00 FC 0F 00 
   287)      8904.3  Rx     19F8051C  8  86 00 01 AF 02 20 03 FF 
   288)      8915.5  Rx     18EFCD1C  8  A0 00 2A 00 00 00 00 00 
   289)      8934.4  Rx     18EFCD1C  8  A0 00 1B 00 00 00 00 00 
   290)      8954.4  Rx     18EFCD1C  8  A0 00 00 00 00 00 00 00 
   291)      9094.5  Rx     18EFCD1C  8  A0 00 14 00 00 00 00 00 
   292)      9114.6  Rx     18EFCD1C  8  A0 00 2A 00 00 00 00 00 
   293)      9135.6  Rx     18EFCD1C  8  A0 00 1B 00 00 00 00 00 
   294)      9154.5  Rx     18EFCD1C  8  A0 00 00 00 00 00 00 00 
   295)      9294.5  Rx     18EFCD1C  8  A0 00 14 00 00 00 00 00 
   296)      9314.5  Rx     18EFCD1C  8  A0 00 2A 00 00 00 00 00 
   297)      9334.9  Rx     18EFCD1C  8  A0 00 1B 00 00 00 00 00 
   298)      9355.6  Rx     18EFCD1C  8  A0 00 00 00 00 00 00 00 
   299)      9356.1  Rx     18EFCD1C  4  01 1C 1B 00 
   300)      9494.5  Rx     18EFCD1C  8  A0 00 14 00 00 00 00 00 
   301)      9514.5  Rx     18EFCD1C  8  A0 00 2A 00 00 00 00 00 
   302)      9534.5  Rx     18EFCD1C  8  A0 00 1B 00 00 00 00 00 
   303)      9555.1  Rx     18EFCD1C  8  A0 00 00 00 00 00 00 00 
   304)      9694.5  Rx     18EFCD1C  8  A0 00 14 00 00 00 00 00 
   305)      9714.4  Rx     18EFCD1C  8  A0 00 2A 00 00 00 00 00 
   306)      9734.5  Rx     18EFCD1C  8  A0 00 1B 00 00 00 00 00 
   307)      9754.5  Rx     18EFCD1C  8  A0 00 00 00 00 00 00 00 
   308)      9895.8  Rx     18FEF31C  8  B3 28 80 99 99 D0 2C 89 
   309)      9896.4  Rx     18FEE81C  8  FD 38 04 00 00 00 30 51 
   310)      9897.0  Rx     18FEE61C  8  7D 23 0C 09 57 29 00 00 
   311)      9897.6  Rx     19F8021C  8  A0 FC B5 4D 00 00 FF FF 
   312)      9898.1  Rx     18EFCD1C  8  A0 00 14 00 00 00 00 00 
   313)      9901.2  Rx     19F8051C  8  A0 2F A0 EE 50 F8 06 05 
   314)      9901.8  Rx     19F8051C  8  A1 1B 80 E0 B7 40 B9 A6 
   315)      9902.4  Rx     19F8051C  8  A2 98 06 C0 9E 51 8A 66 
   316)      9902.9  Rx     19F8051C  8  A3 92 CB 02 C3 BD 48 08 
   317)      9903.6  Rx     19F8051C  8  A4 00 00 00 00 40 00 0D 
   318)      9904.2  Rx     19F8051C  8  A5 56 00 98 00 FC 0F 00 
   319)      9904.8  Rx     19F8051C  8  A6 00 01 AF 02 84 03 FF 
   320)      9914.4  Rx     18EFCD1C  8  A0 00 2A 00 00 00 00 00 
   321)      9934.4  Rx     18EFCD1C  8  A0 00 1B 00 00 00 00 00 
   322)      9954.4  Rx     18EFCD1C  8  A0 00 00 00 00 00 00 00 
   323)     10094.5  Rx     18EFCD1C  8  A0 00 14 00 00 00 00 00 
   324)     10114.4  Rx     18EFCD1C  8  A0 00 2A 00 00 00 00 00 
   325)     10134.4  Rx     18EFCD1C  8  A0 00 1B 00 00 00 00 00 
   326)     10154.4  Rx     18EFCD1C  8  A0 00 00 00 00 00 00 00 
   327)     10294.5  Rx     18EFCD1C  8  A0 00 14 00 00 00 00 00 
   328)     10314.5  Rx     18EFCD1C  8  A0 00 2A 00 00 00 00 00 
   329)     10334.4  Rx     18EFCD1C  8  A0 00 1B 00 00 00 00 00 
   330)     10354.5  Rx     18EFCD1C  8  A0 00 00 00 00 00 00 00 
   331)     10494.5  Rx     18EFCD1C  8  A0 00 14 00 00 00 00 00 
   332)     10514.5  Rx     18EFCD1C  8  A0 00 2A 00 00 00 00 00 
   333)     10534.5  Rx     18EFCD1C  8  A0 00 1B 00 00 00 00 00 
   334)     10554.5  Rx     18EFCD1C  8  A0 00 00 00 00 00 00 00 
   335)     10694.5  Rx     18EFCD1C  8  A0 00 14 00 00 00 00 00 
   336)     10714.5  Rx     18EFCD1C  8  A0 00 2A 00 00 00 00 00 
   337)     10734.5  Rx     18EFCD1C  8  A0 00 1B 00 00 00 00 00 
   338)     10754.5  Rx     18EFCD1C  8  A0 00 00 00 00 00 00 00 
   339)     10840.2  Rx     18EF8F1C  4  01 F7 22 00 
   340)     10896.7  Rx     18FEF31C  8  B4 28 80 99 98 D0 2C 89 
   341)     10897.3  Rx     18FEE81C  8  FD 38 13 00 00 00 30 51 
   342)     10897.9  Rx     18FEE61C  8  81 23 0C 09 57 29 00 00 
   343)     10898.5  Rx     19F8021C  8  A5 FC B5 4D 00 00 FF FF 
   344)     10899.1  Rx     18EFCD1C  8  A0 00 14 00 00 00 00 00 
   345)     10901.1  Rx     19F8051C  8  C0 2F A5 EE 50 08 2E 05 
   346)     10901.7  Rx     19F8051C  8  C1 1B 00 60 1A 6E B9 A6 
   347)     10902.3  Rx     19F8051C  8  C2 98 06 80 D7 A5 4C 66 
   348)     10902.8  Rx     19F8051C  8  C3 92 CB 02 E6 A1 48 08 
   349)     10903.5  Rx     19F8051C  8  C4 00 00 00 00 40 00 0E 
   350)     10904.1  Rx     19F8051C  8  C5 55 00 8E 00 FC 0F 00 
   351)     10904.7  Rx     19F8051C  8  C6 00 01 AF 02 58 02 FF 
   352)     10914.5  Rx     18EFCD1C  8  A0 00 2A 00 00 00 00 00 
   353)     10934.5  Rx     18EFCD1C  8  A0 00 1B 00 00 00 00 00 
   354)     10954.5  Rx     18EFCD1C  8  A0 00 00 00 00 00 00 00 
   355)     11094.5  Rx     18EFCD1C  8  A0 00 14 00 00 00 00 00 
   356)     11114.5  Rx     18EFCD1C  8  A0 00 2A 00 00 00 00 00 
   357)     11134.6  Rx     18EFCD1C  8  A0 00 1B 00 00 00 00 00 
   358)     11154.5  Rx     18EFCD1C  8  A0 00 00 00 00 00 00 00 
   359)     11296.2  Rx     18EFCD1C  8  A0 00 14 00 00 00 00 00 
   360)     11314.6  Rx     18EFCD1C  8  A0 00 2A 00 00 00 00 00 
   361)     11334.6  Rx     18EFCD1C  8  A0 00 1B 00 00 00 00 00 
   362)     11354.6  Rx     18EFCD1C  8  A0 00 00 00 00 00 00 00 
   363)     11374.4  Rx     18EFCD1C  4  01 1D 1B 00 
   364)     11495.2  Rx     18EFCD1C  8  A0 00 14 00 00 00 00 00 
   365)     11516.2  Rx     18EFCD1C  8  A0 00 2A 00 00 00 00 00 
   366)     11534.6  Rx     18EFCD1C  8  A0 00 1B 00 00 00 00 00 
   367)     11554.6  Rx     18EFCD1C  8  A0 00 00 00 00 00 00 00 
   368)     11694.6  Rx     18EFCD1C  8  A0 00 14 00 00 00 00 00 
   369)     11715.2  Rx     18EFCD1C  8  A0 00 2A 00 00 00 00 00 
   370)     11736.1  Rx     18EFCD1C  8  A0 00 1B 00 00 00 00 00 
   371)     11754.6  Rx     18EFCD1C  8  A0 00 00 00 00 00 00 00 
   372)     11895.9  Rx     18FEF31C  8  B4 28 80 99 98 D0 2C 89 
   373)     11896.5  Rx     18FEE81C  8  FD 38 0D 00 00 00 30 51 
   374)     11897.1  Rx     18FEE61C  8  85 23 0C 09 57 29 00 00 
   375)     11897.7  Rx     19F8021C  8  AA FC B5 4D 00 00 FF FF 
   376)     11898.3  Rx     18EFCD1C  8  A0 00 14 00 00 00 00 00 
   377)     11900.3  Rx     19F8051C  8  E0 2F AA EE 50 18 55 05 
   378)     11900.9  Rx     19F8051C  8  E1 1B 40 D5 78 9B B9 A6 
   379)     11901.5  Rx     19F8051C  8  E2 98 06 80 AF 48 47 66 
   380)     11902.1  Rx     19F8051C  8  E3 92 CB 02 73 79 48 08 
   381)     11902.7  Rx     19F8051C  8  E4 00 00 00 00 40 00 0E 
   382)     11903.3  Rx     19F8051C  8  E5 55 00 8E 00 FC 0F 00 
   383)     11903.9  Rx     19F8051C  8  E6 00 01 AF 02 BC 02 FF 
   384)     11914.6  Rx     18EFCD1C  8  A0 00 2A 00 00 00 00 00 
   385)     11935.4  Rx     18EFCD1C  8  A0 00 1B 00 00 00 00 00 
   386)     11956.2  Rx     18EFCD1C  8  A0 00 00 00 00 00 00 00 
   387)     12094.6  Rx     18EFCD1C  8  A0 00 14 00 00 00 00 00 
   388)     12114.6  Rx     18EFCD1C  8  A0 00 2A 00 00 00 00 00 
   389)     12134.6  Rx     18EFCD1C  8  A0 00 1B 00 00 00 00 00 
   390)     12155.5  Rx     18EFCD1C  8  A0 00 00 00 00 00 00 00 
   391)     12294.6  Rx     18EFCD1C  8  A0 00 14 00 00 00 00 00 
   392)     12314.6  Rx     18EFCD1C  8  A0 00 2A 00 00 00 00 00 
   393)     12334.6  Rx     18EFCD1C  8  A0 00 1B 00 00 00 00 00 
   394)     12354.6  Rx     18EFCD1C  8  A0 00 00 00 00 00 00 00 
