;$FILEVERSION=1.1
;$STARTTIME=46287.6115221643
;
;   Start time: 9/22/2026 14:40:35.515.0
;   Generated by PCAN-View v5.3.3.958
;
;   Message Number
;   |         Time Offset (ms)
;   |         |        Type
;   |         |        |        ID (hex)
;   |         |        |        |     Data Length
;   |         |        |        |     |   Data Bytes (hex) ...
;   |         |        |        |     |   |
;---+--   ----+----  --+--  ----+---  +  -+ -- -- -- -- -- -- --
     1)     24869.6  Rx     18EAFFFE  3  00 EE 00 
     2)     25162.9  Rx     18EEFF4D  8  00 00 A0 08 00 10 00 00 
     3)     25163.5  Rx     18EEFF1C  8  FA A7 A7 08 00 80 00 A0 
     4)     25867.2  Rx     18FEE61C  8  4A 29 0C 09 57 00 00 00 
     5)     25867.8  Rx     19F8021C  8  FF FC 00 00 00 00 FF FF 
     6)     25869.0  Rx     19F8051C  8  00 2B FF 00 00 00 00 00 
     7)     25869.6  Rx     19F8051C  8  01 00 00 00 00 00 00 00 
     8)     25870.1  Rx     19F8051C  8  02 00 00 00 00 00 00 00 
     9)     25870.7  Rx     19F8051C  8  03 00 00 00 00 00 00 00 
    10)     25871.3  Rx     19F8051C  8  04 00 00 00 00 00 00 00 
    11)     25871.9  Rx     19F8051C  8  05 00 00 00 00 00 00 00 
    12)     25872.4  Rx     19F8051C  8  06 00 00 FF FF FF FF FF 
    13)     26868.0  Rx     18FEE61C  8  4E 29 0C 09 57 00 00 00 
    14)     26868.5  Rx     19F8021C  8  FF FC 00 00 00 00 FF FF 
    15)     26869.9  Rx     19F8051C  8  20 2B FF 00 00 00 00 00 
    16)     26870.5  Rx     19F8051C  8  21 00 00 00 00 00 00 00 
    17)     26871.1  Rx     19F8051C  8  22 00 00 00 00 00 00 00 
    18)     26871.7  Rx     19F8051C  8  23 00 00 00 00 00 00 00 
    19)     26872.3  Rx     19F8051C  8  24 00 00 00 00 00 00 00 
    20)     26872.9  Rx     19F8051C  8  25 00 00 00 00 00 00 00 
    21)     26873.5  Rx     19F8051C  8  26 00 00 FF FF FF FF FF 
    22)     27866.9  Rx     18FEE61C  8  0A 29 0C 09 57 00 00 00 
    23)     27867.5  Rx     19F8021C  8  FF FC 00 00 00 00 FF FF 
    24)     27868.6  Rx     19F8051C  8  40 2B FF 00 00 00 00 00 
    25)     27869.2  Rx     19F8051C  8  41 00 00 00 00 00 00 00 
    26)     27869.8  Rx     19F8051C  8  42 00 00 00 00 00 00 00 
    27)     27870.4  Rx     19F8051C  8  43 00 00 00 00 00 00 00 
    28)     27871.0  Rx     19F8051C  8  44 00 00 00 00 00 00 00 
    29)     27871.6  Rx     19F8051C  8  45 00 00 00 00 00 00 00 
    30)     27872.1  Rx     19F8051C  8  46 00 00 FF FF FF FF FF 
    31)     28866.6  Rx     18FEE61C  8  0E 29 0C 09 57 00 00 00 
    32)     28867.2  Rx     19F8021C  8  FF FC 00 00 00 00 FF FF 
    33)     28868.4  Rx     19F8051C  8  60 2B FF 00 00 00 00 00 
    34)     28868.9  Rx     19F8051C  8  61 00 00 00 00 00 00 00 
    35)     28869.7  Rx     19F8051C  8  62 00 00 00 00 00 00 00 
    36)     28870.3  Rx     19F8051C  8  63 00 00 00 00 00 00 00 
    37)     28870.9  Rx     19F8051C  8  64 00 00 00 00 00 00 00 
    38)     28871.5  Rx     19F8051C  8  65 00 00 00 00 00 00 00 
    39)     28872.1  Rx     19F8051C  8  66 00 00 FF FF FF FF FF 
    40)     29867.4  Rx     18FEE61C  8  12 29 0C 09 57 00 00 00 
    41)     29868.0  Rx     19F0101C  8  FF 05 EE 50 7F DD 37 1B 
    42)     29868.5  Rx     19F8021C  8  FF FC 00 00 00 00 FF FF 
    43)     29869.9  Rx     19F8051C  8  80 2B FF 00 00 00 00 00 
    44)     29870.4  Rx     19F8051C  8  81 00 00 00 00 00 00 00 
    45)     29871.0  Rx     19F8051C  8  82 00 00 00 00 00 00 00 
    46)     29871.6  Rx     19F8051C  8  83 00 00 00 00 00 00 00 
    47)     29872.2  Rx     19F8051C  8  84 00 00 00 00 00 00 00 
    48)     29872.8  Rx     19F8051C  8  85 00 00 00 00 00 00 00 
    49)     29873.4  Rx     19F8051C  8  86 00 00 FF FF FF FF FF 
    50)     30866.6  Rx     18FEE61C  8  16 29 0C 09 57 00 00 00 
    51)     30867.2  Rx     19F8021C  8  FF FC 00 00 00 00 FF FF 
    52)     30868.5  Rx     19F8051C  8  A0 2B FF 00 00 00 00 00 
    53)     30869.1  Rx     19F8051C  8  A1 00 00 00 00 00 00 00 
    54)     30869.7  Rx     19F8051C  8  A2 00 00 00 00 00 00 00 
    55)     30870.3  Rx     19F8051C  8  A3 00 00 00 00 00 00 00 
    56)     30870.9  Rx     19F8051C  8  A4 00 00 00 00 00 00 00 
    57)     30871.5  Rx     19F8051C  8  A5 00 00 00 00 00 00 00 
    58)     30872.1  Rx     19F8051C  8  A6 00 00 FF FF FF FF FF 
    59)     31866.7  Rx     18FEE61C  8  1A 29 0C 09 57 00 00 00 
    60)     31867.2  Rx     19F8021C  8  FF FC 00 00 00 00 FF FF 
    61)     31869.6  Rx     19F8051C  8  C0 2B FF 00 00 00 00 00 
    62)     31870.2  Rx     19F8051C  8  C1 00 00 00 00 00 00 00 
    63)     31870.8  Rx     19F8051C  8  C2 00 00 00 00 00 00 00 
    64)     31871.3  Rx     19F8051C  8  C3 00 00 00 00 00 00 00 
    65)     31871.9  Rx     19F8051C  8  C4 00 00 00 00 00 00 00 
    66)     31872.5  Rx     19F8051C  8  C5 00 00 00 00 00 00 00 
    67)     31873.1  Rx     19F8051C  8  C6 00 00 FF FF FF FF FF 
    68)     32866.7  Rx     18FEE61C  8  1E 29 0C 09 57 29 00 00 
    69)     32867.3  Rx     19F8021C  8  FF FC 00 00 00 00 FF FF 
    70)     32868.8  Rx     19F8051C  8  E0 2B FF 00 00 00 00 00 
    71)     32869.4  Rx     19F8051C  8  E1 00 00 00 00 00 00 00 
    72)     32870.0  Rx     19F8051C  8  E2 00 00 00 00 00 00 00 
    73)     32870.5  Rx     19F8051C  8  E3 00 00 00 00 00 00 00 
    74)     32871.1  Rx     19F8051C  8  E4 00 00 00 00 00 00 00 
    75)     32871.7  Rx     19F8051C  8  E5 00 00 00 00 00 00 00 
    76)     32872.3  Rx     19F8051C  8  E6 00 00 FF FF FF FF FF 
    77)     33865.7  Rx     18FEE61C  8  23 29 0C 09 57 29 00 00 
    78)     33866.2  Rx     19F8021C  8  FF FC 00 00 00 00 FF FF 
    79)     33867.7  Rx     19F8051C  8  00 2B FF 00 00 00 00 00 
    80)     33868.3  Rx     19F8051C  8  01 00 00 00 00 00 00 00 
    81)     33868.9  Rx     19F8051C  8  02 00 00 00 00 00 00 00 
    82)     33869.5  Rx     19F8051C  8  03 00 00 00 00 00 00 00 
    83)     33870.1  Rx     19F8051C  8  04 00 00 00 00 00 00 00 
    84)     33870.7  Rx     19F8051C  8  05 00 00 00 00 00 00 00 
    85)     33871.2  Rx     19F8051C  8  06 00 00 FF FF FF FF FF 
    86)     34868.1  Rx     18FEF31C  8  2F 28 80 99 60 CF 2C 89 
    87)     34868.7  Rx     18FEE81C  8  00 00 24 00 00 00 3B 51 
    88)     34869.3  Rx     18FEE61C  8  27 29 0C 09 57 29 00 00 
    89)     34869.8  Rx     19F0101C  8  32 00 EE 50 E5 A8 38 1B 
    90)     34870.4  Rx     19F8021C  8  32 FC 00 00 02 00 FF FF 
    91)     34871.2  Rx     19F8051C  8  20 2B 32 EE 50 E5 A8 38 
    92)     34871.7  Rx     19F8051C  8  21 1B 80 FD 3F 80 9A A6 
    93)     34872.3  Rx     19F8051C  8  22 98 06 80 5C 55 A7 1D 
    94)     34872.8  Rx     19F8051C  8  23 92 CB 02 9B 2A 5D 08 
    95)     34873.4  Rx     19F8051C  8  24 00 00 00 00 10 00 04 
    96)     34873.9  Rx     19F8051C  8  25 74 01 DE 01 FC 0F 00 
    97)     34874.5  Rx     19F8051C  8  26 00 00 FF FF FF FF FF 
    98)     35874.8  Rx     18FEF31C  8  44 28 80 99 80 CF 2C 89 
    99)     35875.3  Rx     18FEE81C  8  00 00 0A 00 00 00 3B 51 
   100)     35875.9  Rx     18FEE61C  8  2B 29 0C 09 57 29 00 00 
   101)     35876.5  Rx     19F8021C  8  37 FC 00 00 00 00 FF FF 
   102)     35877.8  Rx     19F8051C  8  40 2B 37 EE 50 F5 CF 38 
   103)     35878.4  Rx     19F8051C  8  41 1B 00 20 A8 7E 9F A6 
   104)     35878.9  Rx     19F8051C  8  42 98 06 80 89 34 17 25 
   105)     35879.5  Rx     19F8051C  8  43 92 CB 02 EA 5A 5E 08 
   106)     35880.0  Rx     19F8051C  8  44 00 00 00 00 10 00 04 
   107)     35880.6  Rx     19F8051C  8  45 74 01 DE 01 FC 0F 00 
   108)     35881.2  Rx     19F8051C  8  46 00 00 FF FF FF FF FF 
   109)     36873.4  Rx     18FEF31C  8  37 28 80 99 6B CF 2C 89 
   110)     36873.9  Rx     18FEE81C  8  00 00 3A 00 00 00 3B 51 
   111)     36874.5  Rx     18FEE61C  8  2F 29 0C 09 57 29 00 00 
   112)     36875.1  Rx     19F8021C  8  3C FC 00 00 01 00 FF FF 
   113)     36876.0  Rx     19F8051C  8  60 2B 3C EE 50 05 F7 38 
   114)     36876.5  Rx     19F8051C  8  61 1B C0 1A B1 52 9C A6 
   115)     36877.1  Rx     19F8051C  8  62 98 06 40 C3 40 34 20 
   116)     36877.6  Rx     19F8051C  8  63 92 CB 02 2A EE 5D 08 
   117)     36878.2  Rx     19F8051C  8  64 00 00 00 00 10 00 06 
   118)     36878.8  Rx     19F8051C  8  65 A9 00 26 01 FC 0F 00 
   119)     36879.3  Rx     19F8051C  8  66 00 00 FF FF FF FF FF 
   120)     37873.4  Rx     18FEF31C  8  B0 28 80 99 2C D0 2C 89 
   121)     37874.0  Rx     18FEE81C  8  00 00 1A 00 00 00 3F 51 
   122)     37874.6  Rx     18FEE61C  8  33 29 0C 09 57 29 00 00 
   123)     37875.2  Rx     19F8021C  8  41 FC 00 00 00 00 FF FF 
   124)     37877.2  Rx     19F8051C  8  80 2B 41 EE 50 8B 1E 39 
   125)     37877.7  Rx     19F8051C  8  81 1B 40 D7 96 AE B8 A6 
   126)     37878.3  Rx     19F8051C  8  82 98 06 20 1A B0 2C 4D 
   127)     37878.8  Rx     19F8051C  8  83 92 CB 02 A3 CA 65 08 
   128)     37879.4  Rx     19F8051C  8  84 00 00 00 00 10 00 0A 
   129)     37880.0  Rx     19F8051C  8  85 6B 00 BB 00 FC 0F 00 
   130)     37880.5  Rx     19F8051C  8  86 00 00 FF FF FF FF FF 
   131)     38874.7  Rx     18FEF31C  8  BB 28 80 99 55 D0 2C 89 
   132)     38875.3  Rx     18FEE81C  8  00 00 24 00 00 00 3D 51 
   133)     38875.8  Rx     18FEE61C  8  37 29 0C 09 57 29 00 00 
   134)     38876.4  Rx     19F8021C  8  46 FC 00 00 00 00 FF FF 
   135)     38877.2  Rx     19F8051C  8  A0 2B 46 EE 50 9B 45 39 
   136)     38877.8  Rx     19F8051C  8  A1 1B 00 16 BA 1B BB A6 
   137)     38878.3  Rx     19F8051C  8  A2 98 06 20 98 AE BC 56 
   138)     38878.9  Rx     19F8051C  8  A3 92 CB 02 BD 60 62 08 
   139)     38879.4  Rx     19F8051C  8  A4 00 00 00 00 10 00 0B 
   140)     38880.0  Rx     19F8051C  8  A5 60 00 A5 00 FC 0F 00 
   141)     38880.6  Rx     19F8051C  8  A6 00 00 FF FF FF FF FF 
   142)     39873.8  Rx     18FEF31C  8  C0 28 80 99 6B D0 2C 89 
   143)     39874.4  Rx     18FEE81C  8  00 00 29 00 00 00 3C 51 
   144)     39875.0  Rx     18FEE61C  8  3B 29 0C 09 57 29 00 00 
   145)     39875.5  Rx     19F0101C  8  4B 00 EE 50 AB 6C 39 1B 
   146)     39876.1  Rx     19F8021C  8  4B FC 00 00 00 00 FF FF 
   147)     39876.7  Rx     19F8051C  8  C0 2B 4B EE 50 AB 6C 39 
   148)     39877.3  Rx     19F8051C  8  C1 1B C0 73 57 45 BC A6 
   149)     39877.8  Rx     19F8051C  8  C2 98 06 40 07 3C E3 5B 
   150)     39878.3  Rx     19F8051C  8  C3 92 CB 02 1E E6 5E 08 
   151)     39878.9  Rx     19F8051C  8  C4 00 00 00 00 10 00 0D 
   152)     39879.5  Rx     19F8051C  8  C5 4F 00 82 00 FC 0F 00 
   153)     39880.1  Rx     19F8051C  8  C6 00 00 FF FF FF FF FF 
   154)     40873.5  Rx     18FEF31C  8  B7 28 80 99 65 D0 2C 89 
   155)     40874.1  Rx     18FEE81C  8  00 00 22 00 00 00 3D 51 
   156)     40874.6  Rx     18FEE61C  8  3F 29 0C 09 57 29 00 00 
   157)     40875.2  Rx     19F8021C  8  50 FC 00 00 00 00 FF FF 
   158)     40877.5  Rx     19F8051C  8  E0 2B 50 EE 50 BB 93 39 
   159)     40878.0  Rx     19F8051C  8  E1 1B 40 41 BB 55 BA A6 
   160)     40878.6  Rx     19F8051C  8  E2 98 06 40 49 D8 74 5A 
   161)     40879.1  Rx     19F8051C  8  E3 92 CB 02 56 8B 61 08 
   162)     40879.8  Rx     19F8051C  8  E4 00 00 00 00 10 00 0F 
   163)     40880.3  Rx     19F8051C  8  E5 49 00 7D 00 FC 0F 00 
   164)     40880.9  Rx     19F8051C  8  E6 00 00 FF FF FF FF FF 
   165)     41873.9  Rx     18FEF31C  8  B4 28 80 99 68 D0 2C 89 
   166)     41874.5  Rx     18FEE81C  8  00 00 1B 00 00 00 3D 51 
   167)     41875.1  Rx     18FEE61C  8  43 29 0C 09 57 29 00 00 
   168)     41875.6  Rx     19F8021C  8  55 FC 00 00 00 00 FF FF 
   169)     41876.5  Rx     19F8051C  8  00 2B 55 EE 50 CB BA 39 
   170)     41877.0  Rx     19F8051C  8  01 1B 00 CB ED 95 B9 A6 
   171)     41877.6  Rx     19F8051C  8  02 98 06 C0 E7 25 26 5B 
   172)     41878.1  Rx     19F8051C  8  03 92 CB 02 5B C4 61 08 
   173)     41878.7  Rx     19F8051C  8  04 00 00 00 00 10 00 0F 
   174)     41879.3  Rx     19F8051C  8  05 49 00 7D 00 FC 0F 00 
   175)     41879.9  Rx     19F8051C  8  06 00 00 FF FF FF FF FF 
   176)     42873.5  Rx     18FEF31C  8  AF 28 80 99 68 D0 2C 89 
   177)     42874.1  Rx     18FEE81C  8  00 00 25 00 00 00 3E 51 
   178)     42874.6  Rx     18FEE61C  8  47 29 0C 09 57 29 00 00 
   179)     42875.2  Rx     19F8021C  8  5A FC 00 00 00 00 FF FF 
   180)     42876.3  Rx     19F8051C  8  20 2B 5A EE 50 DB E1 39 
   181)     42876.8  Rx     19F8051C  8  21 1B 00 2D C7 5D B8 A6 
   182)     42877.4  Rx     19F8051C  8  22 98 06 C0 AE 4E 17 5B 
   183)     42877.9  Rx     19F8051C  8  23 92 CB 02 FD 4F 63 08 
   184)     42878.5  Rx     19F8051C  8  24 00 00 00 00 10 00 0F 
   185)     42879.1  Rx     19F8051C  8  25 49 00 7D 00 FC 0F 00 
   186)     42879.7  Rx     19F8051C  8  26 00 00 FF FF FF FF FF 
   187)     43873.4  Rx     18FEF31C  8  AC 28 80 99 68 D0 2C 89 
   188)     43874.0  Rx     18FEE81C  8  00 00 13 00 00 00 3E 51 
   189)     43874.9  Rx     18FEE61C  8  4B 29 0C 09 57 29 00 00 
   190)     43875.5  Rx     19F8021C  8  5F FC 00 00 00 00 FF FF 
   191)     43877.2  Rx     19F8051C  8  40 2B 5F EE 50 EB 08 3A 
   192)     43877.7  Rx     19F8051C  8  41 1B 80 E9 0A 91 B7 A6 
   193)     43878.3  Rx     19F8051C  8  42 98 06 C0 63 9F 20 5B 
   194)     43878.8  Rx     19F8051C  8  43 92 CB 02 B0 15 64 08 
   195)     43879.4  Rx     19F8051C  8  44 00 00 00 00 10 00 0F 
   196)     43880.0  Rx     19F8051C  8  45 49 00 7D 00 FC 0F 00 
   197)     43880.6  Rx     19F8051C  8  46 00 00 FF FF FF FF FF 
   198)     44873.8  Rx     18FEF31C  8  A9 28 80 99 69 D0 2C 89 
   199)     44874.4  Rx     18FEE81C  8  00 00 1E 00 00 00 3F 51 
   200)     44874.9  Rx     18FEE61C  8  4F 29 0C 09 57 29 00 00 
   201)     44875.5  Rx     19F0101C  8  64 00 EE 50 FB 2F 3A 1B 
   202)     44876.1  Rx     19F8021C  8  64 FC 00 00 00 00 FF FF 
   203)     44876.7  Rx     19F8051C  8  60 2B 64 EE 50 FB 2F 3A 
   204)     44877.3  Rx     19F8051C  8  61 1B 00 DC C1 05 B7 A6 
   205)     44877.8  Rx     19F8051C  8  62 98 06 E0 22 73 67 5B 
   206)     44878.4  Rx     19F8051C  8  63 92 CB 02 EF 9D 64 08 
   207)     44879.0  Rx     19F8051C  8  64 00 00 00 00 10 00 0F 
   208)     44879.5  Rx     19F8051C  8  65 49 00 7D 00 FC 0F 00 
   209)     44880.1  Rx     19F8051C  8  66 00 00 FF FF FF FF FF 
   210)     45873.3  Rx     18FEF31C  8  A7 28 80 99 6A D0 2C 89 
   211)     45873.9  Rx     18FEE81C  8  00 00 21 00 00 00 3F 51 
   212)     45874.4  Rx     18FEE61C  8  53 29 0C 09 57 29 00 00 
   213)     45875.0  Rx     19F8021C  8  69 FC 00 00 00 00 FF FF 
   214)     45875.9  Rx     19F8051C  8  80 2B 69 EE 50 0B 57 3A 
   215)     45876.5  Rx     19F8051C  8  81 1B 40 5C A4 7B B6 A6 
   216)     45878.0  Rx     19F8051C  8  82 98 06 A0 9E F2 88 5B 
   217)     45878.6  Rx     19F8051C  8  83 92 CB 02 6E 1B 65 08 
   218)     45879.1  Rx     19F8051C  8  84 00 00 00 00 10 00 0F 
   219)     45879.7  Rx     19F8051C  8  85 49 00 7D 00 FC 0F 00 
   220)     45880.3  Rx     19F8051C  8  86 00 00 FF FF FF FF FF 
   221)     46874.4  Rx     18FEF31C  8  A4 28 80 99 6A D0 2C 89 
   222)     46875.0  Rx     18FEE81C  8  00 00 21 00 00 00 3F 51 
   223)     46875.5  Rx     18FEE61C  8  57 29 0C 09 57 29 00 00 
   224)     46876.1  Rx     19F8021C  8  6E FC 00 00 00 00 FF FF 
   225)     46877.1  Rx     19F8051C  8  A0 2B 6E EE 50 1B 7E 3A 
   226)     46877.6  Rx     19F8051C  8  A1 1B 00 41 0E E5 B5 A6 
   227)     46878.2  Rx     19F8051C  8  A2 98 06 60 85 15 AC 5B 
   228)     46878.7  Rx     19F8051C  8  A3 92 CB 02 C9 A5 65 08 
   229)     46879.3  Rx     19F8051C  8  A4 00 00 00 00 10 00 0F 
   230)     46879.9  Rx     19F8051C  8  A5 49 00 7D 00 FC 0F 00 
   231)     46880.5  Rx     19F8051C  8  A6 00 00 FF FF FF FF FF 
   232)     47873.5  Rx     18FEF31C  8  A2 28 80 99 6B D0 2C 89 
   233)     47874.1  Rx     18FEE81C  8  00 00 23 00 00 00 40 51 
   234)     47874.6  Rx     18FEE61C  8  5B 29 0C 09 57 29 00 00 
   235)     47875.2  Rx     19F8021C  8  73 FC 00 00 00 00 FF FF 
   236)     47876.1  Rx     19F8051C  8  C0 2B 73 EE 50 2B A5 3A 
   237)     47876.7  Rx     19F8051C  8  C1 1B C0 A7 77 42 B5 A6 
   238)     47877.2  Rx     19F8051C  8  C2 98 06 00 DB 65 C9 5B 
   239)     47877.7  Rx     19F8051C  8  C3 92 CB 02 29 7D 66 08 
   240)     47878.3  Rx     19F8051C  8  C4 00 00 00 00 10 00 0F 
   241)     47878.9  Rx     19F8051C  8  C5 49 00 7D 00 FC 0F 00 
   242)     47879.5  Rx     19F8051C  8  C6 00 00 FF FF FF FF FF 
   243)     48873.6  Rx     18FEF31C  8  A3 28 80 99 6C D0 2C 89 
   244)     48874.2  Rx     18FEE81C  8  00 00 33 00 00 00 42 51 
   245)     48874.7  Rx     18FEE61C  8  5F 29 0C 09 57 29 00 00 
   246)     48875.3  Rx     19F8021C  8  78 FC 00 00 01 00 FF FF 
   247)     48877.5  Rx     19F8051C  8  E0 2B 78 EE 50 3B CC 3A 
   248)     48878.0  Rx     19F8051C  8  E1 1B 40 9B 15 A1 B5 A6 
   249)     48878.6  Rx     19F8051C  8  E2 98 06 40 35 7B 0C 5C 
   250)     48879.1  Rx     19F8051C  8  E3 92 CB 02 7F 96 6A 08 
   251)     48879.7  Rx     19F8051C  8  E4 00 00 00 00 10 00 0F 
   252)     48880.3  Rx     19F8051C  8  E5 49 00 7D 00 FC 0F 00 
   253)     48880.8  Rx     19F8051C  8  E6 00 00 FF FF FF FF FF 
   254)     49875.2  Rx     18FEF31C  8  A3 28 80 99 6E D0 2C 89 
   255)     49875.8  Rx     18FEE81C  8  00 00 3C 00 00 00 44 51 
   256)     49876.3  Rx     18FEE61C  8  63 29 0C 09 57 29 00 00 
   257)     49876.9  Rx     19F0101C  8  7D 00 EE 50 4B F3 3A 1B 
   258)     49877.5  Rx     19F8021C  8  7D FC 00 00 00 00 FF FF 
   259)     49878.6  Rx     19F8051C  8  00 2B 7D EE 50 4B F3 3A 
   260)     49879.1  Rx     19F8051C  8  01 1B 00 70 B2 AF B5 A6 
   261)     49879.7  Rx     19F8051C  8  02 98 06 A0 04 E8 8F 5C 
   262)     49880.2  Rx     19F8051C  8  03 92 CB 02 F3 0F 6F 08 
   263)     49880.8  Rx     19F8051C  8  04 00 00 00 00 10 00 0F 
   264)     49881.4  Rx     19F8051C  8  05 49 00 7D 00 FC 0F 00 
   265)     49882.0  Rx     19F8051C  8  06 00 00 FF FF FF FF FF 
   266)     50873.3  Rx     18FEF31C  8  A4 28 80 99 70 D0 2C 89 
   267)     50873.9  Rx     18FEE81C  8  00 00 34 00 00 00 45 51 
   268)     50874.4  Rx     18FEE61C  8  67 29 0C 09 57 29 00 00 
   269)     50875.0  Rx     19F8021C  8  82 FC 00 00 00 00 FF FF 
   270)     50875.9  Rx     19F8051C  8  20 2B 82 EE 50 5B 1A 3B 
   271)     50876.5  Rx     19F8051C  8  21 1B 80 C8 19 D9 B5 A6 
   272)     50877.0  Rx     19F8051C  8  22 98 06 A0 9E B9 15 5D 
   273)     50877.6  Rx     19F8051C  8  23 92 CB 02 55 65 71 08 
   274)     50878.2  Rx     19F8051C  8  24 00 00 00 00 10 00 0F 
   275)     50878.7  Rx     19F8051C  8  25 49 00 7D 00 FC 0F 00 
   276)     50879.3  Rx     19F8051C  8  26 00 00 FF FF FF FF FF 
   277)     51873.1  Rx     18FEF31C  8  A4 28 80 99 72 D0 2C 89 
   278)     51873.7  Rx     18FEE81C  8  00 00 29 00 00 00 46 51 
   279)     51874.2  Rx     18FEE61C  8  6B 29 0C 09 57 29 00 00 
   280)     51874.8  Rx     19F8021C  8  87 FC 00 00 00 00 FF FF 
   281)     51876.8  Rx     19F8051C  8  40 2B 87 EE 50 6B 41 3B 
   282)     51877.4  Rx     19F8051C  8  41 1B 80 CB 9E DA B5 A6 
   283)     51877.9  Rx     19F8051C  8  42 98 06 80 BA AA 71 5D 
   284)     51878.5  Rx     19F8051C  8  43 92 CB 02 DB 53 73 08 
   285)     51879.0  Rx     19F8051C  8  44 00 00 00 00 10 00 0F 
   286)     51879.6  Rx     19F8051C  8  45 49 00 7D 00 FC 0F 00 
   287)     51880.2  Rx     19F8051C  8  46 00 00 FF FF FF FF FF 
   288)     52873.2  Rx     18FEF31C  8  A6 28 80 99 75 D0 2C 89 
   289)     52873.8  Rx     18FEE81C  8  00 00 25 00 00 00 47 51 
   290)     52874.3  Rx     18FEE61C  8  6F 29 0C 09 57 29 00 00 
   291)     52874.9  Rx     19F8021C  8  8C FC 00 00 00 00 FF FF 
   292)     52876.0  Rx     19F8051C  8  60 2B 8C EE 50 7B 68 3B 
   293)     52876.6  Rx     19F8051C  8  61 1B 40 FB F8 4E B6 A6 
   294)     52877.1  Rx     19F8051C  8  62 98 06 80 B8 87 47 5E 
   295)     52877.7  Rx     19F8051C  8  63 92 CB 02 56 C5 73 08 
   296)     52878.3  Rx     19F8051C  8  64 00 00 00 00 10 00 0F 
   297)     52878.8  Rx     19F8051C  8  65 49 00 7D 00 FC 0F 00 
   298)     52879.4  Rx     19F8051C  8  66 00 00 FF FF FF FF FF 
   299)     53873.0  Rx     18FEF31C  8  A8 28 80 99 79 D0 2C 89 
   300)     53873.6  Rx     18FEE81C  8  00 00 2C 00 00 00 47 51 
   301)     53874.1  Rx     18FEE61C  8  73 29 0C 09 57 29 00 00 
   302)     53874.7  Rx     19F8021C  8  91 FC 00 00 00 00 FF FF 
   303)     53875.8  Rx     19F8051C  8  80 2B 91 EE 50 8B 8F 3B 
   304)     53876.4  Rx     19F8051C  8  81 1B 00 B3 12 C1 B6 A6 
   305)     53876.9  Rx     19F8051C  8  82 98 06 E0 4B 2B 1F 5F 
   306)     53877.5  Rx     19F8051C  8  83 92 CB 02 1F EA 73 08 
   307)     53878.1  Rx     19F8051C  8  84 00 00 00 00 10 00 0F 
   308)     53878.6  Rx     19F8051C  8  85 49 00 7D 00 FC 0F 00 
   309)     53879.2  Rx     19F8051C  8  86 00 00 FF FF FF FF FF 
   310)     54874.9  Rx     18FEF31C  8  AA 28 80 99 7C D0 2C 89 
   311)     54875.5  Rx     18FEE81C  8  00 00 21 00 00 00 47 51 
   312)     54876.0  Rx     18FEE61C  8  77 29 0C 09 57 29 00 00 
   313)     54876.5  Rx     19F0101C  8  96 00 EE 50 9B B6 3B 1B 
   314)     54877.1  Rx     19F8021C  8  96 FC 00 00 00 00 FF FF 
   315)     54878.3  Rx     19F8051C  8  A0 2B 96 EE 50 9B B6 3B 
   316)     54878.8  Rx     19F8051C  8  A1 1B C0 2F 0F 2C B7 A6 
   317)     54879.4  Rx     19F8051C  8  A2 98 06 00 F2 FF E1 5F 
   318)     54879.9  Rx     19F8051C  8  A3 92 CB 02 F2 E0 73 08 
   319)     54880.5  Rx     19F8051C  8  A4 00 00 00 00 10 00 0F 
   320)     54881.1  Rx     19F8051C  8  A5 49 00 7D 00 FC 0F 00 
   321)     54881.6  Rx     19F8051C  8  A6 00 00 FF FF FF FF FF 
   322)     55872.9  Rx     18FEF31C  8  AC 28 80 99 7F D0 2C 89 
   323)     55873.5  Rx     18FEE81C  8  00 00 22 00 00 00 47 51 
   324)     55874.0  Rx     18FEE61C  8  7B 29 0C 09 57 29 00 00 
   325)     55874.6  Rx     19F8021C  8  9B FC 00 00 00 00 FF FF 
   326)     55875.7  Rx     19F8051C  8  C0 2B 9B EE 50 AB DD 3B 
   327)     55876.3  Rx     19F8051C  8  C1 1B 00 C3 7F 9B B7 A6 
   328)     55876.8  Rx     19F8051C  8  C2 98 06 80 04 D0 89 60 
   329)     55877.4  Rx     19F8051C  8  C3 92 CB 02 A1 C2 73 08 
   330)     55877.9  Rx     19F8051C  8  C4 00 00 00 00 10 00 0F 
   331)     55878.5  Rx     19F8051C  8  C5 49 00 7D 00 FC 0F 00 
   332)     55879.1  Rx     19F8051C  8  C6 00 00 FF FF FF FF FF 
   333)     56872.9  Rx     18FEF31C  8  D5 28 80 99 B6 D2 2C 89 
   334)     56873.5  Rx     18FEE81C  8  00 00 17 00 00 00 58 51 
   335)     56874.1  Rx     18FEE61C  8  7F 29 0C 09 57 29 00 00 
   336)     56874.6  Rx     19F8021C  8  A0 FC 00 00 00 00 FF FF 
   337)     56876.8  Rx     19F8051C  8  E0 2F A0 EE 50 09 05 3C 
   338)     56877.3  Rx     19F8051C  8  E1 1B 00 A6 59 36 C1 A6 
   339)     56877.9  Rx     19F8051C  8  E2 98 06 00 96 78 81 E4 
   340)     56878.4  Rx     19F8051C  8  E3 92 CB 02 D9 B4 94 08 
   341)     56879.0  Rx     19F8051C  8  E4 00 00 00 00 50 00 04 
   342)     56879.6  Rx     19F8051C  8  E5 C8 01 1E 02 FC 0F 00 
   343)     56880.1  Rx     19F8051C  8  E6 00 01 AF 02 00 00 FF 
   344)     57874.3  Rx     18FEF31C  8  D5 28 80 99 B6 D2 2C 89 
   345)     57874.8  Rx     18FEE81C  8  00 00 2B 00 00 00 58 51 
   346)     57875.4  Rx     18FEE61C  8  83 29 0C 09 57 29 00 00 
   347)     57876.0  Rx     19F8021C  8  A5 FC 00 00 00 00 FF FF 
   348)     57876.9  Rx     19F8051C  8  00 2F A5 EE 50 19 2C 3C 
   349)     57877.4  Rx     19F8051C  8  01 1B 40 99 5A 38 C1 A6 
   350)     57878.0  Rx     19F8051C  8  02 98 06 00 61 4C 70 E4 
   351)     57878.6  Rx     19F8051C  8  03 92 CB 02 6B 88 94 08 
   352)     57879.1  Rx     19F8051C  8  04 00 00 00 00 50 00 04 
   353)     57879.7  Rx     19F8051C  8  05 C8 01 1E 02 FC 0F 00 
   354)     57880.3  Rx     19F8051C  8  06 00 01 AF 02 64 00 FF 
   355)     58873.0  Rx     18FEF31C  8  D5 28 80 99 B6 D2 2C 89 
   356)     58873.5  Rx     18FEE81C  8  00 00 26 00 00 00 58 51 
   357)     58874.1  Rx     18FEE61C  8  87 29 0C 09 57 29 00 00 
   358)     58874.7  Rx     19F8021C  8  AA FC 00 00 00 00 FF FF 
   359)     58875.8  Rx     19F8051C  8  20 2F AA EE 50 29 53 3C 
   360)     58876.3  Rx     19F8051C  8  21 1B C0 AC CA 30 C1 A6 
   361)     58876.9  Rx     19F8051C  8  22 98 06 60 8D 41 70 E4 
   362)     58877.4  Rx     19F8051C  8  23 92 CB 02 A7 A3 94 08 
   363)     58878.0  Rx     19F8051C  8  24 00 00 00 00 50 00 04 
   364)     58878.6  Rx     19F8051C  8  25 C8 01 1E 02 FC 0F 00 
   365)     58879.1  Rx     19F8051C  8  26 00 01 AF 02 C8 00 FF 
   366)     59873.4  Rx     18FEF31C  8  D5 28 80 99 B5 D2 2C 89 
   367)     59874.0  Rx     18FEE81C  8  00 00 21 00 00 00 58 51 
   368)     59874.5  Rx     18FEE61C  8  8B 29 0C 09 57 29 00 00 
   369)     59875.1  Rx     19F0101C  8  AF 00 EE 50 39 7A 3C 1B 
   370)     59875.7  Rx     19F8021C  8  AF FC 00 00 00 00 FF FF 
   371)     59878.0  Rx     19F8051C  8  40 2F AF EE 50 39 7A 3C 
   372)     59878.6  Rx     19F8051C  8  41 1B 80 0B 12 1F C1 A6 
   373)     59879.2  Rx     19F8051C  8  42 98 06 E0 A3 A0 3A E4 
   374)     59879.7  Rx     19F8051C  8  43 92 CB 02 0D 88 94 08 
   375)     59880.3  Rx     19F8051C  8  44 00 00 00 00 50 00 04 
   376)     59880.9  Rx     19F8051C  8  45 C8 01 1E 02 FC 0F 00 
   377)     59881.4  Rx     19F8051C  8  46 00 01 AF 02 2C 01 FF 
   378)     60873.6  Rx     18FEF31C  8  D5 28 80 99 B4 D2 2C 89 
   379)     60874.2  Rx     18FEE81C  8  00 00 1F 00 00 00 58 51 
   380)     60874.8  Rx     18FEE61C  8  8F 29 0C 09 57 29 00 00 
   381)     60875.4  Rx     19F8021C  8  B4 FC 00 00 00 00 FF FF 
   382)     60876.4  Rx     19F8051C  8  60 2F B4 EE 50 49 A1 3C 
   383)     60876.9  Rx     19F8051C  8  61 1B 80 67 91 1C C1 A6 
   384)     60877.5  Rx     19F8051C  8  62 98 06 60 26 85 11 E4 
   385)     60878.0  Rx     19F8051C  8  63 92 CB 02 36 FC 94 08 
   386)     60878.6  Rx     19F8051C  8  64 00 00 00 00 50 00 04 
   387)     60879.1  Rx     19F8051C  8  65 C8 01 1E 02 FC 0F 00 
   388)     60879.7  Rx     19F8051C  8  66 00 01 AF 02 90 01 FF 
   389)     61873.1  Rx     18FEF31C  8  D4 28 80 99 B5 D2 2C 89 
   390)     61873.7  Rx     18FEE81C  8  00 00 2C 00 00 00 58 51 
   391)     61874.3  Rx     18FEE61C  8  93 29 0C 09 57 29 00 00 
   392)     61874.9  Rx     19F8021C  8  B9 FC 00 00 00 00 FF FF 
   393)     61876.0  Rx     19F8051C  8  80 2F B9 EE 50 59 C8 3C 
   394)     61876.6  Rx     19F8051C  8  81 1B 40 00 C6 0D C1 A6 
   395)     61877.1  Rx     19F8051C  8  82 98 06 60 6C 0E 3B E4 
   396)     61877.6  Rx     19F8051C  8  83 92 CB 02 8F 13 95 08 
   397)     61878.2  Rx     19F8051C  8  84 00 00 00 00 50 00 04 
   398)     61878.8  Rx     19F8051C  8  85 C8 01 1E 02 FC 0F 00 
   399)     61879.4  Rx     19F8051C  8  86 00 01 AF 02 F4 01 FF 
   400)     62873.4  Rx     18FEF31C  8  D5 28 80 99 B5 D2 2C 89 
   401)     62873.9  Rx     18FEE81C  8  00 00 2A 00 00 00 58 51 
   402)     62874.5  Rx     18FEE61C  8  97 29 0C 09 57 29 00 00 
   403)     62875.1  Rx     19F8021C  8  BE FC 00 00 00 00 FF FF 
   404)     62877.3  Rx     19F8051C  8  A0 2F BE EE 50 69 EF 3C 
   405)     62877.8  Rx     19F8051C  8  A1 1B 00 C9 48 1B C1 A6 
   406)     62878.4  Rx     19F8051C  8  A2 98 06 C0 DB 36 45 E4 
   407)     62878.9  Rx     19F8051C  8  A3 92 CB 02 02 00 95 08 
   408)     62879.5  Rx     19F8051C  8  A4 00 00 00 00 50 00 04 
   409)     62880.1  Rx     19F8051C  8  A5 C8 01 1E 02 FC 0F 00 
   410)     62880.6  Rx     19F8051C  8  A6 00 01 AF 02 58 02 FF 
   411)     63873.5  Rx     18FEF31C  8  AC 28 80 99 5E D2 2C 89 
   412)     63874.0  Rx     18FEE81C  8  00 00 1C 00 00 00 58 51 
   413)     63874.6  Rx     18FEE61C  8  9B 29 0C 09 57 29 00 00 
   414)     63875.2  Rx     19F8021C  8  C3 FC 00 00 00 00 FF FF 
   415)     63876.3  Rx     19F8051C  8  C0 2F C3 EE 50 79 16 3D 
   416)     63876.8  Rx     19F8051C  8  C1 1B 80 73 A9 B7 B7 A6 
   417)     63877.4  Rx     19F8051C  8  C2 98 06 00 0E 12 07 D0 
   418)     63877.9  Rx     19F8051C  8  C3 92 CB 02 AD 2A 94 08 
   419)     63878.5  Rx     19F8051C  8  C4 00 00 00 00 50 00 05 
   420)     63879.1  Rx     19F8051C  8  C5 C8 01 1E 02 FC 0F 00 
   421)     63879.6  Rx     19F8051C  8  C6 00 01 AF 02 90 01 FF 
   422)     64874.0  Rx     18FEF31C  8  AC 28 80 99 5E D2 2C 89 
   423)     64874.6  Rx     18FEE81C  8  00 00 1A 00 00 00 58 51 
   424)     64875.2  Rx     18FEE61C  8  9F 29 0C 09 57 29 00 00 
   425)     64875.7  Rx     19F0101C  8  C8 00 EE 50 89 3D 3D 1B 
   426)     64876.3  Rx     19F8021C  8  C8 FC 00 00 00 00 FF FF 
   427)     64878.6  Rx     19F8051C  8  E0 2F C8 EE 50 89 3D 3D 
   428)     64879.2  Rx     19F8051C  8  E1 1B 00 F5 1F AC B7 A6 
   429)     64879.7  Rx     19F8051C  8  E2 98 06 E0 A7 8C FB CF 
   430)     64880.3  Rx     19F8051C  8  E3 92 CB 02 E1 38 94 08 
   431)     64880.9  Rx     19F8051C  8  E4 00 00 00 00 50 00 05 
   432)     64881.5  Rx     19F8051C  8  E5 C8 01 1E 02 FC 0F 00 
   433)     64882.0  Rx     19F8051C  8  E6 00 01 AF 02 F4 01 FF 
   434)     65875.0  Rx     18FEF31C  8  AC 28 80 99 5E D2 2C 89 
   435)     65875.6  Rx     18FEE81C  8  00 00 19 00 00 00 58 51 
   436)     65876.1  Rx     18FEE61C  8  A3 29 0C 09 57 29 00 00 
   437)     65876.7  Rx     19F8021C  8  CD FC 00 00 01 00 FF FF 
   438)     65877.7  Rx     19F8051C  8  00 2F CD EE 50 99 64 3D 
   439)     65878.3  Rx     19F8051C  8  01 1B C0 3D 8B AF B7 A6 
   440)     65878.8  Rx     19F8051C  8  02 98 06 A0 99 21 FC CF 
   441)     65879.4  Rx     19F8051C  8  03 92 CB 02 A8 3F 94 08 
   442)     65879.9  Rx     19F8051C  8  04 00 00 00 00 50 00 05 
   443)     65880.5  Rx     19F8051C  8  05 C8 01 1E 02 FC 0F 00 
   444)     65881.1  Rx     19F8051C  8  06 00 01 AF 02 58 02 FF 
   445)     66874.0  Rx     18FEF31C  8  AC 28 80 99 5E D2 2C 89 
   446)     66874.6  Rx     18FEE81C  8  00 00 1E 00 00 00 58 51 
   447)     66875.2  Rx     18FEE61C  8  A7 29 0C 09 57 29 00 00 
   448)     66875.7  Rx     19F8021C  8  D2 FC 00 00 00 00 FF FF 
   449)     66876.7  Rx     19F8051C  8  20 2F D2 EE 50 A9 8B 3D 
   450)     66877.2  Rx     19F8051C  8  21 1B 40 A4 2D A5 B7 A6 
   451)     66877.8  Rx     19F8051C  8  22 98 06 C0 08 E7 02 D0 
   452)     66878.3  Rx     19F8051C  8  23 92 CB 02 C9 45 94 08 
   453)     66878.9  Rx     19F8051C  8  24 00 00 00 00 50 00 05 
   454)     66879.5  Rx     19F8051C  8  25 C8 01 1E 02 FC 0F 00 
   455)     66880.0  Rx     19F8051C  8  26 00 01 AF 02 BC 02 FF 
   456)     67874.2  Rx     18FEF31C  8  AC 28 80 99 5E D2 2C 89 
   457)     67874.8  Rx     18FEE81C  8  00 00 1F 00 00 00 58 51 
   458)     67875.3  Rx     18FEE61C  8  AB 29 0C 09 57 29 00 00 
   459)     67875.9  Rx     19F8021C  8  D7 FC 00 00 00 00 FF FF 
   460)     67878.2  Rx     19F8051C  8  40 2F D7 EE 50 B9 B2 3D 
   461)     67878.8  Rx     19F8051C  8  41 1B 40 8F 6B C9 B7 A6 
   462)     67879.3  Rx     19F8051C  8  42 98 06 60 32 07 F2 CF 
   463)     67879.9  Rx     19F8051C  8  43 92 CB 02 F5 68 94 08 
   464)     67880.5  Rx     19F8051C  8  44 00 00 00 00 50 00 05 
   465)     67881.0  Rx     19F8051C  8  45 C8 01 1E 02 FC 0F 00 
   466)     67881.6  Rx     19F8051C  8  46 00 01 AF 02 20 03 FF 
   467)     68875.8  Rx     18FEF31C  8  8B 28 80 99 E8 D1 2C 89 
   468)     68876.4  Rx     18FEE81C  8  00 00 16 00 00 00 57 51 
   469)     68877.0  Rx     18FEE61C  8  AF 29 0C 09 57 29 00 00 
   470)     68877.5  Rx     19F8021C  8  DC FC 00 00 00 00 FF FF 
   471)     68878.9  Rx     19F8051C  8  60 2F DC EE 50 C9 D9 3D 
   472)     68879.4  Rx     19F8051C  8  61 1B C0 40 07 16 B0 A6 
   473)     68879.9  Rx     19F8051C  8  62 98 06 00 86 18 7E B4 
   474)     68880.5  Rx     19F8051C  8  63 92 CB 02 4E 49 92 08 
   475)     68881.1  Rx     19F8051C  8  64 00 00 00 00 50 00 08 
   476)     68881.6  Rx     19F8051C  8  65 72 00 E3 00 FC 0F 00 
   477)     68882.2  Rx     19F8051C  8  66 00 01 AF 02 F4 01 FF 
   478)     69874.6  Rx     18FEF31C  8  8B 28 80 99 E8 D1 2C 89 
   479)     69875.2  Rx     18FEE81C  8  00 00 1D 00 00 00 56 51 
   480)     69875.7  Rx     18FEE61C  8  B3 29 0C 09 57 29 00 00 
   481)     69876.3  Rx     19F0101C  8  E1 00 EE 50 D9 00 3E 1B 
   482)     69876.8  Rx     19F8021C  8  E1 FC 00 00 00 00 FF FF 
   483)     69877.5  Rx     19F8051C  8  80 2F E1 EE 50 D9 00 3E 
   484)     69878.1  Rx     19F8051C  8  81 1B 80 52 CB 0C B0 A6 
   485)     69878.6  Rx     19F8051C  8  82 98 06 40 70 F2 82 B4 
   486)     69879.2  Rx     19F8051C  8  83 92 CB 02 D8 1F 92 08 
   487)     69879.8  Rx     19F8051C  8  84 00 00 00 00 50 00 08 
   488)     69880.3  Rx     19F8051C  8  85 72 00 E3 00 FC 0F 00 
   489)     69880.9  Rx     19F8051C  8  86 00 01 AF 02 58 02 FF 
   490)     70874.2  Rx     18FEF31C  8  8B 28 80 99 E8 D1 2C 89 
   491)     70874.8  Rx     18FEE81C  8  00 00 2D 00 00 00 56 51 
   492)     70875.4  Rx     18FEE61C  8  B7 29 0C 09 57 29 00 00 
   493)     70876.0  Rx     19F8021C  8  E6 FC 00 00 00 00 FF FF 
   494)     70878.0  Rx     19F8051C  8  A0 2F E6 EE 50 E9 27 3E 
   495)     70878.6  Rx     19F8051C  8  A1 1B 00 3B 88 18 B0 A6 
   496)     70879.1  Rx     19F8051C  8  A2 98 06 C0 19 7D 8D B4 
   497)     70879.6  Rx     19F8051C  8  A3 92 CB 02 B0 30 92 08 
   498)     70880.2  Rx     19F8051C  8  A4 00 00 00 00 50 00 08 
   499)     70880.8  Rx     19F8051C  8  A5 72 00 E3 00 FC 0F 00 
   500)     70881.3  Rx     19F8051C  8  A6 00 01 AF 02 BC 02 FF 
   501)     71874.4  Rx     18FEF31C  8  5C 28 80 99 99 D1 2C 89 
   502)     71874.9  Rx     18FEE81C  8  00 00 09 00 00 00 54 51 
   503)     71875.5  Rx     18FEE61C  8  BB 29 0C 09 57 29 00 00 
   504)     71876.1  Rx     19F8021C  8  EB FC 00 00 00 00 FF FF 
   505)     71877.0  Rx     19F8051C  8  C0 2F EB EE 50 F9 4E 3E 
   506)     71877.6  Rx     19F8051C  8  C1 1B C0 01 8B F6 A4 A6 
   507)     71878.1  Rx     19F8051C  8  C2 98 06 40 8D E6 19 A2 
   508)     71878.6  Rx     19F8051C  8  C3 92 CB 02 3E 0F 8D 08 
   509)     71879.2  Rx     19F8051C  8  C4 00 00 00 00 50 00 09 
   510)     71879.8  Rx     19F8051C  8  C5 64 00 C0 00 FC 0F 00 
   511)     71880.4  Rx     19F8051C  8  C6 00 01 AF 02 90 01 FF 
   512)     72874.6  Rx     18FEF31C  8  5C 28 80 99 98 D1 2C 89 
   513)     72875.2  Rx     18FEE81C  8  00 00 13 00 00 00 54 51 
   514)     72875.8  Rx     18FEE61C  8  BF 29 0C 09 57 29 00 00 
   515)     72876.4  Rx     19F8021C  8  F0 FC 00 00 00 00 FF FF 
   516)     72877.3  Rx     19F8051C  8  E0 2F F0 EE 50 09 76 3E 
   517)     72877.8  Rx     19F8051C  8  E1 1B C0 D6 61 11 A5 A6 
   518)     72878.4  Rx     19F8051C  8  E2 98 06 E0 62 4D FE A1 
   519)     72878.9  Rx     19F8051C  8  E3 92 CB 02 D2 28 8D 08 
   520)     72879.5  Rx     19F8051C  8  E4 00 00 00 00 50 00 09 
   521)     72880.0  Rx     19F8051C  8  E5 64 00 C0 00 FC 0F 00 
   522)     72880.6  Rx     19F8051C  8  E6 00 01 AF 02 F4 01 FF 
   523)     73874.9  Rx     18FEF31C  8  5C 28 80 99 99 D1 2C 89 
   524)     73876.6  Rx     18FEE81C  8  00 00 1F 00 00 00 54 51 
   525)     73877.2  Rx     18FEE61C  8  C3 29 0C 09 57 29 00 00 
   526)     73877.8  Rx     19F8021C  8  F5 FC 00 00 00 00 FF FF 
   527)     73879.5  Rx     19F8051C  8  00 2F F5 EE 50 19 9D 3E 
   528)     73880.0  Rx     19F8051C  8  01 1B 00 6D FB 02 A5 A6 
   529)     73880.6  Rx     19F8051C  8  02 98 06 E0 57 FC 0B A2 
   530)     73881.2  Rx     19F8051C  8  03 92 CB 02 01 4B 8D 08 
   531)     73881.8  Rx     19F8051C  8  04 00 00 00 00 50 00 09 
   532)     73882.3  Rx     19F8051C  8  05 64 00 C0 00 FC 0F 00 
   533)     73882.9  Rx     19F8051C  8  06 00 01 AF 02 58 02 FF 
   534)     74875.3  Rx     18FEF31C  8  5C 28 80 99 99 D1 2C 89 
   535)     74875.8  Rx     18FEE81C  8  00 00 07 00 00 00 54 51 
   536)     74876.4  Rx     18FEE61C  8  C7 29 0C 09 57 29 00 00 
   537)     74876.9  Rx     19F0101C  8  FA 00 EE 50 29 C4 3E 1B 
   538)     74877.5  Rx     19F8021C  8  FA FC 00 00 00 00 FF FF 
   539)     74878.2  Rx     19F8051C  8  20 2F FA EE 50 29 C4 3E 
   540)     74878.7  Rx     19F8051C  8  21 1B 80 5A 23 02 A5 A6 
   541)     74879.3  Rx     19F8051C  8  22 98 06 40 6D 1C 14 A2 
   542)     74879.8  Rx     19F8051C  8  23 92 CB 02 87 2D 8D 08 
   543)     74880.4  Rx     19F8051C  8  24 00 00 00 00 50 00 09 
   544)     74881.0  Rx     19F8051C  8  25 64 00 C0 00 FC 0F 00 
   545)     74881.6  Rx     19F8051C  8  26 00 01 AF 02 BC 02 FF 
   546)     75875.0  Rx     18FEF31C  8  5C 28 80 99 99 D1 2C 89 
   547)     75875.6  Rx     18FEE81C  8  00 00 0D 00 00 00 54 51 
   548)     75876.1  Rx     18FEE61C  8  CB 29 0C 09 57 29 00 00 
   549)     75876.7  Rx     19F8021C  8  04 FC 00 00 00 00 FF FF 
   550)     75877.6  Rx     19F8051C  8  40 2F 04 EE 50 39 EB 3E 
   551)     75878.9  Rx     19F8051C  8  41 1B C0 DA 2A 02 A5 A6 
   552)     75879.4  Rx     19F8051C  8  42 98 06 60 5D 5C 24 A2 
   553)     75879.9  Rx     19F8051C  8  43 92 CB 02 4D 2A 8D 08 
   554)     75880.5  Rx     19F8051C  8  44 00 00 00 00 50 00 09 
   555)     75881.1  Rx     19F8051C  8  45 64 00 C0 00 FC 0F 00 
   556)     75881.6  Rx     19F8051C  8  46 00 01 AF 02 20 03 FF 
   557)     76876.1  Rx     18FEF31C  8  3E 28 80 99 67 D1 2C 89 
   558)     76876.7  Rx     18FEE81C  8  00 00 13 00 00 00 51 51 
   559)     76877.2  Rx     18FEE61C  8  CF 29 0C 09 57 29 00 00 
   560)     76877.8  Rx     19F8021C  8  09 FC 00 00 00 00 FF FF 
   561)     76878.8  Rx     19F8051C  8  60 2F 09 EE 50 49 12 3F 
   562)     76879.3  Rx     19F8051C  8  61 1B 80 06 4E 0D 9E A6 
   563)     76879.9  Rx     19F8051C  8  62 98 06 20 B5 BC 9B 96 
   564)     76880.5  Rx     19F8051C  8  63 92 CB 02 B9 DF 87 08 
   565)     76881.1  Rx     19F8051C  8  64 00 00 00 00 50 00 0D 
   566)     76881.6  Rx     19F8051C  8  65 5D 00 A3 00 FC 0F 00 
   567)     76882.2  Rx     19F8051C  8  66 00 01 AF 02 F4 01 FF 
   568)     77875.1  Rx     18FEF31C  8  3E 28 80 99 67 D1 2C 89 
   569)     77875.7  Rx     18FEE81C  8  00 00 12 00 00 00 51 51 
   570)     77876.2  Rx     18FEE61C  8  D3 29 0C 09 57 29 00 00 
   571)     77876.8  Rx     19F8021C  8  0E FC 00 00 00 00 FF FF 
   572)     77877.7  Rx     19F8051C  8  80 2F 0E EE 50 59 39 3F 
   573)     77878.3  Rx     19F8051C  8  81 1B 40 57 95 0E 9E A6 
   574)     77878.8  Rx     19F8051C  8  82 98 06 A0 86 BD 85 96 
   575)     77879.4  Rx     19F8051C  8  83 92 CB 02 CD D6 87 08 
   576)     77879.9  Rx     19F8051C  8  84 00 00 00 00 50 00 0D 
   577)     77880.5  Rx     19F8051C  8  85 5D 00 A3 00 FC 0F 00 
   578)     77881.1  Rx     19F8051C  8  86 00 01 AF 02 58 02 FF 
   579)     78875.2  Rx     18FEF31C  8  3E 28 80 99 67 D1 2C 89 
   580)     78875.8  Rx     18FEE81C  8  00 00 19 00 00 00 51 51 
   581)     78876.4  Rx     18FEE61C  8  D7 29 0C 09 57 29 00 00 
   582)     78876.9  Rx     19F8021C  8  13 FC 00 00 00 00 FF FF 
   583)     78879.8  Rx     19F8051C  8  A0 2F 13 EE 50 69 60 3F 
   584)     78880.4  Rx     19F8051C  8  A1 1B 40 C2 E6 11 9E A6 
   585)     78880.9  Rx     19F8051C  8  A2 98 06 E0 26 2D 88 96 
   586)     78881.5  Rx     19F8051C  8  A3 92 CB 02 A0 BC 87 08 
   587)     78882.0  Rx     19F8051C  8  A4 00 00 00 00 50 00 0D 
   588)     78882.6  Rx     19F8051C  8  A5 5D 00 A3 00 FC 0F 00 
   589)     78883.2  Rx     19F8051C  8  A6 00 01 AF 02 BC 02 FF 
   590)     79876.4  Rx     18FEF31C  8  3F 28 80 99 67 D1 2C 89 
   591)     79877.0  Rx     18FEE81C  8  00 00 0B 00 00 00 51 51 
   592)     79877.5  Rx     18FEE61C  8  DB 29 0C 09 57 29 00 00 
   593)     79878.1  Rx     19F0101C  8  18 00 EE 50 79 87 3F 1B 
   594)     79878.7  Rx     19F8021C  8  18 FC 00 00 00 00 FF FF 
   595)     79879.4  Rx     19F8051C  8  C0 2F 18 EE 50 79 87 3F 
   596)     79879.9  Rx     19F8051C  8  C1 1B 00 59 F1 36 9E A6 
   597)     79880.4  Rx     19F8051C  8  C2 98 06 40 2B BA 71 96 
   598)     79881.0  Rx     19F8051C  8  C3 92 CB 02 E0 C6 87 08 
   599)     79881.6  Rx     19F8051C  8  C4 00 00 00 00 50 00 0D 
   600)     79882.1  Rx     19F8051C  8  C5 5D 00 A3 00 FC 0F 00 
   601)     79882.7  Rx     19F8051C  8  C6 00 01 AF 02 20 03 FF 
   602)     80875.1  Rx     18FEF31C  8  5B 28 80 99 3B D1 2C 89 
   603)     80875.7  Rx     18FEE81C  8  00 00 0D 00 00 00 4B 51 
   604)     80876.2  Rx     18FEE61C  8  DF 29 0C 09 57 29 00 00 
   605)     80876.8  Rx     19F8021C  8  1D FC 00 00 00 00 FF FF 
   606)     80878.3  Rx     19F8051C  8  E0 2F 1D EE 50 89 AE 3F 
   607)     80878.9  Rx     19F8051C  8  E1 1B 00 38 20 CC A4 A6 
   608)     80879.4  Rx     19F8051C  8  E2 98 06 40 1C 8F 5E 8C 
   609)     80880.0  Rx     19F8051C  8  E3 92 CB 02 E9 8D 7C 08 
   610)     80880.5  Rx     19F8051C  8  E4 00 00 00 00 40 00 0D 
   611)     80881.1  Rx     19F8051C  8  E5 5D 00 A3 00 FC 0F 00 
   612)     80881.7  Rx     19F8051C  8  E6 00 01 AF 02 F4 01 FF 
   613)     81875.2  Rx     18FEF31C  8  5B 28 80 99 3C D1 2C 89 
   614)     81875.8  Rx     18FEE81C  8  00 00 09 00 00 00 4B 51 
   615)     81876.3  Rx     18FEE61C  8  E3 29 0C 09 57 29 00 00 
   616)     81876.9  Rx     19F8021C  8  22 FC 00 00 00 00 FF FF 
   617)     81879.2  Rx     19F8051C  8  00 2F 22 EE 50 99 D5 3F 
   618)     81879.8  Rx     19F8051C  8  01 1B 40 DC 7A B4 A4 A6 
   619)     81880.3  Rx     19F8051C  8  02 98 06 00 EF 2D 64 8C 
   620)     81880.9  Rx     19F8051C  8  03 92 CB 02 93 85 7C 08 
   621)     81881.4  Rx     19F8051C  8  04 00 00 00 00 40 00 0D 
   622)     81882.0  Rx     19F8051C  8  05 5D 00 A3 00 FC 0F 00 
   623)     81882.6  Rx     19F8051C  8  06 00 01 AF 02 58 02 FF 
   624)     82875.2  Rx     18FEF31C  8  5B 28 80 99 3B D1 2C 89 
   625)     82875.8  Rx     18FEE81C  8  00 00 03 00 00 00 4B 51 
   626)     82876.3  Rx     18FEE61C  8  E7 29 0C 09 57 29 00 00 
   627)     82876.9  Rx     19F8021C  8  27 FC 00 00 00 00 FF FF 
   628)     82878.4  Rx     19F8051C  8  20 2F 27 EE 50 A9 FC 3F 
   629)     82879.0  Rx     19F8051C  8  21 1B 00 54 FF B5 A4 A6 
   630)     82879.5  Rx     19F8051C  8  22 98 06 C0 B8 81 52 8C 
   631)     82880.1  Rx     19F8051C  8  23 92 CB 02 FC 8C 7C 08 
   632)     82880.7  Rx     19F8051C  8  24 00 00 00 00 40 00 0D 
   633)     82881.2  Rx     19F8051C  8  25 5D 00 A3 00 FC 0F 00 
   634)     82881.8  Rx     19F8051C  8  26 00 01 AF 02 BC 02 FF 
   635)     83875.1  Rx     18FEF31C  8  72 28 80 99 1A D1 2C 89 
   636)     83875.6  Rx     18FEE81C  8  00 00 07 00 00 00 47 51 
   637)     83876.2  Rx     18FEE61C  8  EB 29 0C 09 57 29 00 00 
   638)     83876.8  Rx     19F8021C  8  2C FC 00 00 00 00 FF FF 
   639)     83878.3  Rx     19F8051C  8  40 2F 2C EE 50 B9 23 40 
   640)     83878.8  Rx     19F8051C  8  41 1B 00 2A 2D 34 AA A6 
   641)     83880.4  Rx     19F8051C  8  42 98 06 60 7F 42 8D 84 
   642)     83880.9  Rx     19F8051C  8  43 92 CB 02 2E 10 74 08 
   643)     83881.5  Rx     19F8051C  8  44 00 00 00 00 40 00 0D 
   644)     83882.1  Rx     19F8051C  8  45 5D 00 A3 00 FC 0F 00 
   645)     83882.6  Rx     19F8051C  8  46 00 01 AF 02 90 01 FF 
   646)     84876.6  Rx     18FEF31C  8  73 28 80 99 1A D1 2C 89 
   647)     84877.2  Rx     18FEE81C  8  00 00 0B 00 00 00 47 51 
   648)     84877.7  Rx     18FEE61C  8  EF 29 0C 09 57 29 00 00 
   649)     84878.3  Rx     19F0101C  8  31 00 EE 50 C9 4A 40 1B 
   650)     84878.9  Rx     19F8021C  8  31 FC 00 00 00 00 FF FF 
   651)     84880.3  Rx     19F8051C  8  60 2F 31 EE 50 C9 4A 40 
   652)     84880.9  Rx     19F8051C  8  61 1B 80 F3 4E 4C AA A6 
   653)     84881.4  Rx     19F8051C  8  62 98 06 E0 FC 56 9B 84 
   654)     84882.0  Rx     19F8051C  8  63 92 CB 02 5F 2D 74 08 
   655)     84882.6  Rx     19F8051C  8  64 00 00 00 00 40 00 0D 
   656)     84883.1  Rx     19F8051C  8  65 5D 00 A3 00 FC 0F 00 
   657)     84883.7  Rx     19F8051C  8  66 00 01 AF 02 F4 01 FF 
