;$FILEVERSION=1.1
;$STARTTIME=46287.6176540162
;
;   Start time: 9/22/2026 14:49:25.307.0
;   Generated by PCAN-View v5.3.3.958
;
;   Message Number
;   |         Time Offset (ms)
;   |         |        Type
;   |         |        |        ID (hex)
;   |         |        |        |     Data Length
;   |         |        |        |     |   Data Bytes (hex) ...
;   |         |        |        |     |   |
;---+--   ----+----  --+--  ----+---  +  -+ -- -- -- -- -- -- --
     1)         7.0  Rx     18EF1C8F  8  0D 60 00 5D EE C5 AB FB 
     2)         8.0  Rx     18EF1C8F  8  0D 61 00 00 19 00 81 03 
     3)         8.9  Rx     18EF1C8F  8  0D 62 12 00 0E 00 10 00 
     4)        18.3  Rx     18EFCD1C  8  A0 00 14 00 00 00 00 00 
     5)        18.9  Rx     18EF1CCD  8  A0 00 14 00 AC 07 00 00 
     6)        25.6  Rx     18EF1CCD  8  A1 40 14 08 00 00 00 00 
     7)        27.0  Rx     18EF1C8F  8  0D 70 00 7D 3C C6 AB FB 
     8)        27.9  Rx     18EF1C8F  8  0D 71 FD FF 1F 00 8A 03 
     9)        29.0  Rx     18EF1C8F  8  0D 72 18 00 FF FF 0F 00 
    10)        35.6  Rx     18EF1CCD  8  A2 00 00 00 00 00 00 00 
    11)        36.6  Rx     18EF1CCD  8  A3 00 00 00 00 14 08 12 
    12)        38.3  Rx     18EFCD1C  8  A0 00 2A 00 00 00 00 00 
    13)        38.9  Rx     18EF1CCD  8  A0 00 2A 00 42 06 00 00 
    14)        47.0  Rx     18EF1C8F  8  0D 80 00 9F 8A C6 AB FB 
    15)        48.0  Rx     18EF1C8F  8  0D 81 FD FF 1A 00 81 03 
    16)        48.9  Rx     18EF1C8F  8  0D 82 1A 00 10 00 0F 00 
    17)        58.2  Rx     18EFCD1C  8  A0 00 1B 00 00 00 00 00 
    18)        58.9  Rx     18EF1CCD  8  A0 00 1B 00 BD 00 00 00 
    19)        67.0  Rx     18EF1C8F  8  0D 90 00 BF D8 C6 AB FB 
    20)        67.9  Rx     18EF1C8F  8  0D 91 FE FF 1E 00 83 03 
    21)        68.9  Rx     18EF1C8F  8  0D 92 15 00 00 00 10 00 
    22)        78.3  Rx     18EFCD1C  8  A0 00 00 00 00 00 00 00 
    23)        78.9  Rx     18EF1CCD  8  A0 00 00 00 04 00 00 00 
    24)        87.0  Rx     18EF1C8F  8  0D A0 00 DD 26 C7 AB FB 
    25)        87.9  Rx     18EF1C8F  8  0D A1 FB FF 1A 00 86 03 
    26)        88.9  Rx     18EF1C8F  8  0D A2 16 00 0F 00 12 00 
    27)       107.0  Rx     18EF1C8F  8  0D B0 00 FD 74 C7 AB FB 
    28)       107.9  Rx     18EF1C8F  8  0D B1 00 00 1B 00 84 03 
    29)       108.9  Rx     18EF1C8F  8  0D B2 15 00 03 00 0F 00 
    30)       118.3  Rx     18EFCD1C  8  A1 01 00 00 14 08 00 00 
    31)       125.8  Rx     18EF1CCD  8  A1 40 14 08 00 00 00 00 
    32)       127.0  Rx     18EF1C8F  8  0D C0 00 1D C3 C7 AB FB 
    33)       128.0  Rx     18EF1C8F  8  0D C1 F7 FF 1D 00 88 03 
    34)       128.9  Rx     18EF1C8F  8  0D C2 18 00 13 00 0C 00 
    35)       135.8  Rx     18EF1CCD  8  A2 00 00 00 00 00 00 00 
    36)       136.8  Rx     18EF1CCD  8  A3 00 00 00 00 14 08 14 
    37)       139.8  Rx     18FEF31C  8  3A 2D 80 99 8E B9 2C 89 
    38)       140.3  Rx     18FEE81C  8  F9 2D 0F 00 00 00 29 51 
    39)       140.9  Rx     18FEE61C  8  63 31 0C 09 57 29 00 00 
    40)       141.4  Rx     19F0101C  8  0F 00 EE 50 99 31 84 1B 
    41)       142.0  Rx     19F8021C  8  0F FC B0 3E 00 00 FF FF 
    42)       144.8  Rx     19F8051C  8  00 2F 0F EE 50 99 31 84 
    43)       145.3  Rx     19F8051C  8  01 1B 40 79 8F 19 C7 A7 
    44)       145.9  Rx     19F8051C  8  02 98 06 A0 9F B6 07 09 
    45)       146.4  Rx     19F8051C  8  03 8D CB 02 4A 31 3B 08 
    46)       147.0  Rx     19F8051C  8  04 00 00 00 00 40 00 0D 
    47)       147.6  Rx     18EF1C8F  8  0D D0 00 44 11 C8 AB FB 
    48)       148.2  Rx     18EF1C8F  8  0D D1 00 00 1B 00 81 03 
    49)       148.7  Rx     19F8051C  8  05 50 00 88 00 FC 0F 00 
    50)       149.3  Rx     18EF1C8F  8  0D D2 18 00 0E 00 0C 00 
    51)       149.9  Rx     19F8051C  8  06 00 01 AF 02 58 02 FF 
    52)       167.0  Rx     18EF1C8F  8  0D E0 00 5D 5F C8 AB FB 
    53)       167.9  Rx     18EF1C8F  8  0D E1 F5 FF 1E 00 8B 03 
    54)       168.9  Rx     18EF1C8F  8  0D E2 1A 00 12 00 0F 00 
    55)       187.0  Rx     18EF1C8F  8  0D F0 00 7D AD C8 AB FB 
    56)       187.9  Rx     18EF1C8F  8  0D F1 03 00 19 00 83 03 
    57)       188.9  Rx     18EF1C8F  8  0D F2 1B 00 0C 00 0E 00 
    58)       207.0  Rx     18EF1C8F  8  0D 00 00 9D FB C8 AB FB 
    59)       207.9  Rx     18EF1C8F  8  0D 01 F4 FF 1C 00 87 03 
    60)       208.9  Rx     18EF1C8F  8  0D 02 19 00 0C 00 0D 00 
    61)       218.3  Rx     18EFCD1C  8  A0 00 14 00 00 00 00 00 
    62)       218.9  Rx     18EF1CCD  8  A0 00 14 00 AC 07 00 00 
    63)       226.0  Rx     18EF1CCD  8  A1 40 14 08 00 00 00 00 
    64)       227.0  Rx     18EF1C8F  8  0D 10 00 BF 49 C9 AB FB 
    65)       227.9  Rx     18EF1C8F  8  0D 11 01 00 17 00 7E 03 
    66)       228.9  Rx     18EF1C8F  8  0D 12 15 00 0D 00 10 00 
    67)       236.1  Rx     18EF1CCD  8  A2 00 00 00 00 00 00 00 
    68)       237.1  Rx     18EF1CCD  8  A3 00 00 00 00 14 08 14 
    69)       238.4  Rx     18EFCD1C  8  A0 00 2A 00 00 00 00 00 
    70)       239.1  Rx     18EF1CCD  8  A0 00 2A 00 49 06 00 00 
    71)       247.0  Rx     18EF1C8F  8  0D 20 00 DF 97 C9 AB FB 
    72)       247.9  Rx     18EF1C8F  8  0D 21 F6 FF 1D 00 85 03 
    73)       249.0  Rx     18EF1C8F  8  0D 22 16 00 0A 00 0F 00 
    74)       258.3  Rx     18EFCD1C  8  A0 00 1B 00 00 00 00 00 
    75)       258.9  Rx     18EF1CCD  8  A0 00 1B 00 BD 00 00 00 
    76)       267.0  Rx     18EF1C8F  8  0D 30 00 FD E5 C9 AB FB 
    77)       267.9  Rx     18EF1C8F  8  0D 31 01 00 18 00 7E 03 
    78)       268.9  Rx     18EF1C8F  8  0D 32 16 00 13 00 0F 00 
    79)       278.2  Rx     18EFCD1C  8  A0 00 00 00 00 00 00 00 
    80)       278.9  Rx     18EF1CCD  8  A0 00 00 00 04 00 00 00 
    81)       287.0  Rx     18EF1C8F  8  0D 40 00 1F 34 CA AB FB 
    82)       288.0  Rx     18EF1C8F  8  0D 41 F4 FF 1D 00 86 03 
    83)       288.9  Rx     18EF1C8F  8  0D 42 18 00 09 00 0F 00 
    84)       307.0  Rx     18EF1C8F  8  0D 50 00 3D 82 CA AB FB 
    85)       307.9  Rx     18EF1C8F  8  0D 51 01 00 19 00 7F 03 
    86)       309.0  Rx     18EF1C8F  8  0D 52 19 00 15 00 10 00 
    87)       318.3  Rx     18EFCD1C  8  A1 01 00 00 14 08 00 00 
    88)       326.3  Rx     18EF1CCD  8  A1 40 14 08 00 00 00 00 
    89)       327.0  Rx     18EF1C8F  8  0D 60 00 5D D0 CA AB FB 
    90)       327.9  Rx     18EF1C8F  8  0D 61 F6 FF 1D 00 82 03 
    91)       328.9  Rx     18EF1C8F  8  0D 62 14 00 03 00 0F 00 
    92)       336.3  Rx     18EF1CCD  8  A2 00 00 00 00 00 00 00 
    93)       337.3  Rx     18EF1CCD  8  A3 00 00 00 00 14 08 14 
    94)       347.0  Rx     18EF1C8F  8  0D 70 00 7D 1E CB AC FB 
    95)       348.0  Rx     18EF1C8F  8  0D 71 FE FF 1A 00 81 03 
    96)       348.9  Rx     18EF1C8F  8  0D 72 16 00 15 00 0E 00 
    97)       367.0  Rx     18EF1C8F  8  0D 80 00 9D 6C CB AB FB 
    98)       367.9  Rx     18EF1C8F  8  0D 81 F5 FF 1F 00 84 03 
    99)       369.0  Rx     18EF1C8F  8  0D 82 17 00 02 00 0D 00 
   100)       387.0  Rx     18EF1C8F  8  0D 90 00 BD BA CB AB FB 
   101)       387.9  Rx     18EF1C8F  8  0D 91 FD FF 1A 00 84 03 
   102)       388.9  Rx     18EF1C8F  8  0D 92 12 00 16 00 0F 00 
   103)       407.0  Rx     18EF1C8F  8  0D A0 00 DD 08 CC AB FB 
   104)       408.0  Rx     18EF1C8F  8  0D A1 F7 FF 22 00 88 03 
   105)       408.9  Rx     18EF1C8F  8  0D A2 15 00 00 00 0F 00 
   106)       418.3  Rx     18EFCD1C  8  A0 00 14 00 00 00 00 00 
   107)       418.9  Rx     18EF1CCD  8  A0 00 14 00 AC 07 00 00 
   108)       426.5  Rx     18EF1CCD  8  A1 40 14 08 00 00 00 00 
   109)       427.0  Rx     18EF1C8F  8  0D B0 00 FD 56 CC AB FB 
   110)       427.9  Rx     18EF1C8F  8  0D B1 FB FF 1C 00 88 03 
   111)       429.0  Rx     18EF1C8F  8  0D B2 17 00 11 00 0E 00 
   112)       436.5  Rx     18EF1CCD  8  A2 00 00 00 00 00 00 00 
   113)       437.5  Rx     18EF1CCD  8  A3 00 00 00 00 14 08 14 
   114)       438.5  Rx     18EFCD1C  8  A0 00 2A 00 00 00 00 00 
   115)       439.2  Rx     18EF1CCD  8  A0 00 2A 00 4A 06 00 00 
   116)       447.0  Rx     18EF1C8F  8  0D C0 00 1D A5 CC AB FB 
   117)       447.9  Rx     18EF1C8F  8  0D C1 F8 FF 1E 00 86 03 
   118)       448.9  Rx     18EF1C8F  8  0D C2 1A 00 FF FF 0E 00 
   119)       458.2  Rx     18EFCD1C  8  A0 00 1B 00 00 00 00 00 
   120)       458.9  Rx     18EF1CCD  8  A0 00 1B 00 BD 00 00 00 
   121)       467.0  Rx     18EF1C8F  8  0D D0 00 3F F3 CC AB FB 
   122)       468.0  Rx     18EF1C8F  8  0D D1 F7 FF 1E 00 87 03 
   123)       468.9  Rx     18EF1C8F  8  0D D2 19 00 0F 00 0D 00 
   124)       478.2  Rx     18EFCD1C  8  A0 00 00 00 00 00 00 00 
   125)       478.9  Rx     18EF1CCD  8  A0 00 00 00 04 00 00 00 
   126)       487.0  Rx     18EF1C8F  8  0D E0 00 5D 41 CD AB FB 
   127)       487.9  Rx     18EF1C8F  8  0D E1 F5 FF 1D 00 83 03 
   128)       488.9  Rx     18EF1C8F  8  0D E2 14 00 FF FF 10 00 
   129)       507.0  Rx     18EF1C8F  8  0D F0 00 7D 8F CD AB FB 
   130)       507.9  Rx     18EF1C8F  8  0D F1 F8 FF 1D 00 89 03 
   131)       508.9  Rx     18EF1C8F  8  0D F2 14 00 0B 00 10 00 
   132)       518.2  Rx     18EFCD1C  8  A1 01 00 00 14 08 00 00 
   133)       526.7  Rx     18EF1CCD  8  A1 40 15 08 00 00 00 00 
   134)       527.2  Rx     18EF1C8F  8  0D 00 00 9F DD CD AB FB 
   135)       528.0  Rx     18EF1C8F  8  0D 01 FC FF 1C 00 83 03 
   136)       528.9  Rx     18EF1C8F  8  0D 02 13 00 01 00 0D 00 
   137)       536.7  Rx     18EF1CCD  8  A2 00 00 00 00 00 00 00 
   138)       537.7  Rx     18EF1CCD  8  A3 00 00 00 00 15 08 14 
   139)       547.0  Rx     18EF1C8F  8  0D 10 00 BD 2B CE AB FB 
   140)       547.9  Rx     18EF1C8F  8  0D 11 F5 FF 20 00 89 03 
   141)       548.9  Rx     18EF1C8F  8  0D 12 1A 00 0B 00 0A 00 
   142)       567.0  Rx     18EF1C8F  8  0D 20 00 DD 79 CE AB FB 
   143)       567.9  Rx     18EF1C8F  8  0D 21 00 00 1C 00 80 03 
   144)       568.9  Rx     18EF1C8F  8  0D 22 1C 00 04 00 11 00 
   145)       587.0  Rx     18EF1C8F  8  0D 30 00 FD C7 CE AB FB 
   146)       587.9  Rx     18EF1C8F  8  0D 31 F7 FF 1D 00 84 03 
   147)       588.9  Rx     18EF1C8F  8  0D 32 1A 00 0A 00 0D 00 
   148)       607.0  Rx     18EF1C8F  8  0D 40 00 1D 16 CF AB FB 
   149)       607.9  Rx     18EF1C8F  8  0D 41 01 00 1B 00 7D 03 
   150)       608.9  Rx     18EF1C8F  8  0D 42 16 00 08 00 0D 00 
   151)       618.2  Rx     18EFCD1C  8  A0 00 14 00 00 00 00 00 
   152)       618.9  Rx     18EF1CCD  8  A0 00 14 00 AC 07 00 00 
   153)       626.9  Rx     18EF1CCD  8  A1 40 15 08 00 00 00 00 
   154)       627.5  Rx     18EF1C8F  8  0D 50 00 3F 64 CF AB FB 
   155)       628.0  Rx     18EF1C8F  8  0D 51 F8 FF 1D 00 85 03 
   156)       628.9  Rx     18EF1C8F  8  0D 52 14 00 07 00 0C 00 
   157)       637.0  Rx     18EF1CCD  8  A2 00 00 00 00 00 00 00 
   158)       637.9  Rx     18EF1CCD  8  A3 00 00 00 00 15 08 14 
   159)       638.5  Rx     18EFCD1C  8  A0 00 2A 00 00 00 00 00 
   160)       639.2  Rx     18EF1CCD  8  A0 00 2A 00 44 06 00 00 
   161)       647.0  Rx     18EF1C8F  8  0D 60 00 5F B2 CF AC FB 
   162)       647.9  Rx     18EF1C8F  8  0D 61 02 00 18 00 7E 03 
   163)       648.9  Rx     18EF1C8F  8  0D 62 16 00 09 00 10 00 
   164)       658.2  Rx     18EFCD1C  8  A0 00 1B 00 00 00 00 00 
   165)       658.8  Rx     18EF1CCD  8  A0 00 1B 00 BD 00 00 00 
   166)       667.0  Rx     18EF1C8F  8  0D 70 00 7D 00 D0 AB FB 
   167)       667.9  Rx     18EF1C8F  8  0D 71 F8 FF 1D 00 8A 03 
   168)       668.9  Rx     18EF1C8F  8  0D 72 14 00 03 00 0E 00 
   169)       678.2  Rx     18EFCD1C  8  A0 00 00 00 00 00 00 00 
   170)       678.8  Rx     18EF1CCD  8  A0 00 00 00 04 00 00 00 
   171)       687.0  Rx     18EF1C8F  8  0D 80 00 9D 4E D0 AC FB 
   172)       687.9  Rx     18EF1C8F  8  0D 81 05 00 18 00 83 03 
   173)       688.9  Rx     18EF1C8F  8  0D 82 15 00 0F 00 0F 00 
   174)       707.0  Rx     18EF1C8F  8  0D 90 00 BD 9C D0 AB FB 
   175)       707.9  Rx     18EF1C8F  8  0D 91 FA FF 1C 00 87 03 
   176)       708.9  Rx     18EF1C8F  8  0D 92 17 00 03 00 0E 00 
   177)       718.2  Rx     18EFCD1C  8  A1 01 00 00 15 08 00 00 
   178)       727.0  Rx     18EF1C8F  8  0D A0 00 DD EA D0 AB FB 
   179)       727.5  Rx     18EF1CCD  8  A1 40 16 08 00 00 00 00 
   180)       728.1  Rx     18EF1C8F  8  0D A1 04 00 16 00 83 03 
   181)       728.9  Rx     18EF1C8F  8  0D A2 15 00 14 00 11 00 
   182)       737.2  Rx     18EF1CCD  8  A2 00 00 00 00 00 00 00 
   183)       738.2  Rx     18EF1CCD  8  A3 00 00 00 00 16 08 15 
   184)       747.0  Rx     18EF1C8F  8  0D B0 00 FF 38 D1 AB FB 
   185)       747.9  Rx     18EF1C8F  8  0D B1 F9 FF 1D 00 87 03 
   186)       748.9  Rx     18EF1C8F  8  0D B2 16 00 04 00 0E 00 
   187)       767.0  Rx     18EF1C8F  8  0D C0 00 1D 87 D1 AB FB 
   188)       767.9  Rx     18EF1C8F  8  0D C1 03 00 18 00 85 03 
   189)       768.9  Rx     18EF1C8F  8  0D C2 15 00 19 00 0F 00 
   190)       787.0  Rx     18EF1C8F  8  0D D0 00 3D D5 D1 AB FB 
   191)       787.9  Rx     18EF1C8F  8  0D D1 FC FF 1D 00 85 03 
   192)       788.9  Rx     18EF1C8F  8  0D D2 15 00 06 00 0F 00 
   193)       807.0  Rx     18EF1C8F  8  0D E0 00 5D 23 D2 AB FB 
   194)       807.9  Rx     18EF1C8F  8  0D E1 00 00 1A 00 83 03 
   195)       808.9  Rx     18EF1C8F  8  0D E2 13 00 16 00 12 00 
   196)       819.2  Rx     18EFCD1C  8  A0 00 14 00 00 00 00 00 
   197)       819.8  Rx     18EF1CCD  8  A0 00 14 00 AD 07 00 00 
   198)       827.0  Rx     18EF1C8F  8  0D F0 00 7D 71 D2 AB FB 
   199)       827.6  Rx     18EF1CCD  8  A1 40 17 08 00 00 00 00 
   200)       828.1  Rx     18EF1C8F  8  0D F1 F8 FF 1C 00 83 03 
   201)       828.9  Rx     18EF1C8F  8  0D F2 14 00 02 00 11 00 
   202)       837.4  Rx     18EF1CCD  8  A2 00 00 00 00 00 00 00 
   203)       838.4  Rx     18EF1CCD  8  A3 00 00 00 00 17 08 15 
   204)       838.9  Rx     18EFCD1C  8  A0 00 2A 00 00 00 00 00 
   205)       839.6  Rx     18EF1CCD  8  A0 00 2A 00 40 06 00 00 
   206)       847.0  Rx     18EF1C8F  8  0D 00 00 9D BF D2 AB FB 
   207)       847.9  Rx     18EF1C8F  8  0D 01 FE FF 1A 00 82 03 
   208)       848.9  Rx     18EF1C8F  8  0D 02 1B 00 17 00 0E 00 
   209)       858.2  Rx     18EFCD1C  8  A0 00 1B 00 00 00 00 00 
   210)       858.8  Rx     18EF1CCD  8  A0 00 1B 00 BD 00 00 00 
   211)       867.0  Rx     18EF1C8F  8  0D 10 00 BF 0D D3 AB FB 
   212)       867.9  Rx     18EF1C8F  8  0D 11 FB FF 1C 00 82 03 
   213)       868.9  Rx     18EF1C8F  8  0D 12 1B 00 02 00 10 00 
   214)       878.2  Rx     18EFCD1C  8  A0 00 00 00 00 00 00 00 
   215)       878.8  Rx     18EF1CCD  8  A0 00 00 00 04 00 00 00 
   216)       887.0  Rx     18EF1C8F  8  0D 20 00 DD 5B D3 AC FB 
   217)       887.9  Rx     18EF1C8F  8  0D 21 F8 FF 18 00 81 03 
   218)       888.9  Rx     18EF1C8F  8  0D 22 1D 00 13 00 13 00 
   219)       907.0  Rx     18EF1C8F  8  0D 30 00 FD A9 D3 AB FB 
   220)       907.9  Rx     18EF1C8F  8  0D 31 FC FF 1D 00 81 03 
   221)       908.9  Rx     18EF1C8F  8  0D 32 16 00 03 00 13 00 
   222)       918.2  Rx     18EFCD1C  8  A1 01 00 00 17 08 00 00 
   223)       927.0  Rx     18EF1C8F  8  0D 40 00 1D F8 D3 AB FB 
   224)       927.6  Rx     18EF1CCD  8  A1 40 17 08 00 00 00 00 
   225)       928.1  Rx     18EF1C8F  8  0D 41 F8 FF 1C 00 83 03 
   226)       928.9  Rx     18EF1C8F  8  0D 42 1C 00 15 00 0F 00 
   227)       937.6  Rx     18EF1CCD  8  A2 00 00 00 00 00 00 00 
   228)       938.6  Rx     18EF1CCD  8  A3 00 00 00 00 17 08 17 
   229)       947.0  Rx     18EF1C8F  8  0D 50 00 3D 46 D4 AC FB 
   230)       947.9  Rx     18EF1C8F  8  0D 51 FD FF 1A 00 80 03 
   231)       948.9  Rx     18EF1C8F  8  0D 52 1C 00 07 00 10 00 
   232)       966.9  Rx     18EF1C8F  8  0D 60 00 5D 94 D4 AB FB 
   233)       967.9  Rx     18EF1C8F  8  0D 61 F4 FF 1C 00 84 03 
   234)       968.9  Rx     18EF1C8F  8  0D 62 18 00 10 00 12 00 
   235)       982.3  Rx     18EF8F1C  4  01 7E 3C 00 
   236)       982.8  Rx     18EF1C8F  4  01 3D 7E 00 
   237)       987.0  Rx     18EF1C8F  8  0D 70 00 7D E2 D4 AB FB 
   238)       987.9  Rx     18EF1C8F  8  0D 71 FD FF 1C 00 80 03 
   239)       988.9  Rx     18EF1C8F  8  0D 72 17 00 0A 00 11 00 
   240)      1007.0  Rx     18EF1C8F  8  0D 80 00 9A 30 D5 AB FB 
   241)      1007.9  Rx     18EF1C8F  8  0D 81 F5 FF 1E 00 88 03 
   242)      1008.9  Rx     18EF1C8F  8  0D 82 17 00 0E 00 0D 00 
   243)      1019.1  Rx     18EFCD1C  8  A0 00 14 00 00 00 00 00 
   244)      1019.8  Rx     18EF1CCD  8  A0 00 14 00 AC 07 00 00 
   245)      1027.0  Rx     18EF1C8F  8  0D 90 00 BF 7E D5 AC FB 
   246)      1027.8  Rx     18EF1CCD  8  A1 40 17 08 00 00 00 00 
   247)      1028.4  Rx     18EF1C8F  8  0D 91 00 00 19 00 80 03 
   248)      1028.9  Rx     18EF1C8F  8  0D 92 15 00 0B 00 0E 00 
   249)      1037.8  Rx     18EF1CCD  8  A2 00 00 00 00 00 00 00 
   250)      1038.8  Rx     18EF1CCD  8  A3 00 00 00 00 17 08 17 
   251)      1039.7  Rx     18EFCD1C  8  A0 00 2A 00 00 00 00 00 
   252)      1040.4  Rx     18EF1CCD  8  A0 00 2A 00 46 06 00 00 
   253)      1047.0  Rx     18EF1C8F  8  0D A0 00 DF CC D5 AB FB 
   254)      1047.9  Rx     18EF1C8F  8  0D A1 F1 FF 1F 00 8B 03 
   255)      1048.9  Rx     18EF1C8F  8  0D A2 16 00 08 00 0E 00 
   256)      1058.2  Rx     18EFCD1C  8  A0 00 1B 00 00 00 00 00 
   257)      1058.9  Rx     18EF1CCD  8  A0 00 1B 00 BD 00 00 00 
   258)      1067.0  Rx     18EF1C8F  8  0D B0 00 FF 1A D6 AB FB 
   259)      1067.9  Rx     18EF1C8F  8  0D B1 02 00 1C 00 82 03 
   260)      1068.9  Rx     18EF1C8F  8  0D B2 16 00 0D 00 11 00 
   261)      1078.2  Rx     18EFCD1C  8  A0 00 00 00 00 00 00 00 
   262)      1078.8  Rx     18EF1CCD  8  A0 00 00 00 04 00 00 00 
   263)      1086.9  Rx     18EF1C8F  8  0D C0 00 1D 69 D6 AC FB 
   264)      1087.9  Rx     18EF1C8F  8  0D C1 F4 FF 20 00 8C 03 
   265)      1088.9  Rx     18EF1C8F  8  0D C2 18 00 07 00 0C 00 
   266)      1107.0  Rx     18EF1C8F  8  0D D0 00 3D B7 D6 AC FB 
   267)      1107.9  Rx     18EF1C8F  8  0D D1 01 00 1A 00 81 03 
   268)      1108.9  Rx     18EF1C8F  8  0D D2 18 00 13 00 11 00 
   269)      1118.2  Rx     18EFCD1C  8  A1 01 00 00 17 08 00 00 
   270)      1127.0  Rx     18EF1C8F  8  0D E0 00 5D 05 D7 AB FB 
   271)      1127.9  Rx     18EF1C8F  8  0D E1 F6 FF 21 00 89 03 
   272)      1128.5  Rx     18EF1CCD  8  A1 40 18 08 00 00 00 00 
   273)      1129.0  Rx     18EF1C8F  8  0D E2 18 00 04 00 10 00 
   274)      1138.0  Rx     18EF1CCD  8  A2 00 00 00 00 00 00 00 
   275)      1139.0  Rx     18EF1CCD  8  A3 00 00 00 00 18 08 17 
   276)      1139.6  Rx     18FEF31C  8  3A 2D 80 99 8E B9 2C 89 
   277)      1140.1  Rx     18FEE81C  8  F9 2D 15 00 00 00 29 51 
   278)      1140.7  Rx     18FEE61C  8  67 31 0C 09 57 29 00 00 
   279)      1141.3  Rx     19F8021C  8  14 FC B0 3E 00 00 FF FF 
   280)      1145.1  Rx     19F8051C  8  20 2F 14 EE 50 A9 58 84 
   281)      1145.6  Rx     19F8051C  8  21 1B C0 9F 89 2A C7 A7 
   282)      1146.2  Rx     19F8051C  8  22 98 06 E0 65 4E 1A 09 
   283)      1146.7  Rx     19F8051C  8  23 8D CB 02 57 3A 3B 08 
   284)      1147.3  Rx     18EF1C8F  8  0D F0 00 82 53 D7 AB FB 
   285)      1147.8  Rx     19F8051C  8  24 00 00 00 00 40 00 0D 
   286)      1148.4  Rx     18EF1C8F  8  0D F1 00 00 1D 00 82 03 
   287)      1149.0  Rx     18EF1C8F  8  0D F2 19 00 14 00 0D 00 
   288)      1149.5  Rx     19F8051C  8  25 50 00 88 00 FC 0F 00 
   289)      1150.1  Rx     19F8051C  8  26 00 01 AF 02 BC 02 FF 
   290)      1167.0  Rx     18EF1C8F  8  0D 00 00 9F A1 D7 AB FB 
   291)      1167.9  Rx     18EF1C8F  8  0D 01 F5 FF 1F 00 87 03 
   292)      1168.9  Rx     18EF1C8F  8  0D 02 16 00 03 00 0D 00 
   293)      1187.0  Rx     18EF1C8F  8  0D 10 00 BD EF D7 AC FB 
   294)      1187.9  Rx     18EF1C8F  8  0D 11 00 00 1A 00 82 03 
   295)      1188.9  Rx     18EF1C8F  8  0D 12 17 00 16 00 0F 00 
   296)      1206.9  Rx     18EF1C8F  8  0D 20 00 DD 3D D8 AC FB 
   297)      1207.9  Rx     18EF1C8F  8  0D 21 FA FF 21 00 86 03 
   298)      1208.9  Rx     18EF1C8F  8  0D 22 17 00 FF FF 11 00 
   299)      1218.5  Rx     18EFCD1C  8  A0 00 14 00 00 00 00 00 
   300)      1219.1  Rx     18EF1CCD  8  A0 00 14 00 AD 07 00 00 
   301)      1227.0  Rx     18EF1C8F  8  0D 30 00 FD 8B D8 AB FB 
   302)      1227.9  Rx     18EF1C8F  8  0D 31 00 00 19 00 81 03 
   303)      1228.5  Rx     18EF1CCD  8  A1 40 18 08 00 00 00 00 
   304)      1229.0  Rx     18EF1C8F  8  0D 32 1B 00 11 00 11 00 
   305)      1238.3  Rx     18EF1CCD  8  A2 00 00 00 00 00 00 00 
   306)      1239.2  Rx     18EFCD1C  8  A0 00 2A 00 00 00 00 00 
   307)      1239.8  Rx     18EF1CCD  8  A3 00 00 00 00 18 08 17 
   308)      1240.4  Rx     18EF1CCD  8  A0 00 2A 00 4A 06 00 00 
   309)      1247.0  Rx     18EF1C8F  8  0D 40 00 1F DA D8 AB FB 
   310)      1247.9  Rx     18EF1C8F  8  0D 41 F9 FF 22 00 82 03 
   311)      1248.9  Rx     18EF1C8F  8  0D 42 17 00 FF FF 0F 00 
   312)      1258.2  Rx     18EFCD1C  8  A0 00 1B 00 00 00 00 00 
   313)      1258.9  Rx     18EF1CCD  8  A0 00 1B 00 BD 00 00 00 
   314)      1267.0  Rx     18EF1C8F  8  0D 50 00 3D 28 D9 AC FB 
   315)      1267.9  Rx     18EF1C8F  8  0D 51 FC FF 1E 00 83 03 
   316)      1268.9  Rx     18EF1C8F  8  0D 52 16 00 11 00 11 00 
   317)      1278.3  Rx     18EFCD1C  8  A0 00 00 00 00 00 00 00 
   318)      1278.9  Rx     18EF1CCD  8  A0 00 00 00 04 00 00 00 
   319)      1287.0  Rx     18EF1C8F  8  0D 60 00 5D 76 D9 AC FB 
   320)      1287.9  Rx     18EF1C8F  8  0D 61 FD FF 1D 00 82 03 
   321)      1288.9  Rx     18EF1C8F  8  0D 62 17 00 FF FF 12 00 
   322)      1307.0  Rx     18EF1C8F  8  0D 70 00 7D C4 D9 AB FB 
   323)      1307.9  Rx     18EF1C8F  8  0D 71 FB FF 1F 00 86 03 
   324)      1308.9  Rx     18EF1C8F  8  0D 72 16 00 0E 00 10 00 
   325)      1318.2  Rx     18EFCD1C  8  A1 01 00 00 18 08 00 00 
   326)      1327.0  Rx     18EF1C8F  8  0D 80 00 9F 12 DA AC FB 
   327)      1327.9  Rx     18EF1C8F  8  0D 81 FC FF 1C 00 7F 03 
   328)      1328.5  Rx     18EF1CCD  8  A1 40 18 08 00 00 00 00 
   329)      1329.1  Rx     18EF1C8F  8  0D 82 15 00 04 00 11 00 
   330)      1338.5  Rx     18EF1CCD  8  A2 00 00 00 00 00 00 00 
   331)      1339.5  Rx     18EF1CCD  8  A3 00 00 00 00 18 08 18 
   332)      1347.0  Rx     18EF1C8F  8  0D 90 00 BA 60 DA AB FB 
   333)      1347.9  Rx     18EF1C8F  8  0D 91 F8 FF 20 00 87 03 
   334)      1348.9  Rx     18EF1C8F  8  0D 92 19 00 0D 00 0F 00 
   335)      1367.0  Rx     18EF1C8F  8  0D A0 00 DD AE DA AB FB 
   336)      1367.9  Rx     18EF1C8F  8  0D A1 FF FF 1A 00 80 03 
   337)      1368.9  Rx     18EF1C8F  8  0D A2 17 00 08 00 11 00 
   338)      1387.0  Rx     18EF1C8F  8  0D B0 00 FD FC DA AB FB 
   339)      1387.9  Rx     18EF1C8F  8  0D B1 F5 FF 1F 00 88 03 
   340)      1388.9  Rx     18EF1C8F  8  0D B2 15 00 0A 00 0F 00 
   341)      1407.0  Rx     18EF1C8F  8  0D C0 00 1D 4B DB AC FB 
   342)      1407.9  Rx     18EF1C8F  8  0D C1 01 00 1C 00 7F 03 
   343)      1408.9  Rx     18EF1C8F  8  0D C2 17 00 0D 00 0E 00 
   344)      1418.3  Rx     18EFCD1C  8  A0 00 14 00 00 00 00 00 
   345)      1418.9  Rx     18EF1CCD  8  A0 00 14 00 AC 07 00 00 
   346)      1427.0  Rx     18EF1C8F  8  0D D0 00 3D 99 DB AB FB 
   347)      1427.9  Rx     18EF1C8F  8  0D D1 F4 FF 1D 00 89 03 
   348)      1428.7  Rx     18EF1CCD  8  A1 40 18 08 00 00 00 00 
   349)      1429.3  Rx     18EF1C8F  8  0D D2 16 00 0B 00 0E 00 
   350)      1438.7  Rx     18EF1CCD  8  A2 00 00 00 00 00 00 00 
   351)      1439.3  Rx     18EFCD1C  8  A0 00 2A 00 00 00 00 00 
   352)      1439.9  Rx     18EF1CCD  8  A3 00 00 00 00 18 08 18 
   353)      1440.8  Rx     18EF1CCD  8  A0 00 2A 00 47 06 00 00 
   354)      1447.0  Rx     18EF1C8F  8  0D E0 00 62 E7 DB AB FB 
   355)      1447.9  Rx     18EF1C8F  8  0D E1 04 00 1A 00 82 03 
   356)      1448.9  Rx     18EF1C8F  8  0D E2 17 00 11 00 0D 00 
   357)      1459.1  Rx     18EFCD1C  8  A0 00 1B 00 00 00 00 00 
   358)      1459.8  Rx     18EF1CCD  8  A0 00 1B 00 BD 00 00 00 
   359)      1467.0  Rx     18EF1C8F  8  0D F0 00 7D 35 DC AC FB 
   360)      1467.9  Rx     18EF1C8F  8  0D F1 F6 FF 1F 00 8B 03 
   361)      1468.9  Rx     18EF1C8F  8  0D F2 16 00 09 00 0D 00 
   362)      1478.2  Rx     18EFCD1C  8  A0 00 00 00 00 00 00 00 
   363)      1478.9  Rx     18EF1CCD  8  A0 00 00 00 04 00 00 00 
   364)      1487.0  Rx     18EF1C8F  8  0D 00 00 9F 83 DC AC FB 
   365)      1487.9  Rx     18EF1C8F  8  0D 01 02 00 1B 00 83 03 
   366)      1488.9  Rx     18EF1C8F  8  0D 02 1B 00 18 00 0D 00 
   367)      1507.0  Rx     18EF1C8F  8  0D 10 00 BA D1 DC AC FB 
   368)      1507.9  Rx     18EF1C8F  8  0D 11 F7 FF 1C 00 88 03 
   369)      1508.9  Rx     18EF1C8F  8  0D 12 16 00 08 00 0A 00 
   370)      1518.2  Rx     18EFCD1C  8  A1 01 00 00 18 08 00 00 
   371)      1527.0  Rx     18EF1C8F  8  0D 20 00 DD 1F DD AC FB 
   372)      1527.9  Rx     18EF1C8F  8  0D 21 04 00 1A 00 84 03 
   373)      1528.9  Rx     18EF1C8F  8  0D 22 17 00 19 00 0C 00 
   374)      1529.5  Rx     18EF1CCD  8  A1 40 18 08 00 00 00 00 
   375)      1539.0  Rx     18EF1CCD  8  A2 00 00 00 00 00 00 00 
   376)      1540.0  Rx     18EF1CCD  8  A3 00 00 00 00 18 08 18 
   377)      1547.0  Rx     18EF1C8F  8  0D 30 00 FF 6D DD AC FB 
   378)      1547.9  Rx     18EF1C8F  8  0D 31 F8 FF 1F 00 84 03 
   379)      1548.9  Rx     18EF1C8F  8  0D 32 19 00 03 00 0E 00 
   380)      1567.0  Rx     18EF1C8F  8  0D 40 00 1D BC DD AC FB 
   381)      1567.9  Rx     18EF1C8F  8  0D 41 01 00 1B 00 81 03 
   382)      1568.9  Rx     18EF1C8F  8  0D 42 1A 00 18 00 0C 00 
   383)      1587.0  Rx     18EF1C8F  8  0D 50 00 3D 0A DE AB FB 
   384)      1587.9  Rx     18EF1C8F  8  0D 51 F9 FF 26 00 81 03 
   385)      1588.9  Rx     18EF1C8F  8  0D 52 1E 00 04 00 0A 00 
   386)      1607.0  Rx     18EF1C8F  8  0D 60 00 5D 58 DE AC FB 
   387)      1607.9  Rx     18EF1C8F  8  0D 61 FF FF 23 00 7E 03 
   388)      1608.9  Rx     18EF1C8F  8  0D 62 23 00 14 00 0C 00 
   389)      1618.2  Rx     18EFCD1C  8  A0 00 14 00 00 00 00 00 
   390)      1618.8  Rx     18EF1CCD  8  A0 00 14 00 AD 07 00 00 
   391)      1627.0  Rx     18EF1C8F  8  0D 70 00 7D A6 DE AC FB 
   392)      1627.9  Rx     18EF1C8F  8  0D 71 F9 FF 2A 00 7D 03 
   393)      1628.9  Rx     18EF1C8F  8  0D 72 25 00 01 00 12 00 
   394)      1629.5  Rx     18EF1CCD  8  A1 40 18 08 00 00 00 00 
   395)      1638.2  Rx     18EFCD1C  8  A0 00 2A 00 00 00 00 00 
   396)      1638.9  Rx     18EF1CCD  8  A0 00 2A 00 3F 06 00 00 
   397)      1639.4  Rx     18EF1CCD  8  A2 00 00 00 00 00 00 00 
   398)      1640.2  Rx     18EF1CCD  8  A3 00 00 00 00 18 08 18 
   399)      1647.0  Rx     18EF1C8F  8  0D 80 00 9F F4 DE AC FB 
   400)      1647.9  Rx     18EF1C8F  8  0D 81 FB FF 2C 00 82 03 
   401)      1648.9  Rx     18EF1C8F  8  0D 82 2B 00 13 00 13 00 
   402)      1659.0  Rx     18EFCD1C  8  A0 00 1B 00 00 00 00 00 
   403)      1659.6  Rx     18EF1CCD  8  A0 00 1B 00 BD 00 00 00 
   404)      1667.0  Rx     18EF1C8F  8  0D 90 00 BF 42 DF AC FB 
   405)      1667.9  Rx     18EF1C8F  8  0D 91 F5 FF 2D 00 7A 03 
   406)      1668.9  Rx     18EF1C8F  8  0D 92 2D 00 05 00 11 00 
   407)      1679.0  Rx     18EFCD1C  8  A0 00 00 00 00 00 00 00 
   408)      1679.6  Rx     18EF1CCD  8  A0 00 00 00 04 00 00 00 
   409)      1687.0  Rx     18EF1C8F  8  0D A0 00 DD 90 DF AC FB 
   410)      1687.9  Rx     18EF1C8F  8  0D A1 F7 FF 34 00 84 03 
   411)      1688.9  Rx     18EF1C8F  8  0D A2 32 00 0C 00 0C 00 
   412)      1707.0  Rx     18EF1C8F  8  0D B0 00 FD DE DF AC FB 
   413)      1707.9  Rx     18EF1C8F  8  0D B1 FA FF 39 00 7F 03 
   414)      1708.9  Rx     18EF1C8F  8  0D B2 35 00 08 00 0F 00 
   415)      1718.2  Rx     18EFCD1C  8  A1 01 00 00 18 08 00 00 
   416)      1727.0  Rx     18EF1C8F  8  0D C0 00 1D 2D E0 AC FB 
   417)      1727.9  Rx     18EF1C8F  8  0D C1 F2 FF 41 00 85 03 
   418)      1728.9  Rx     18EF1C8F  8  0D C2 3B 00 08 00 0B 00 
   419)      1729.5  Rx     18EF1CCD  8  A1 40 18 08 00 00 00 00 
   420)      1739.4  Rx     18EF1CCD  8  A2 00 00 00 00 00 00 00 
   421)      1740.4  Rx     18EF1CCD  8  A3 00 00 00 00 18 08 18 
   422)      1747.0  Rx     18EF1C8F  8  0D D0 00 3D 7B E0 AC FB 
   423)      1747.9  Rx     18EF1C8F  8  0D D1 FF FF 40 00 7E 03 
   424)      1748.9  Rx     18EF1C8F  8  0D D2 3F 00 0E 00 0B 00 
   425)      1767.0  Rx     18EF1C8F  8  0D E0 00 5D C9 E0 AC FB 
   426)      1767.9  Rx     18EF1C8F  8  0D E1 F4 FF 48 00 86 03 
   427)      1768.9  Rx     18EF1C8F  8  0D E2 40 00 03 00 09 00 
   428)      1787.0  Rx     18EF1C8F  8  0D F0 00 7D 17 E1 AC FB 
   429)      1787.9  Rx     18EF1C8F  8  0D F1 FF FF 4A 00 81 03 
   430)      1788.9  Rx     18EF1C8F  8  0D F2 40 00 0F 00 0A 00 
   431)      1807.0  Rx     18EF1C8F  8  0D 00 00 9D 65 E1 AB FB 
   432)      1807.9  Rx     18EF1C8F  8  0D 01 F5 FF 57 00 8B 03 
   433)      1808.9  Rx     18EF1C8F  8  0D 02 42 00 FB FF 05 00 
   434)      1818.2  Rx     18EFCD1C  8  A0 00 14 00 00 00 00 00 
   435)      1818.8  Rx     18EF1CCD  8  A0 00 14 00 AC 07 00 00 
   436)      1827.0  Rx     18EF1C8F  8  0D 10 00 BD B3 E1 AB FB 
   437)      1827.9  Rx     18EF1C8F  8  0D 11 00 00 52 00 86 03 
   438)      1828.9  Rx     18EF1C8F  8  0D 12 44 00 10 00 04 00 
   439)      1829.6  Rx     18EF1CCD  8  A1 40 18 08 00 00 00 00 
   440)      1838.2  Rx     18EFCD1C  8  A0 00 2A 00 00 00 00 00 
   441)      1838.6  Rx     18EFCD1C  4  01 88 2D 00 
   442)      1839.2  Rx     18EF1CCD  8  A0 00 2A 00 40 06 00 00 
   443)      1839.7  Rx     18EF1CCD  8  A2 00 00 00 00 00 00 00 
   444)      1840.6  Rx     18EF1CCD  8  A3 00 00 00 00 18 08 18 
   445)      1841.5  Rx     18EF1CCD  4  01 2E 88 00 
   446)      1847.0  Rx     18EF1C8F  8  0D 20 00 DF 01 E2 AB FB 
   447)      1847.9  Rx     18EF1C8F  8  0D 21 F4 FF 53 00 8A 03 
   448)      1848.9  Rx     18EF1C8F  8  0D 22 39 00 F3 FF 03 00 
   449)      1858.1  Rx     18EFCD1C  8  A0 00 1B 00 00 00 00 00 
   450)      1858.8  Rx     18EF1CCD  8  A0 00 1B 00 BD 00 00 00 
   451)      1867.0  Rx     18EF1C8F  8  0D 30 00 FF 4F E2 AC FB 
   452)      1867.9  Rx     18EF1C8F  8  0D 31 00 00 56 00 8E 03 
   453)      1868.9  Rx     18EF1C8F  8  0D 32 38 00 03 00 FA FF 
   454)      1879.0  Rx     18EFCD1C  8  A0 00 00 00 00 00 00 00 
   455)      1879.7  Rx     18EF1CCD  8  A0 00 00 00 04 00 00 00 
   456)      1887.0  Rx     18EF1C8F  8  0D 40 00 1F 9E E2 AC FB 
   457)      1887.9  Rx     18EF1C8F  8  0D 41 F5 FF 55 00 8C 03 
   458)      1888.9  Rx     18EF1C8F  8  0D 42 33 00 F5 FF F7 FF 
   459)      1906.9  Rx     18EF1C8F  8  0D 50 00 3D EC E2 AC FB 
   460)      1907.9  Rx     18EF1C8F  8  0D 51 FC FF 50 00 91 03 
   461)      1908.9  Rx     18EF1C8F  8  0D 52 2B 00 FB FF F2 FF 
   462)      1918.1  Rx     18EFCD1C  8  A1 01 00 00 18 08 00 00 
   463)      1927.0  Rx     18EF1C8F  8  0D 60 00 5F 3A E3 AC FB 
   464)      1927.9  Rx     18EF1C8F  8  0D 61 F9 FF 4B 00 83 03 
   465)      1928.9  Rx     18EF1C8F  8  0D 62 22 00 00 00 EF FF 
   466)      1929.8  Rx     18EF1CCD  8  A1 40 18 08 00 00 00 00 
   467)      1939.8  Rx     18EF1CCD  8  A2 00 00 00 00 00 00 00 
   468)      1940.8  Rx     18EF1CCD  8  A3 00 00 00 00 18 08 18 
   469)      1947.0  Rx     18EF1C8F  8  0D 70 00 7F 88 E3 AC FB 
   470)      1947.8  Rx     18EF1C8F  8  0D 71 FE FF 4B 00 8A 03 
   471)      1948.9  Rx     18EF1C8F  8  0D 72 17 00 FB FF E5 FF 
   472)      1966.9  Rx     18EF1C8F  8  0D 80 00 9D D6 E3 AC FB 
   473)      1967.9  Rx     18EF1C8F  8  0D 81 FF FF 49 00 84 03 
   474)      1968.9  Rx     18EF1C8F  8  0D 82 11 00 0B 00 E3 FF 
   475)      1986.9  Rx     18EF1C8F  8  0D 90 00 BD 24 E4 AC FB 
   476)      1987.9  Rx     18EF1C8F  8  0D 91 FF FF 50 00 83 03 
   477)      1988.9  Rx     18EF1C8F  8  0D 92 10 00 FA FF DE FF 
   478)      2006.9  Rx     18EF1C8F  8  0D A0 00 DF 72 E4 AC FB 
   479)      2007.8  Rx     18EF1C8F  8  0D A1 08 00 4C 00 77 03 
   480)      2008.9  Rx     18EF1C8F  8  0D A2 1A 00 12 00 D7 FF 
   481)      2018.1  Rx     18EFCD1C  8  A0 00 14 00 00 00 00 00 
   482)      2018.8  Rx     18EF1CCD  8  A0 00 14 00 AD 07 00 00 
   483)      2026.9  Rx     18EF1C8F  8  0D B0 00 FF C0 E4 AC FB 
   484)      2027.8  Rx     18EF1C8F  8  0D B1 FD FF 4F 00 74 03 
   485)      2028.9  Rx     18EF1C8F  8  0D B2 0F 00 FC FF D6 FF 
   486)      2030.0  Rx     18EF1CCD  8  A1 40 18 08 00 00 00 00 
   487)      2038.1  Rx     18EFCD1C  8  A0 00 2A 00 00 00 00 00 
   488)      2038.8  Rx     18EF1CCD  8  A0 00 2A 00 47 06 00 00 
   489)      2040.0  Rx     18EF1CCD  8  A2 00 00 00 00 00 00 00 
   490)      2041.0  Rx     18EF1CCD  8  A3 00 00 00 00 18 08 18 
   491)      2046.9  Rx     18EF1C8F  8  0D C0 00 1F 0F E5 AC FB 
   492)      2047.9  Rx     18EF1C8F  8  0D C1 08 00 51 00 76 03 
   493)      2048.8  Rx     18EF1C8F  8  0D C2 1C 00 0E 00 D1 FF 
   494)      2058.1  Rx     18EFCD1C  8  A0 00 1B 00 00 00 00 00 
   495)      2058.7  Rx     18EF1CCD  8  A0 00 1B 00 BD 00 00 00 
   496)      2066.9  Rx     18EF1C8F  8  0D D0 00 3F 5D E5 AB FB 
   497)      2067.8  Rx     18EF1C8F  8  0D D1 FD FF 53 00 76 03 
   498)      2068.9  Rx     18EF1C8F  8  0D D2 20 00 06 00 CF FF 
   499)      2078.1  Rx     18EFCD1C  8  A0 00 00 00 00 00 00 00 
   500)      2078.8  Rx     18EF1CCD  8  A0 00 00 00 04 00 00 00 
   501)      2086.9  Rx     18EF1C8F  8  0D E0 00 5F AB E5 AC FB 
   502)      2087.8  Rx     18EF1C8F  8  0D E1 03 00 4B 00 79 03 
   503)      2088.9  Rx     18EF1C8F  8  0D E2 1F 00 0C 00 CB FF 
   504)      2106.9  Rx     18EF1C8F  8  0D F0 00 7F F9 E5 AC FB 
   505)      2107.9  Rx     18EF1C8F  8  0D F1 07 00 47 00 7D 03 
   506)      2108.8  Rx     18EF1C8F  8  0D F2 18 00 14 00 C9 FF 
   507)      2119.0  Rx     18EFCD1C  8  A1 01 00 00 18 08 00 00 
   508)      2126.9  Rx     18EF1C8F  8  0D 00 00 9D 47 E6 AC FB 
   509)      2127.8  Rx     18EF1C8F  8  0D 01 02 00 4A 00 7F 03 
   510)      2128.8  Rx     18EF1C8F  8  0D 02 15 00 06 00 C4 FF 
   511)      2130.2  Rx     18EF1CCD  8  A1 40 18 08 00 00 00 00 
   512)      2140.1  Rx     18FEF31C  8  3A 2D 80 99 8B B9 2C 89 
   513)      2140.7  Rx     18EF1CCD  8  A2 00 00 00 00 00 00 00 
   514)      2141.3  Rx     18EF1CCD  8  A3 00 00 00 00 18 08 18 
   515)      2141.8  Rx     18FEE81C  8  F9 2D 2B 00 00 00 29 51 
   516)      2142.4  Rx     18FEE61C  8  6B 31 0C 09 57 29 00 00 
   517)      2143.0  Rx     19F8021C  8  19 FC B0 3E 04 00 FF FF 
   518)      2145.1  Rx     19F8051C  8  40 2F 19 EE 50 B9 7F 84 
   519)      2145.7  Rx     19F8051C  8  41 1B 00 20 44 2D C7 A7 
   520)      2146.3  Rx     19F8051C  8  42 98 06 20 25 17 60 08 
   521)      2146.8  Rx     19F8051C  8  43 8D CB 02 E3 35 3B 08 
   522)      2147.4  Rx     18EF1C8F  8  0D 10 00 C4 95 E6 AC FB 
   523)      2147.9  Rx     18EF1C8F  8  0D 11 0C 00 42 00 81 03 
   524)      2148.5  Rx     19F8051C  8  44 00 00 00 00 40 00 0D 
   525)      2149.0  Rx     18EF1C8F  8  0D 12 0F 00 1D 00 C2 FF 
   526)      2149.6  Rx     19F8051C  8  45 50 00 88 00 FC 0F 00 
   527)      2150.2  Rx     19F8051C  8  46 00 01 AF 02 20 03 FF 
   528)      2166.9  Rx     18EF1C8F  8  0D 20 00 DD E3 E6 AC FB 
   529)      2167.8  Rx     18EF1C8F  8  0D 21 02 00 4E 00 81 03 
   530)      2168.8  Rx     18EF1C8F  8  0D 22 0A 00 08 00 BF FF 
   531)      2186.9  Rx     18EF1C8F  8  0D 30 00 FD 31 E7 AC FB 
   532)      2187.8  Rx     18EF1C8F  8  0D 31 0C 00 4E 00 82 03 
   533)      2188.8  Rx     18EF1C8F  8  0D 32 0A 00 23 00 BD FF 
   534)      2206.9  Rx     18EF1C8F  8  0D 40 00 1D 80 E7 AC FB 
   535)      2207.8  Rx     18EF1C8F  8  0D 41 00 00 55 00 80 03 
   536)      2208.8  Rx     18EF1C8F  8  0D 42 0F 00 15 00 BE FF 
   537)      2218.1  Rx     18EFCD1C  8  A0 00 14 00 00 00 00 00 
   538)      2218.7  Rx     18EF1CCD  8  A0 00 14 00 AD 07 00 00 
   539)      2226.9  Rx     18EF1C8F  8  0D 50 00 3F CE E7 AC FB 
   540)      2227.8  Rx     18EF1C8F  8  0D 51 07 00 58 00 86 03 
   541)      2228.8  Rx     18EF1C8F  8  0D 52 16 00 29 00 BB FF 
   542)      2230.5  Rx     18EF1CCD  8  A1 40 18 08 00 00 00 00 
   543)      2238.1  Rx     18EFCD1C  8  A0 00 2A 00 00 00 00 00 
   544)      2238.7  Rx     18EF1CCD  8  A0 00 2A 00 40 06 00 00 
   545)      2240.5  Rx     18EF1CCD  8  A2 00 00 00 00 00 00 00 
   546)      2241.5  Rx     18EF1CCD  8  A3 00 00 00 00 18 08 18 
   547)      2246.9  Rx     18EF1C8F  8  0D 60 00 5D 1C E8 AC FB 
   548)      2247.8  Rx     18EF1C8F  8  0D 61 00 00 5D 00 87 03 
   549)      2248.9  Rx     18EF1C8F  8  0D 62 1F 00 30 00 BF FF 
   550)      2261.3  Rx     18EFCD1C  8  A0 00 1B 00 00 00 00 00 
   551)      2262.0  Rx     18EF1CCD  8  A0 00 1B 00 BD 00 00 00 
   552)      2266.9  Rx     18EF1C8F  8  0D 70 00 7F 6A E8 AC FB 
   553)      2267.8  Rx     18EF1C8F  8  0D 71 04 00 4E 00 88 03 
   554)      2268.8  Rx     18EF1C8F  8  0D 72 28 00 37 00 BA FF 
   555)      2278.1  Rx     18EFCD1C  8  A0 00 00 00 00 00 00 00 
   556)      2278.7  Rx     18EF1CCD  8  A0 00 00 00 04 00 00 00 
   557)      2286.9  Rx     18EF1C8F  8  0D 80 00 9D B8 E8 AC FB 
   558)      2287.8  Rx     18EF1C8F  8  0D 81 03 00 42 00 88 03 
   559)      2288.8  Rx     18EF1C8F  8  0D 82 21 00 3F 00 BE FF 
   560)      2306.9  Rx     18EF1C8F  8  0D 90 00 BD 06 E9 AC FB 
   561)      2307.8  Rx     18EF1C8F  8  0D 91 FC FF 44 00 90 03 
   562)      2308.8  Rx     18EF1C8F  8  0D 92 20 00 23 00 BD FF 
   563)      2319.6  Rx     18EFCD1C  8  A1 01 00 00 18 08 00 00 
   564)      2326.9  Rx     18EF1C8F  8  0D A0 00 DD 54 E9 AC FB 
   565)      2327.8  Rx     18EF1C8F  8  0D A1 06 00 39 00 8E 03 
   566)      2328.8  Rx     18EF1C8F  8  0D A2 1C 00 37 00 BA FF 
   567)      2330.6  Rx     18EF1CCD  8  A1 40 18 08 00 00 00 00 
   568)      2340.7  Rx     18EF1CCD  8  A2 00 00 00 00 00 00 00 
   569)      2341.7  Rx     18EF1CCD  8  A3 00 00 00 00 18 08 18 
   570)      2346.9  Rx     18EF1C8F  8  0D B0 00 FF A2 E9 AC FB 
   571)      2347.8  Rx     18EF1C8F  8  0D B1 F7 FF 3E 00 86 03 
   572)      2348.8  Rx     18EF1C8F  8  0D B2 1B 00 15 00 BB FF 
   573)      2366.9  Rx     18EF1C8F  8  0D C0 00 1D F1 E9 AC FB 
   574)      2367.8  Rx     18EF1C8F  8  0D C1 FF FF 43 00 82 03 
   575)      2368.8  Rx     18EF1C8F  8  0D C2 1B 00 26 00 BA FF 
   576)      2386.9  Rx     18EF1C8F  8  0D D0 00 3D 3F EA AC FB 
   577)      2387.8  Rx     18EF1C8F  8  0D D1 EB FF 46 00 7E 03 
   578)      2388.8  Rx     18EF1C8F  8  0D D2 1B 00 18 00 BB FF 
   579)      2406.9  Rx     18EF1C8F  8  0D E0 00 5D 8D EA AC FB 
   580)      2407.8  Rx     18EF1C8F  8  0D E1 F1 FF 47 00 85 03 
   581)      2408.8  Rx     18EF1C8F  8  0D E2 1E 00 27 00 BD FF 
   582)      2418.1  Rx     18EFCD1C  8  A0 00 14 00 00 00 00 00 
   583)      2418.7  Rx     18EF1CCD  8  A0 00 14 00 AD 07 00 00 
   584)      2426.9  Rx     18EF1C8F  8  0D F0 00 7F DB EA AC FB 
   585)      2427.8  Rx     18EF1C8F  8  0D F1 E9 FF 45 00 83 03 
   586)      2428.8  Rx     18EF1C8F  8  0D F2 1B 00 2F 00 BD FF 
   587)      2430.9  Rx     18EF1CCD  8  A1 40 18 08 00 00 00 00 
   588)      2438.1  Rx     18EFCD1C  8  A0 00 2A 00 00 00 00 00 
   589)      2438.7  Rx     18EF1CCD  8  A0 00 2A 00 47 06 00 00 
   590)      2440.9  Rx     18EF1CCD  8  A2 00 00 00 00 00 00 00 
   591)      2441.9  Rx     18EF1CCD  8  A3 00 00 00 00 18 08 18 
   592)      2446.9  Rx     18EF1C8F  8  0D 00 00 9F 29 EB AC FB 
   593)      2447.8  Rx     18EF1C8F  8  0D 01 EC FF 39 00 8E 03 
   594)      2448.8  Rx     18EF1C8F  8  0D 02 15 00 29 00 B5 FF 
   595)      2458.1  Rx     18EFCD1C  8  A0 00 1B 00 00 00 00 00 
   596)      2458.7  Rx     18EF1CCD  8  A0 00 1B 00 BD 00 00 00 
   597)      2466.9  Rx     18EF1C8F  8  0D 10 00 BF 77 EB AB FB 
   598)      2467.8  Rx     18EF1C8F  8  0D 11 EC FF 2C 00 8A 03 
   599)      2468.8  Rx     18EF1C8F  8  0D 12 02 00 35 00 B8 FF 
   600)      2478.0  Rx     18EFCD1C  8  A0 00 00 00 00 00 00 00 
   601)      2478.7  Rx     18EF1CCD  8  A0 00 00 00 04 00 00 00 
   602)      2486.8  Rx     18EF1C8F  8  0D 20 00 DD C5 EB AB FB 
   603)      2487.8  Rx     18EF1C8F  8  0D 21 DF FF 2F 00 8F 03 
   604)      2488.8  Rx     18EF1C8F  8  0D 22 F8 FF 13 00 B2 FF 
   605)      2506.9  Rx     18EF1C8F  8  0D 30 00 FF 13 EC AC FB 
   606)      2507.8  Rx     18EF1C8F  8  0D 31 ED FF 23 00 86 03 
   607)      2508.8  Rx     18EF1C8F  8  0D 32 E9 FF 1C 00 A9 FF 
   608)      2518.5  Rx     18EFCD1C  8  A1 01 00 00 18 08 00 00 
   609)      2526.9  Rx     18EF1C8F  8  0D 40 00 1D 62 EC AC FB 
   610)      2527.8  Rx     18EF1C8F  8  0D 41 DA FF 2E 00 81 03 
   611)      2528.8  Rx     18EF1C8F  8  0D 42 EC FF F7 FF A0 FF 
   612)      2531.1  Rx     18EF1CCD  8  A1 40 18 08 00 00 00 00 
   613)      2541.1  Rx     18EF1CCD  8  A2 00 00 00 00 00 00 00 
   614)      2542.1  Rx     18EF1CCD  8  A3 00 00 00 00 18 08 18 
   615)      2546.8  Rx     18EF1C8F  8  0D 50 00 3F B0 EC AB FB 
   616)      2547.7  Rx     18EF1C8F  8  0D 51 E8 FF 35 00 6F 03 
   617)      2548.8  Rx     18EF1C8F  8  0D 52 EE FF F9 FF 9C FF 
   618)      2566.8  Rx     18EF1C8F  8  0D 60 00 5F FE EC AC FB 
   619)      2567.8  Rx     18EF1C8F  8  0D 61 D8 FF 3F 00 65 03 
   620)      2568.7  Rx     18EF1C8F  8  0D 62 F9 FF DD FF 93 FF 
   621)      2586.8  Rx     18EF1C8F  8  0D 70 00 7D 4C ED AC FB 
   622)      2587.8  Rx     18EF1C8F  8  0D 71 EA FF 43 00 6B 03 
   623)      2588.7  Rx     18EF1C8F  8  0D 72 04 00 DF FF 88 FF 
   624)      2606.8  Rx     18EF1C8F  8  0D 80 00 9F 9A ED AC FB 
   625)      2607.7  Rx     18EF1C8F  8  0D 81 E8 FF 46 00 73 03 
   626)      2608.8  Rx     18EF1C8F  8  0D 82 18 00 D5 FF 81 FF 
   627)      2618.0  Rx     18EFCD1C  8  A0 00 14 00 00 00 00 00 
   628)      2618.6  Rx     18EF1CCD  8  A0 00 14 00 AE 07 00 00 
   629)      2626.8  Rx     18EF1C8F  8  0D 90 00 BD E8 ED AC FB 
   630)      2627.7  Rx     18EF1C8F  8  0D 91 EE FF 3D 00 7E 03 
   631)      2628.7  Rx     18EF1C8F  8  0D 92 26 00 CD FF 77 FF 
   632)      2631.3  Rx     18EF1CCD  8  A1 40 18 08 00 00 00 00 
   633)      2638.0  Rx     18EFCD1C  8  A0 00 2A 00 00 00 00 00 
   634)      2638.6  Rx     18EF1CCD  8  A0 00 2A 00 44 06 00 00 
   635)      2641.3  Rx     18EF1CCD  8  A2 00 00 00 00 00 00 00 
   636)      2642.3  Rx     18EF1CCD  8  A3 00 00 00 00 18 08 18 
   637)      2646.8  Rx     18EF1C8F  8  0D A0 00 DF 36 EE AC FB 
   638)      2647.7  Rx     18EF1C8F  8  0D A1 FA FF 30 00 8B 03 
   639)      2648.7  Rx     18EF1C8F  8  0D A2 24 00 D3 FF 6D FF 
   640)      2657.9  Rx     18EFCD1C  8  A0 00 1B 00 00 00 00 00 
   641)      2658.6  Rx     18EF1CCD  8  A0 00 1B 00 BD 00 00 00 
   642)      2666.8  Rx     18EF1C8F  8  0D B0 00 FD 84 EE AC FB 
   643)      2667.7  Rx     18EF1C8F  8  0D B1 F2 FF 2F 00 94 03 
   644)      2668.7  Rx     18EF1C8F  8  0D B2 1A 00 C5 FF 65 FF 
   645)      2677.9  Rx     18EFCD1C  8  A0 00 00 00 00 00 00 00 
   646)      2678.6  Rx     18EF1CCD  8  A0 00 00 00 04 00 00 00 
   647)      2686.8  Rx     18EF1C8F  8  0D C0 00 1F D3 EE AC FB 
   648)      2687.7  Rx     18EF1C8F  8  0D C1 07 00 26 00 9D 03 
   649)      2688.7  Rx     18EF1C8F  8  0D C2 08 00 DC FF 65 FF 
   650)      2706.8  Rx     18EF1C8F  8  0D D0 00 3D 21 EF AC FB 
   651)      2707.7  Rx     18EF1C8F  8  0D D1 00 00 2E 00 9C 03 
   652)      2708.7  Rx     18EF1C8F  8  0D D2 03 00 C8 FF 62 FF 
   653)      2717.9  Rx     18EFCD1C  8  A1 01 00 00 18 08 00 00 
   654)      2726.8  Rx     18EF1C8F  8  0D E0 00 5A 6F EF AC FB 
   655)      2727.7  Rx     18EF1C8F  8  0D E1 11 00 32 00 9A 03 
   656)      2728.7  Rx     18EF1C8F  8  0D E2 04 00 E1 FF 5E FF 
   657)      2731.4  Rx     18EF1CCD  8  A1 40 18 08 00 00 00 00 
   658)      2741.5  Rx     18EF1CCD  8  A2 00 00 00 00 00 00 00 
   659)      2742.4  Rx     18EF1CCD  8  A3 00 00 00 00 18 08 18 
   660)      2746.7  Rx     18EF1C8F  8  0D F0 00 7D BD EF AC FB 
   661)      2747.7  Rx     18EF1C8F  8  0D F1 00 00 3F 00 91 03 
   662)      2748.7  Rx     18EF1C8F  8  0D F2 0C 00 D9 FF 61 FF 
   663)      2766.8  Rx     18EF1C8F  8  0D 00 00 9D 0B F0 AC FB 
   664)      2767.7  Rx     18EF1C8F  8  0D 01 19 00 46 00 83 03 
   665)      2768.7  Rx     18EF1C8F  8  0D 02 15 00 EF FF 65 FF 
   666)      2786.8  Rx     18EF1C8F  8  0D 10 00 BD 59 F0 AC FB 
   667)      2787.6  Rx     18EF1C8F  8  0D 11 09 00 51 00 79 03 
   668)      2788.6  Rx     18EF1C8F  8  0D 12 1C 00 E9 FF 68 FF 
   669)      2806.7  Rx     18EF1C8F  8  0D 20 00 DD A7 F0 AC FB 
   670)      2807.6  Rx     18EF1C8F  8  0D 21 11 00 43 00 72 03 
   671)      2808.7  Rx     18EF1C8F  8  0D 22 18 00 E9 FF 66 FF 
   672)      2817.9  Rx     18EFCD1C  8  A0 00 14 00 00 00 00 00 
   673)      2818.6  Rx     18EF1CCD  8  A0 00 14 00 AD 07 00 00 
   674)      2826.7  Rx     18EF1C8F  8  0D 30 00 FF F5 F0 AC FB 
   675)      2827.6  Rx     18EF1C8F  8  0D 31 13 00 2F 00 77 03 
   676)      2828.6  Rx     18EF1C8F  8  0D 32 0F 00 F7 FF 6F FF 
   677)      2831.6  Rx     18EF1CCD  8  A1 40 18 08 00 00 00 00 
   678)      2837.9  Rx     18EFCD1C  8  A0 00 2A 00 00 00 00 00 
   679)      2838.5  Rx     18EF1CCD  8  A0 00 2A 00 40 06 00 00 
   680)      2841.6  Rx     18EF1CCD  8  A2 00 00 00 00 00 00 00 
   681)      2842.6  Rx     18EF1CCD  8  A3 00 00 00 00 18 08 18 
   682)      2846.7  Rx     18EF1C8F  8  0D 40 00 1F 44 F1 AC FB 
   683)      2847.6  Rx     18EF1C8F  8  0D 41 09 00 28 00 7A 03 
   684)      2848.6  Rx     18EF1C8F  8  0D 42 FE FF F3 FF 71 FF 
   685)      2857.9  Rx     18EFCD1C  8  A0 00 1B 00 00 00 00 00 
   686)      2858.5  Rx     18EF1CCD  8  A0 00 1B 00 BD 00 00 00 
   687)      2866.7  Rx     18EF1C8F  8  0D 50 00 3F 92 F1 AC FB 
   688)      2867.6  Rx     18EF1C8F  8  0D 51 1A 00 14 00 7B 03 
   689)      2868.6  Rx     18EF1C8F  8  0D 52 E6 FF 0C 00 78 FF 
   690)      2877.9  Rx     18EFCD1C  8  A0 00 00 00 00 00 00 00 
   691)      2878.5  Rx     18EF1CCD  8  A0 00 00 00 04 00 00 00 
   692)      2886.7  Rx     18EF1C8F  8  0D 60 00 5D E0 F1 AC FB 
   693)      2887.6  Rx     18EF1C8F  8  0D 61 06 00 15 00 77 03 
   694)      2888.6  Rx     18EF1C8F  8  0D 62 D3 FF 04 00 77 FF 
   695)      2906.7  Rx     18EF1C8F  8  0D 70 00 7D 2E F2 AC FB 
   696)      2907.6  Rx     18EF1C8F  8  0D 71 18 00 15 00 6E 03 
   697)      2908.6  Rx     18EF1C8F  8  0D 72 C8 FF 22 00 7D FF 
   698)      2917.9  Rx     18EFCD1C  8  A1 01 00 00 18 08 00 00 
   699)      2926.7  Rx     18EF1C8F  8  0D 80 00 9D 7C F2 AB FB 
   700)      2927.6  Rx     18EF1C8F  8  0D 81 00 00 25 00 70 03 
   701)      2928.7  Rx     18EF1C8F  8  0D 82 BF FF 12 00 7C FF 
   702)      2931.8  Rx     18EF1CCD  8  A1 40 18 08 00 00 00 00 
   703)      2941.8  Rx     18EF1CCD  8  A2 00 00 00 00 00 00 00 
   704)      2942.8  Rx     18EF1CCD  8  A3 00 00 00 00 18 08 18 
   705)      2946.7  Rx     18EF1C8F  8  0D 90 00 C2 CA F2 AC FB 
   706)      2947.6  Rx     18EF1C8F  8  0D 91 0F 00 27 00 68 03 
   707)      2948.6  Rx     18EF1C8F  8  0D 92 CE FF 2C 00 78 FF 
   708)      2966.7  Rx     18EF1C8F  8  0D A0 00 DD 18 F3 AC FB 
   709)      2967.6  Rx     18EF1C8F  8  0D A1 F8 FF 38 00 6F 03 
   710)      2968.6  Rx     18EF1C8F  8  0D A2 EA FF 1A 00 7E FF 
   711)      2986.7  Rx     18EF1C8F  8  0D B0 00 FD 66 F3 AC FB 
   712)      2987.6  Rx     18EF1C8F  8  0D B1 FB FF 37 00 72 03 
   713)      2988.6  Rx     18EF1C8F  8  0D B2 0A 00 1D 00 7E FF 
   714)      3006.7  Rx     18EF1C8F  8  0D C0 00 1D B5 F3 AC FB 
   715)      3007.6  Rx     18EF1C8F  8  0D C1 F6 FF 2F 00 79 03 
   716)      3008.6  Rx     18EF1C8F  8  0D C2 1B 00 0E 00 7D FF 
   717)      3017.8  Rx     18EFCD1C  8  A0 00 14 00 00 00 00 00 
   718)      3018.4  Rx     18EF1CCD  8  A0 00 14 00 AD 07 00 00 
   719)      3026.7  Rx     18EF1C8F  8  0D D0 00 3F 03 F4 AC FB 
   720)      3027.6  Rx     18EF1C8F  8  0D D1 EA FF 28 00 85 03 
   721)      3028.6  Rx     18EF1C8F  8  0D D2 27 00 F9 FF 76 FF 
   722)      3032.0  Rx     18EF1CCD  8  A1 40 18 08 00 00 00 00 
   723)      3037.8  Rx     18EFCD1C  8  A0 00 2A 00 00 00 00 00 
   724)      3038.5  Rx     18EF1CCD  8  A0 00 2A 00 49 06 00 00 
   725)      3042.0  Rx     18EF1CCD  8  A2 00 00 00 00 00 00 00 
   726)      3043.0  Rx     18EF1CCD  8  A3 00 00 00 00 18 08 18 
   727)      3046.7  Rx     18EF1C8F  8  0D E0 00 5F 51 F4 AC FB 
   728)      3047.6  Rx     18EF1C8F  8  0D E1 F3 FF 22 00 91 03 
   729)      3048.6  Rx     18EF1C8F  8  0D E2 2D 00 EC FF 77 FF 
   730)      3057.9  Rx     18EFCD1C  8  A0 00 1B 00 00 00 00 00 
   731)      3058.5  Rx     18EF1CCD  8  A0 00 1B 00 BD 00 00 00 
   732)      3066.7  Rx     18EF1C8F  8  0D F0 00 7F 9F F4 AC FB 
   733)      3067.6  Rx     18EF1C8F  8  0D F1 E3 FF 1C 00 9C 03 
   734)      3068.6  Rx     18EF1C8F  8  0D F2 34 00 D6 FF 73 FF 
   735)      3077.8  Rx     18EFCD1C  8  A0 00 00 00 00 00 00 00 
   736)      3078.4  Rx     18EF1CCD  8  A0 00 00 00 04 00 00 00 
   737)      3086.7  Rx     18EF1C8F  8  0D 00 00 9D ED F4 AC FB 
   738)      3087.6  Rx     18EF1C8F  8  0D 01 F5 FF 1F 00 A1 03 
   739)      3088.6  Rx     18EF1C8F  8  0D 02 37 00 EA FF 6C FF 
   740)      3106.7  Rx     18EF1C8F  8  0D 10 00 BD 3B F5 AC FB 
   741)      3107.6  Rx     18EF1C8F  8  0D 11 E2 FF 30 00 AA 03 
   742)      3108.6  Rx     18EF1C8F  8  0D 12 35 00 E9 FF 67 FF 
   743)      3117.8  Rx     18EFCD1C  8  A1 01 00 00 18 08 00 00 
   744)      3126.7  Rx     18EF1C8F  8  0D 20 00 DF 89 F5 AC FB 
   745)      3127.6  Rx     18EF1C8F  8  0D 21 FF FF 34 00 9F 03 
   746)      3128.6  Rx     18EF1C8F  8  0D 22 34 00 1B 00 63 FF 
   747)      3132.2  Rx     18EF1CCD  8  A1 40 18 08 00 00 00 00 
   748)      3138.8  Rx     18FEF31C  8  34 2D 80 99 59 B9 2C 89 
   749)      3139.4  Rx     18FEE81C  8  CA 82 FC 01 00 00 29 51 
   750)      3139.9  Rx     18FEE61C  8  6F 31 0C 09 57 29 00 00 
   751)      3140.5  Rx     19F8021C  8  1E FC 57 B2 37 00 FF FF 
   752)      3142.3  Rx     18EF1CCD  8  A2 00 00 00 00 00 00 00 
   753)      3143.3  Rx     18EF1CCD  8  A3 00 00 00 00 18 08 18 
   754)      3143.8  Rx     19F8051C  8  60 2F 1E EE 50 C9 A6 84 
   755)      3144.4  Rx     19F8051C  8  61 1B 80 9E 85 D1 C5 A7 
   756)      3144.9  Rx     19F8051C  8  62 98 06 60 35 74 C1 FC 
   757)      3145.4  Rx     19F8051C  8  63 8C CB 02 92 CC 3A 08 
   758)      3146.0  Rx     19F8051C  8  64 00 00 00 00 40 00 0D 
   759)      3146.6  Rx     19F8051C  8  65 50 00 88 00 FC 0F 00 
   760)      3147.2  Rx     18EF1C8F  8  0D 30 00 02 D8 F5 AC FB 
   761)      3147.7  Rx     18EF1C8F  8  0D 31 F3 FF 43 00 9C 03 
   762)      3148.3  Rx     19F8051C  8  66 00 01 AF 02 F4 01 FF 
   763)      3148.8  Rx     18EF1C8F  8  0D 32 3A 00 16 00 58 FF 
   764)      3166.6  Rx     18EF1C8F  8  0D 40 00 1D 26 F6 AC FB 
   765)      3167.6  Rx     18EF1C8F  8  0D 41 FD FF 47 00 97 03 
   766)      3168.6  Rx     18EF1C8F  8  0D 42 39 00 2D 00 54 FF 
   767)      3184.0  Rx     18EF8F1C  4  01 7F 3D 00 
   768)      3184.5  Rx     18EF1C8F  4  01 3E 7F 00 
   769)      3186.6  Rx     18EF1C8F  8  0D 50 00 3D 74 F6 AC FB 
   770)      3187.6  Rx     18EF1C8F  8  0D 51 F6 FF 42 00 8A 03 
   771)      3188.6  Rx     18EF1C8F  8  0D 52 2D 00 21 00 5A FF 
   772)      3206.6  Rx     18EF1C8F  8  0D 60 00 5A C2 F6 AC FB 
   773)      3207.6  Rx     18EF1C8F  8  0D 61 FC FF 37 00 86 03 
   774)      3208.5  Rx     18EF1C8F  8  0D 62 1B 00 14 00 5D FF 
   775)      3223.7  Rx     18EFCD1C  8  A0 00 14 00 00 00 00 00 
   776)      3224.4  Rx     18EF1CCD  8  A0 00 14 00 AD 07 00 00 
   777)      3226.6  Rx     18EF1C8F  8  0D 70 00 7F 10 F7 AC FB 
   778)      3227.5  Rx     18EF1C8F  8  0D 71 01 00 31 00 7E 03 
   779)      3228.5  Rx     18EF1C8F  8  0D 72 00 00 F7 FF 65 FF 
   780)      3232.4  Rx     18EF1CCD  8  A1 40 18 08 00 00 00 00 
   781)      3237.9  Rx     18EFCD1C  8  A0 00 2A 00 00 00 00 00 
   782)      3238.6  Rx     18EF1CCD  8  A0 00 2A 00 49 06 00 00 
   783)      3242.5  Rx     18EF1CCD  8  A2 00 00 00 00 00 00 00 
   784)      3243.5  Rx     18EF1CCD  8  A3 00 00 00 00 18 08 18 
   785)      3246.6  Rx     18EF1C8F  8  0D 80 00 A2 5E F7 AC FB 
   786)      3247.6  Rx     18EF1C8F  8  0D 81 FD FF 33 00 85 03 
   787)      3248.5  Rx     18EF1C8F  8  0D 82 DE FF DD FF 69 FF 
   788)      3257.8  Rx     18EFCD1C  8  A0 00 1B 00 00 00 00 00 
   789)      3258.6  Rx     18EF1CCD  8  A0 00 1B 00 BD 00 00 00 
   790)      3266.6  Rx     18EF1C8F  8  0D 90 00 BF AC F7 AC FB 
   791)      3267.5  Rx     18EF1C8F  8  0D 91 0B 00 28 00 79 03 
   792)      3268.5  Rx     18EF1C8F  8  0D 92 CA FF DD FF 6F FF 
   793)      3277.8  Rx     18EFCD1C  8  A0 00 00 00 00 00 00 00 
   794)      3278.5  Rx     18EF1CCD  8  A0 00 00 00 04 00 00 00 
   795)      3286.6  Rx     18EF1C8F  8  0D A0 00 DD FA F7 AC FB 
   796)      3287.5  Rx     18EF1C8F  8  0D A1 06 00 29 00 78 03 
   797)      3288.6  Rx     18EF1C8F  8  0D A2 BE FF CB FF 6D FF 
   798)      3306.6  Rx     18EF1C8F  8  0D B0 00 FD 48 F8 AC FB 
   799)      3307.5  Rx     18EF1C8F  8  0D B1 11 00 29 00 6B 03 
   800)      3308.5  Rx     18EF1C8F  8  0D B2 BD FF E4 FF 71 FF 
   801)      3317.8  Rx     18EFCD1C  8  A1 01 00 00 18 08 00 00 
   802)      3326.6  Rx     18EF1C8F  8  0D C0 00 1F 97 F8 AC FB 
   803)      3327.5  Rx     18EF1C8F  8  0D C1 04 00 32 00 68 03 
   804)      3328.5  Rx     18EF1C8F  8  0D C2 C3 FF E1 FF 78 FF 
   805)      3332.6  Rx     18EF1CCD  8  A1 40 18 08 00 00 00 00 
   806)      3342.6  Rx     18EF1CCD  8  A2 00 00 00 00 00 00 00 
   807)      3343.6  Rx     18EF1CCD  8  A3 00 00 00 00 18 08 18 
   808)      3346.6  Rx     18EF1C8F  8  0D D0 00 3F E5 F8 AC FB 
   809)      3347.5  Rx     18EF1C8F  8  0D D1 0D 00 29 00 5B 03 
   810)      3348.5  Rx     18EF1C8F  8  0D D2 CA FF 06 00 75 FF 
   811)      3366.6  Rx     18EF1C8F  8  0D E0 00 5D 33 F9 AC FB 
   812)      3367.5  Rx     18EF1C8F  8  0D E1 04 00 2F 00 65 03 
   813)      3368.5  Rx     18EF1C8F  8  0D E2 D4 FF FF FF 6F FF 
   814)      3386.6  Rx     18EF1C8F  8  0D F0 00 7D 81 F9 AC FB 
   815)      3387.5  Rx     18EF1C8F  8  0D F1 FD FF 27 00 6C 03 
   816)      3388.5  Rx     18EF1C8F  8  0D F2 EE FF 11 00 6C FF 
   817)      3406.5  Rx     18EF1C8F  8  0D 00 00 9A CF F9 AC FB 
   818)      3407.5  Rx     18EF1C8F  8  0D 01 F9 FF 20 00 72 03 
   819)      3408.5  Rx     18EF1C8F  8  0D 02 FF FF 08 00 6C FF 
   820)      3417.8  Rx     18EFCD1C  8  A0 00 14 00 00 00 00 00 
   821)      3418.4  Rx     18EF1CCD  8  A0 00 14 00 AD 07 00 00 
   822)      3426.5  Rx     18EF1C8F  8  0D 10 00 BD 1D FA AC FB 
   823)      3427.5  Rx     18EF1C8F  8  0D 11 FA FF 1A 00 8B 03 
   824)      3428.5  Rx     18EF1C8F  8  0D 12 11 00 0C 00 6A FF 
   825)      3432.8  Rx     18EF1CCD  8  A1 40 18 08 00 00 00 00 
   826)      3437.7  Rx     18EFCD1C  8  A0 00 2A 00 00 00 00 00 
   827)      3438.4  Rx     18EF1CCD  8  A0 00 2A 00 41 06 00 00 
   828)      3442.8  Rx     18EF1CCD  8  A2 00 00 00 00 00 00 00 
   829)      3443.8  Rx     18EF1CCD  8  A3 00 00 00 00 18 08 18 
   830)      3446.5  Rx     18EF1C8F  8  0D 20 00 E2 6B FA AC FB 
   831)      3447.5  Rx     18EF1C8F  8  0D 21 FF FF 19 00 8E 03 
   832)      3448.4  Rx     18EF1C8F  8  0D 22 2B 00 06 00 6D FF 
   833)      3457.7  Rx     18EFCD1C  8  A0 00 1B 00 00 00 00 00 
   834)      3458.4  Rx     18EF1CCD  8  A0 00 1B 00 BD 00 00 00 
   835)      3466.5  Rx     18EF1C8F  8  0D 30 00 FD B9 FA AC FB 
   836)      3467.4  Rx     18EF1C8F  8  0D 31 F8 FF 1D 00 9E 03 
   837)      3468.4  Rx     18EF1C8F  8  0D 32 3F 00 FE FF 6B FF 
   838)      3477.7  Rx     18EFCD1C  8  A0 00 00 00 00 00 00 00 
   839)      3478.3  Rx     18EF1CCD  8  A0 00 00 00 04 00 00 00 
   840)      3486.5  Rx     18EF1C8F  8  0D 40 00 1D 08 FB AC FB 
   841)      3487.4  Rx     18EF1C8F  8  0D 41 02 00 22 00 94 03 
   842)      3488.4  Rx     18EF1C8F  8  0D 42 53 00 05 00 6A FF 
   843)      3506.5  Rx     18EF1C8F  8  0D 50 00 3D 56 FB AC FB 
   844)      3507.4  Rx     18EF1C8F  8  0D 51 F8 FF 2E 00 94 03 
   845)      3508.4  Rx     18EF1C8F  8  0D 52 62 00 EE FF 68 FF 
   846)      3517.7  Rx     18EFCD1C  8  A1 01 00 00 18 08 00 00 
   847)      3526.5  Rx     18EF1C8F  8  0D 60 00 5D A4 FB AC FB 
   848)      3527.4  Rx     18EF1C8F  8  0D 61 01 00 33 00 85 03 
   849)      3528.4  Rx     18EF1C8F  8  0D 62 65 00 F8 FF 6C FF 
   850)      3532.9  Rx     18EF1CCD  8  A1 40 18 08 00 00 00 00 
   851)      3543.0  Rx     18EF1CCD  8  A2 00 00 00 00 00 00 00 
   852)      3544.0  Rx     18EF1CCD  8  A3 00 00 00 00 18 08 18 
   853)      3546.5  Rx     18EF1C8F  8  0D 70 00 7D F2 FB AC FB 
   854)      3547.4  Rx     18EF1C8F  8  0D 71 F9 FF 42 00 84 03 
   855)      3548.4  Rx     18EF1C8F  8  0D 72 60 00 E7 FF 6B FF 
   856)      3566.5  Rx     18EF1C8F  8  0D 80 00 9D 40 FC AC FB 
   857)      3567.4  Rx     18EF1C8F  8  0D 81 01 00 43 00 7D 03 
   858)      3568.4  Rx     18EF1C8F  8  0D 82 4C 00 FA FF 68 FF 
   859)      3586.5  Rx     18EF1C8F  8  0D 90 00 BD 8E FC AC FB 
   860)      3587.4  Rx     18EF1C8F  8  0D 91 FD FF 4C 00 77 03 
   861)      3588.4  Rx     18EF1C8F  8  0D 92 39 00 DF FF 6C FF 
   862)      3606.5  Rx     18EF1C8F  8  0D A0 00 DD DC FC AC FB 
   863)      3607.4  Rx     18EF1C8F  8  0D A1 05 00 49 00 8B 03 
   864)      3608.4  Rx     18EF1C8F  8  0D A2 22 00 F3 FF 6A FF 
   865)      3618.6  Rx     18EFCD1C  8  A0 00 14 00 00 00 00 00 
   866)      3619.2  Rx     18EF1CCD  8  A0 00 14 00 AC 07 00 00 
   867)      3626.5  Rx     18EF1C8F  8  0D B0 00 FF 2A FD AC FB 
   868)      3627.4  Rx     18EF1C8F  8  0D B1 04 00 44 00 8D 03 
   869)      3628.4  Rx     18EF1C8F  8  0D B2 0A 00 F6 FF 6A FF 
   870)      3633.2  Rx     18EF1CCD  8  A1 40 18 08 00 00 00 00 
   871)      3637.7  Rx     18EFCD1C  8  A0 00 2A 00 00 00 00 00 
   872)      3638.3  Rx     18EF1CCD  8  A0 00 2A 00 3E 06 00 00 
   873)      3643.2  Rx     18EF1CCD  8  A2 00 00 00 00 00 00 00 
   874)      3644.2  Rx     18EF1CCD  8  A3 00 00 00 00 18 08 18 
   875)      3646.5  Rx     18EF1C8F  8  0D C0 00 1F 79 FD AC FB 
   876)      3647.4  Rx     18EF1C8F  8  0D C1 07 00 47 00 95 03 
   877)      3648.4  Rx     18EF1C8F  8  0D C2 F2 FF 04 00 65 FF 
   878)      3657.6  Rx     18EFCD1C  8  A0 00 1B 00 00 00 00 00 
   879)      3658.3  Rx     18EF1CCD  8  A0 00 1B 00 BD 00 00 00 
   880)      3666.4  Rx     18EF1C8F  8  0D D0 00 3D C7 FD AC FB 
   881)      3667.4  Rx     18EF1C8F  8  0D D1 0C 00 45 00 8C 03 
   882)      3668.4  Rx     18EF1C8F  8  0D D2 D0 FF 18 00 68 FF 
   883)      3677.6  Rx     18EFCD1C  8  A0 00 00 00 00 00 00 00 
   884)      3678.3  Rx     18EF1CCD  8  A0 00 00 00 04 00 00 00 
   885)      3686.5  Rx     18EF1C8F  8  0D E0 00 5F 15 FE AC FB 
   886)      3687.4  Rx     18EF1C8F  8  0D E1 0F 00 39 00 8B 03 
   887)      3688.4  Rx     18EF1C8F  8  0D E2 B2 FF 20 00 63 FF 
   888)      3706.5  Rx     18EF1C8F  8  0D F0 00 7D 63 FE AC FB 
   889)      3707.4  Rx     18EF1C8F  8  0D F1 10 00 2C 00 82 03 
   890)      3708.4  Rx     18EF1C8F  8  0D F2 A1 FF 40 00 66 FF 
   891)      3717.7  Rx     18EFCD1C  8  A1 01 00 00 18 08 00 00 
   892)      3718.5  Rx     18EFCD1C  8  A1 3D 00 00 00 00 00 00 
   893)      3726.4  Rx     18EF1C8F  8  0D 00 00 9D B1 FE AC FB 
   894)      3727.4  Rx     18EF1C8F  8  0D 01 0E 00 28 00 80 03 
   895)      3728.4  Rx     18EF1C8F  8  0D 02 A5 FF 34 00 6C FF 
   896)      3733.5  Rx     18EF1CCD  8  A1 40 00 00 00 00 00 00 
   897)      3738.3  Rx     18EFCD1C  8  A1 09 00 00 E9 FF FF FF 
   898)      3743.5  Rx     18EF1CCD  8  A2 00 00 00 00 00 00 00 
   899)      3744.5  Rx     18EF1CCD  8  A3 47 F9 24 FA FF FF E9 
   900)      3746.4  Rx     18EF1C8F  8  0D 10 00 BF FF FE AC FB 
   901)      3747.4  Rx     18EF1C8F  8  0D 11 11 00 1E 00 79 03 
   902)      3748.3  Rx     18EF1C8F  8  0D 12 B9 FF 44 00 6C FF 
   903)      3758.3  Rx     18EFCD1C  8  A1 09 00 00 D2 FF FF FF 
   904)      3766.5  Rx     18EF1C8F  8  0D 20 00 DF 4D FF AC FB 
   905)      3767.4  Rx     18EF1C8F  8  0D 21 0B 00 1B 00 6B 03 
   906)      3768.3  Rx     18EF1C8F  8  0D 22 E2 FF 26 00 69 FF 
   907)      3785.6  Rx     18EFCD1C  8  A1 09 00 00 B4 FF FF FF 
   908)      3786.4  Rx     18EF1C8F  8  0D 30 00 FD 9B FF AC FB 
   909)      3787.3  Rx     18EF1C8F  8  0D 31 0B 00 1B 00 75 03 
   910)      3788.4  Rx     18EF1C8F  8  0D 32 07 00 33 00 6D FF 
   911)      3801.6  Rx     18EFCD1C  8  A1 09 00 00 8D FF FF FF 
   912)      3806.4  Rx     18EF1C8F  8  0D 40 00 1D EA FF AC FB 
   913)      3807.4  Rx     18EF1C8F  8  0D 41 05 00 27 00 71 03 
   914)      3808.3  Rx     18EF1C8F  8  0D 42 25 00 16 00 73 FF 
   915)      3818.1  Rx     18EFCD1C  8  A0 00 14 00 00 00 00 00 
   916)      3818.8  Rx     18EF1CCD  8  A0 00 14 00 AC 07 00 00 
   917)      3819.3  Rx     18EFCD1C  8  A1 09 00 00 5F FF FF FF 
   918)      3826.4  Rx     18EF1C8F  8  0D 50 00 3D 38 00 AC FB 
   919)      3827.4  Rx     18EF1C8F  8  0D 51 0C 00 27 00 81 03 
   920)      3828.3  Rx     18EF1C8F  8  0D 52 39 00 1B 00 71 FF 
   921)      3833.6  Rx     18EF1CCD  8  A1 40 87 FF FF FF 00 00 
   922)      3838.6  Rx     18EFCD1C  8  A0 00 2A 00 00 00 00 00 
   923)      3839.0  Rx     18EFCD1C  4  01 89 2E 00 
   924)      3839.5  Rx     18EF1CCD  8  A0 00 2A 00 45 06 00 00 
   925)      3840.0  Rx     18EF1CCD  4  01 2F 89 00 
   926)      3840.5  Rx     18EFCD1C  8  A1 09 00 00 39 FF FF FF 
   927)      3843.6  Rx     18EF1CCD  8  A2 00 00 00 00 00 00 00 
   928)      3844.6  Rx     18EF1CCD  8  A3 D3 DD 1B DE 6D FF 39 
   929)      3846.4  Rx     18EF1C8F  8  0D 60 00 62 86 00 AC FB 
   930)      3847.3  Rx     18EF1C8F  8  0D 61 01 00 24 00 80 03 
   931)      3848.4  Rx     18EF1C8F  8  0D 62 44 00 0E 00 72 FF 
   932)      3857.6  Rx     18EFCD1C  8  A0 00 1B 00 00 00 00 00 
   933)      3858.3  Rx     18EF1CCD  8  A0 00 1B 00 68 24 03 00 
   934)      3860.5  Rx     18EFCD1C  8  A1 09 00 00 1A FF FF FF 
   935)      3866.4  Rx     18EF1C8F  8  0D 70 00 7F D4 00 AC FB 
   936)      3867.3  Rx     18EF1C8F  8  0D 71 03 00 2F 00 8A 03 
   937)      3868.3  Rx     18EF1C8F  8  0D 72 4B 00 1C 00 72 FF 
   938)      3877.6  Rx     18EFCD1C  8  A0 00 00 00 00 00 00 00 
   939)      3878.3  Rx     18EF1CCD  8  A0 00 00 00 03 00 00 00 
   940)      3878.8  Rx     18EFCD1C  8  A1 09 00 00 F4 FE FF FF 
   941)      3886.4  Rx     18EF1C8F  8  0D 80 00 9D 22 01 AC FB 
   942)      3887.4  Rx     18EF1C8F  8  0D 81 FF FF 31 00 8E 03 
   943)      3888.3  Rx     18EF1C8F  8  0D 82 57 00 31 00 6B FF 
   944)      3898.3  Rx     18EFCD1C  8  A1 09 00 00 D5 FE FF FF 
   945)      3906.4  Rx     18EF1C8F  8  0D 90 00 BD 70 01 AD FB 
   946)      3907.3  Rx     18EF1C8F  8  0D 91 07 00 33 00 93 03 
   947)      3908.3  Rx     18EF1C8F  8  0D 92 54 00 34 00 54 FF 
   948)      3918.3  Rx     18EFCD1C  8  A1 09 00 00 AF FE FF FF 
   949)      3926.4  Rx     18EF1C8F  8  0D A0 00 DD BE 01 AC FB 
   950)      3927.3  Rx     18EF1C8F  8  0D A1 04 00 33 00 93 03 
   951)      3928.3  Rx     18EF1C8F  8  0D A2 54 00 4E 00 45 FF 
   952)      3933.8  Rx     18EF1CCD  8  A1 40 C9 FE FF FF 00 00 
   953)      3938.3  Rx     18EFCD1C  8  A1 09 00 00 90 FE FF FF 
   954)      3943.9  Rx     18EF1CCD  8  A2 00 00 00 00 00 00 00 
   955)      3944.8  Rx     18EF1CCD  8  A3 37 EC 11 EC BB FE 90 
   956)      3946.4  Rx     18EF1C8F  8  0D B0 00 FD 0C 02 AC FB 
   957)      3947.3  Rx     18EF1C8F  8  0D B1 FC FF 43 00 84 03 
   958)      3948.3  Rx     18EF1C8F  8  0D B2 45 00 4A 00 46 FF 
   959)      3958.2  Rx     18EFCD1C  8  A1 09 00 00 6A FE FF FF 
   960)      3966.4  Rx     18EF1C8F  8  0D C0 00 1D 5B 02 AC FB 
   961)      3967.3  Rx     18EF1C8F  8  0D C1 FD FF 45 00 86 03 
   962)      3968.3  Rx     18EF1C8F  8  0D C2 3B 00 74 00 49 FF 
   963)      3985.3  Rx     18EFCD1C  8  A1 09 00 00 4B FE FF FF 
   964)      3986.4  Rx     18EF1C8F  8  0D D0 00 3F A9 02 AC FB 
   965)      3987.3  Rx     18EF1C8F  8  0D D1 F3 FF 42 00 84 03 
   966)      3988.3  Rx     18EF1C8F  8  0D D2 2C 00 5A 00 43 FF 
   967)      4000.1  Rx     18EFCD1C  8  A1 09 00 00 24 FE FF FF 
   968)      4006.4  Rx     18EF1C8F  8  0D E0 00 5D F7 02 AC FB 
   969)      4007.3  Rx     18EF1C8F  8  0D E1 F5 FF 41 00 89 03 
   970)      4008.3  Rx     18EF1C8F  8  0D E2 27 00 61 00 44 FF 
   971)      4017.8  Rx     18EFCD1C  8  A0 00 14 00 00 00 00 00 
   972)      4018.5  Rx     18EF1CCD  8  A0 00 14 00 AC 07 00 00 
   973)      4019.1  Rx     18EFCD1C  8  A1 09 00 00 06 FE FF FF 
   974)      4026.4  Rx     18EF1C8F  8  0D F0 00 7D 45 03 AC FB 
   975)      4027.3  Rx     18EF1C8F  8  0D F1 EA FF 42 00 7F 03 
   976)      4028.3  Rx     18EF1C8F  8  0D F2 2B 00 4E 00 4F FF 
   977)      4034.0  Rx     18EF1CCD  8  A1 40 32 FE FF FF 00 00 
   978)      4038.2  Rx     18EFCD1C  8  A0 00 2A 00 00 00 00 00 
   979)      4039.0  Rx     18EF1CCD  8  A0 00 2A 00 3C 06 00 00 
   980)      4039.6  Rx     18EFCD1C  8  A1 09 00 00 DF FD FF FF 
   981)      4044.0  Rx     18EF1CCD  8  A2 00 00 00 00 00 00 00 
   982)      4045.0  Rx     18EF1CCD  8  A3 28 D8 51 D8 1E FE DF 
   983)      4046.3  Rx     18EF1C8F  8  0D 00 00 9D 93 03 AC FB 
   984)      4047.3  Rx     18EF1C8F  8  0D 01 EE FF 38 00 7A 03 
   985)      4048.3  Rx     18EF1C8F  8  0D 02 29 00 44 00 56 FF 
   986)      4058.6  Rx     18EFCD1C  8  A0 00 1B 00 00 00 00 00 
   987)      4059.2  Rx     18EF1CCD  8  A0 00 1B 00 F8 5B 05 00 
   988)      4060.0  Rx     18EFCD1C  8  A1 09 00 00 C1 FD FF FF 
   989)      4066.3  Rx     18EF1C8F  8  0D 10 00 BF E1 03 AC FB 
   990)      4067.3  Rx     18EF1C8F  8  0D 11 F0 FF 32 00 74 03 
   991)      4068.3  Rx     18EF1C8F  8  0D 12 22 00 36 00 58 FF 
   992)      4077.7  Rx     18EFCD1C  8  A0 00 00 00 00 00 00 00 
   993)      4078.3  Rx     18EF1CCD  8  A0 00 00 00 03 00 00 00 
   994)      4080.4  Rx     18EFCD1C  8  A1 09 00 00 9A FD FF FF 
   995)      4086.4  Rx     18EF1C8F  8  0D 20 00 DF 2F 04 AC FB 
   996)      4087.2  Rx     18EF1C8F  8  0D 21 FD FF 39 00 7E 03 
   997)      4088.3  Rx     18EF1C8F  8  0D 22 1D 00 1B 00 57 FF 
   998)      4098.2  Rx     18EFCD1C  8  A1 09 00 00 7B FD FF FF 
   999)      4106.3  Rx     18EF1C8F  8  0D 30 00 FD 7D 04 AC FB 
  1000)      4107.2  Rx     18EF1C8F  8  0D 31 FA FF 29 00 85 03 
  1001)      4108.3  Rx     18EF1C8F  8  0D 32 1A 00 27 00 59 FF 
  1002)      4118.1  Rx     18EFCD1C  8  A1 09 00 00 55 FD FF FF 
  1003)      4126.3  Rx     18EF1C8F  8  0D 40 00 1D CC 04 AC FB 
  1004)      4127.3  Rx     18EF1C8F  8  0D 41 01 00 2C 00 85 03 
  1005)      4128.2  Rx     18EF1C8F  8  0D 42 15 00 14 00 5B FF 
  1006)      4134.2  Rx     18EF1CCD  8  A1 40 75 FD FF FF 00 00 
  1007)      4138.7  Rx     18FEF31C  8  26 2D 80 99 0B B9 2C 89 
  1008)      4139.3  Rx     18FEE81C  8  05 7F 99 02 00 00 29 51 
  1009)      4139.8  Rx     18FEE61C  8  73 31 0C 09 57 29 00 00 
  1010)      4140.4  Rx     19F8021C  8  23 FC 33 AD 48 00 FF FF 
  1011)      4141.0  Rx     18EFCD1C  8  A1 09 00 00 36 FD FF FF 
  1012)      4144.2  Rx     18EF1CCD  8  A2 00 00 00 00 00 00 00 
  1013)      4145.2  Rx     18EF1CCD  8  A3 14 E0 EE DF 65 FD 36 
  1014)      4145.8  Rx     19F8051C  8  80 2F 23 EE 50 4E CE 84 
  1015)      4146.3  Rx     19F8051C  8  81 1B C0 02 D0 81 C2 A7 
  1016)      4146.9  Rx     18EF1C8F  8  0D 50 00 3F 1A 05 AC FB 
  1017)      4147.4  Rx     18EF1C8F  8  0D 51 FE FF 31 00 86 03 
  1018)      4148.0  Rx     19F8051C  8  82 98 06 A0 8F B5 A1 EA 
  1019)      4148.5  Rx     18EF1C8F  8  0D 52 1D 00 33 00 57 FF 
  1020)      4149.1  Rx     19F8051C  8  83 8C CB 02 FD D8 3A 08 
  1021)      4149.6  Rx     19F8051C  8  84 00 00 00 00 40 00 0D 
  1022)      4150.2  Rx     19F8051C  8  85 50 00 88 00 FC 0F 00 
  1023)      4150.8  Rx     19F8051C  8  86 00 01 AF 02 58 02 FF 
  1024)      4158.2  Rx     18EFCD1C  8  A1 09 00 00 10 FD FF FF 
  1025)      4166.3  Rx     18EF1C8F  8  0D 60 00 62 68 05 AC FB 
  1026)      4167.2  Rx     18EF1C8F  8  0D 61 F8 FF 3C 00 7D 03 
  1027)      4168.3  Rx     18EF1C8F  8  0D 62 20 00 1C 00 52 FF 
  1028)      4186.3  Rx     18EF1C8F  8  0D 70 00 7A B6 05 AC FB 
  1029)      4186.9  Rx     18EFCD1C  8  A1 09 00 00 F1 FC FF FF 
  1030)      4187.4  Rx     18EF1C8F  8  0D 71 F9 FF 43 00 7C 03 
  1031)      4188.2  Rx     18EF1C8F  8  0D 72 1C 00 3E 00 4B FF 
  1032)      4202.3  Rx     18EFCD1C  8  A1 09 00 00 CB FC FF FF 
  1033)      4206.3  Rx     18EF1C8F  8  0D 80 00 9D 04 06 AC FB 
  1034)      4207.2  Rx     18EF1C8F  8  0D 81 E3 FF 48 00 7F 03 
  1035)      4208.2  Rx     18EF1C8F  8  0D 82 16 00 42 00 50 FF 
  1036)      4217.5  Rx     18EFCD1C  8  A0 00 14 00 00 00 00 00 
  1037)      4218.3  Rx     18EF1CCD  8  A0 00 14 00 AD 07 00 00 
  1038)      4218.9  Rx     18EFCD1C  8  A1 09 00 00 AC FC FF FF 
  1039)      4226.3  Rx     18EF1C8F  8  0D 90 00 BF 52 06 AC FB 
  1040)      4227.2  Rx     18EF1C8F  8  0D 91 F5 FF 3B 00 8C 03 
  1041)      4228.2  Rx     18EF1C8F  8  0D 92 15 00 5B 00 51 FF 
  1042)      4234.4  Rx     18EF1CCD  8  A1 40 D6 FC FF FF 00 00 
  1043)      4238.3  Rx     18EFCD1C  8  A0 00 2A 00 00 00 00 00 
  1044)      4238.9  Rx     18EF1CCD  8  A0 00 2A 00 37 06 00 00 
  1045)      4239.5  Rx     18EFCD1C  8  A1 09 00 00 86 FC FF FF 
  1046)      4244.4  Rx     18EF1CCD  8  A2 00 00 00 00 00 00 00 
  1047)      4245.4  Rx     18EF1CCD  8  A3 EE DC 10 DD C5 FC 86 
  1048)      4246.4  Rx     18EF1C8F  8  0D A0 00 DF A0 06 AC FB 
  1049)      4247.2  Rx     18EF1C8F  8  0D A1 EC FF 27 00 8E 03 
  1050)      4248.2  Rx     18EF1C8F  8  0D A2 16 00 5E 00 54 FF 
  1051)      4258.4  Rx     18EFCD1C  8  A0 00 1B 00 00 00 00 00 
  1052)      4259.1  Rx     18EF1CCD  8  A0 00 1B 00 70 C9 05 00 
  1053)      4259.6  Rx     18EFCD1C  8  A1 09 00 00 67 FC FF FF 
  1054)      4266.3  Rx     18EF1C8F  8  0D B0 00 FF EE 06 AC FB 
  1055)      4267.2  Rx     18EF1C8F  8  0D B1 E5 FF 22 00 90 03 
  1056)      4268.2  Rx     18EF1C8F  8  0D B2 21 00 5B 00 4F FF 
  1057)      4278.4  Rx     18EFCD1C  8  A0 00 00 00 00 00 00 00 
  1058)      4279.0  Rx     18EF1CCD  8  A0 00 00 00 03 00 00 00 
  1059)      4279.6  Rx     18EFCD1C  8  A1 09 00 00 41 FC FF FF 
  1060)      4286.3  Rx     18EF1C8F  8  0D C0 00 1D 3D 07 AC FB 
  1061)      4287.3  Rx     18EF1C8F  8  0D C1 E2 FF 1C 00 83 03 
  1062)      4288.2  Rx     18EF1C8F  8  0D C2 32 00 69 00 54 FF 
  1063)      4298.1  Rx     18EFCD1C  8  A1 09 00 00 13 FC FF FF 
  1064)      4306.3  Rx     18EF1C8F  8  0D D0 00 3F 8B 07 AC FB 
  1065)      4307.2  Rx     18EF1C8F  8  0D D1 E5 FF 20 00 76 03 
  1066)      4308.2  Rx     18EF1C8F  8  0D D2 33 00 3D 00 57 FF 
  1067)      4318.0  Rx     18EFCD1C  8  A1 09 00 00 EC FB FF FF 
  1068)      4326.3  Rx     18EF1C8F  8  0D E0 00 5D D9 07 AC FB 
  1069)      4327.2  Rx     18EF1C8F  8  0D E1 F3 FF 27 00 6F 03 
  1070)      4328.2  Rx     18EF1C8F  8  0D E2 38 00 32 00 57 FF 
  1071)      4334.6  Rx     18EF1CCD  8  A1 40 15 FC FF FF 00 00 
  1072)      4338.0  Rx     18EFCD1C  8  A1 09 00 00 CD FB FF FF 
  1073)      4344.7  Rx     18EF1CCD  8  A2 00 00 00 00 00 00 00 
  1074)      4345.6  Rx     18EF1CCD  8  A3 A7 D7 83 D7 00 FC CD 
  1075)      4346.3  Rx     18EF1C8F  8  0D F0 00 7D 27 08 AC FB 
  1076)      4347.2  Rx     18EF1C8F  8  0D F1 E9 FF 2D 00 76 03 
  1077)      4348.2  Rx     18EF1C8F  8  0D F2 3C 00 00 00 61 FF 
  1078)      4358.0  Rx     18EFCD1C  8  A1 09 00 00 A7 FB FF FF 
  1079)      4366.3  Rx     18EF1C8F  8  0D 00 00 9D 75 08 AC FB 
  1080)      4367.2  Rx     18EF1C8F  8  0D 01 FE FF 29 00 6A 03 
  1081)      4368.2  Rx     18EF1C8F  8  0D 02 48 00 FE FF 61 FF 
  1082)      4382.1  Rx     18EFCD1C  8  A1 09 00 00 88 FB FF FF 
  1083)      4386.3  Rx     18EF1C8F  8  0D 10 00 BD C3 08 AC FB 
  1084)      4387.2  Rx     18EF1C8F  8  0D 11 F9 FF 3C 00 72 03 
  1085)      4388.2  Rx     18EF1C8F  8  0D 12 52 00 E2 FF 61 FF 
  1086)      4398.1  Rx     18EFCD1C  8  A1 09 00 00 62 FB FF FF 
  1087)      4406.3  Rx     18EF1C8F  8  0D 20 00 DD 11 09 AC FB 
  1088)      4407.2  Rx     18EF1C8F  8  0D 21 06 00 3C 00 76 03 
  1089)      4408.2  Rx     18EF1C8F  8  0D 22 58 00 E9 FF 5E FF 
  1090)      4417.4  Rx     18EFCD1C  8  A0 00 14 00 00 00 00 00 
  1091)      4418.2  Rx     18EF1CCD  8  A0 00 14 00 AC 07 00 00 
  1092)      4418.7  Rx     18EFCD1C  8  A1 09 00 00 43 FB FF FF 
  1093)      4426.3  Rx     18EF1C8F  8  0D 30 00 FF 5F 09 AC FB 
  1094)      4427.2  Rx     18EF1C8F  8  0D 31 F7 FF 38 00 71 03 
  1095)      4428.2  Rx     18EF1C8F  8  0D 32 50 00 F1 FF 6A FF 
  1096)      4434.8  Rx     18EF1CCD  8  A1 40 61 FB FF FF 00 00 
  1097)      4437.5  Rx     18EFCD1C  8  A0 00 2A 00 00 00 00 00 
  1098)      4438.2  Rx     18EF1CCD  8  A0 00 2A 00 41 06 00 00 
  1099)      4438.8  Rx     18EFCD1C  8  A1 09 00 00 1D FB FF FF 
  1100)      4444.8  Rx     18EF1CCD  8  A2 00 00 00 00 00 00 00 
  1101)      4445.8  Rx     18EF1CCD  8  A3 74 E3 80 E3 51 FB 1D 
  1102)      4446.3  Rx     18EF1C8F  8  0D 40 00 1D AE 09 AC FB 
  1103)      4447.2  Rx     18EF1C8F  8  0D 41 F7 FF 3B 00 90 03 
  1104)      4448.2  Rx     18EF1C8F  8  0D 42 3A 00 0B 00 6E FF 
  1105)      4458.1  Rx     18EFCD1C  8  A0 00 1B 00 00 00 00 00 
  1106)      4458.9  Rx     18EF1CCD  8  A0 00 1B 00 D9 05 06 00 
  1107)      4459.4  Rx     18EFCD1C  8  A1 09 00 00 FE FA FF FF 
  1108)      4466.2  Rx     18EF1C8F  8  0D 50 00 3D FC 09 AD FB 
  1109)      4467.2  Rx     18EF1C8F  8  0D 51 FB FF 42 00 98 03 
  1110)      4468.2  Rx     18EF1C8F  8  0D 52 2D 00 3C 00 65 FF 
  1111)      4478.4  Rx     18EFCD1C  8  A0 00 00 00 00 00 00 00 
  1112)      4479.1  Rx     18EF1CCD  8  A0 00 00 00 03 00 00 00 
  1113)      4479.7  Rx     18EFCD1C  8  A1 09 00 00 D8 FA FF FF 
  1114)      4486.3  Rx     18EF1C8F  8  0D 60 00 5F 4A 0A AD FB 
  1115)      4487.2  Rx     18EF1C8F  8  0D 61 F1 FF 44 00 A5 03 
  1116)      4488.2  Rx     18EF1C8F  8  0D 62 25 00 3D 00 67 FF 
  1117)      4499.8  Rx     18EFCD1C  8  A1 09 00 00 B9 FA FF FF 
  1118)      4506.2  Rx     18EF1C8F  8  0D 70 00 7D 98 0A AD FB 
  1119)      4507.1  Rx     18EF1C8F  8  0D 71 FA FF 3D 00 9B 03 
  1120)      4508.2  Rx     18EF1C8F  8  0D 72 18 00 5C 00 74 FF 
  1121)      4517.9  Rx     18EFCD1C  8  A1 09 00 00 93 FA FF FF 
  1122)      4526.2  Rx     18EF1C8F  8  0D 80 00 9D E6 0A AC FB 
  1123)      4527.1  Rx     18EF1C8F  8  0D 81 DC FF 48 00 99 03 
  1124)      4528.2  Rx     18EF1C8F  8  0D 82 0E 00 42 00 7A FF 
  1125)      4535.0  Rx     18EF1CCD  8  A1 40 B9 FA FF FF 00 00 
  1126)      4538.0  Rx     18EFCD1C  8  A1 09 00 00 65 FA FF FF 
  1127)      4545.0  Rx     18EF1CCD  8  A2 00 00 00 00 00 00 00 
  1128)      4546.0  Rx     18EF1CCD  8  A3 F5 D8 1B D9 A6 FA 65 
  1129)      4546.5  Rx     18EF1C8F  8  0D 90 00 BF 34 0B AC FB 
  1130)      4547.2  Rx     18EF1C8F  8  0D 91 E4 FF 47 00 98 03 
  1131)      4548.1  Rx     18EF1C8F  8  0D 92 04 00 47 00 7B FF 
  1132)      4557.9  Rx     18EFCD1C  8  A1 09 00 00 3E FA FF FF 
  1133)      4566.2  Rx     18EF1C8F  8  0D A0 00 DD 82 0B AC FB 
  1134)      4567.1  Rx     18EF1C8F  8  0D A1 D5 FF 42 00 8D 03 
  1135)      4568.1  Rx     18EF1C8F  8  0D A2 03 00 17 00 87 FF 
  1136)      4583.7  Rx     18EFCD1C  8  A1 09 00 00 1F FA FF FF 
  1137)      4586.2  Rx     18EF1C8F  8  0D B0 00 FD D0 0B AC FB 
  1138)      4587.1  Rx     18EF1C8F  8  0D B1 E2 FF 35 00 8C 03 
  1139)      4588.2  Rx     18EF1C8F  8  0D B2 0C 00 F0 FF 96 FF 
  1140)      4598.0  Rx     18EFCD1C  8  A1 09 00 00 F9 F9 FF FF 
  1141)      4606.2  Rx     18EF1C8F  8  0D C0 00 1F 1F 0C AC FB 
  1142)      4607.2  Rx     18EF1C8F  8  0D C1 DF FF 2A 00 78 03 
  1143)      4608.1  Rx     18EF1C8F  8  0D C2 04 00 C5 FF 9D FF 
  1144)      4617.4  Rx     18EFCD1C  8  A0 00 14 00 00 00 00 00 
  1145)      4618.2  Rx     18EF1CCD  8  A0 00 14 00 AD 07 00 00 
  1146)      4618.8  Rx     18EFCD1C  8  A1 09 00 00 DA F9 FF FF 
  1147)      4626.2  Rx     18EF1C8F  8  0D D0 00 3F 6D 0C AC FB 
  1148)      4627.1  Rx     18EF1C8F  8  0D D1 EB FF 30 00 82 03 
  1149)      4628.1  Rx     18EF1C8F  8  0D D2 00 00 B2 FF 97 FF 
  1150)      4635.2  Rx     18EF1CCD  8  A1 40 F6 F9 FF FF 00 00 
  1151)      4637.5  Rx     18EFCD1C  8  A0 00 2A 00 00 00 00 00 
  1152)      4638.3  Rx     18EF1CCD  8  A0 00 2A 00 41 06 00 00 
  1153)      4638.9  Rx     18EFCD1C  8  A1 09 00 00 B4 F9 FF FF 
  1154)      4645.3  Rx     18EF1CCD  8  A2 00 00 00 00 00 00 00 
  1155)      4646.2  Rx     18EF1CCD  8  A3 A9 DE 81 DE E4 F9 B4 
  1156)      4646.7  Rx     18EF1C8F  8  0D E0 00 5F BB 0C AC FB 
  1157)      4647.3  Rx     18EF1C8F  8  0D E1 F4 FF 2A 00 75 03 
  1158)      4648.1  Rx     18EF1C8F  8  0D E2 04 00 C4 FF A0 FF 
  1159)      4657.4  Rx     18EFCD1C  8  A0 00 1B 00 00 00 00 00 
  1160)      4658.0  Rx     18EF1CCD  8  A0 00 1B 00 2A 8C 06 00 
  1161)      4658.6  Rx     18EFCD1C  8  A1 09 00 00 95 F9 FF FF 
  1162)      4666.2  Rx     18EF1C8F  8  0D F0 00 7F 09 0D AC FB 
  1163)      4667.1  Rx     18EF1C8F  8  0D F1 F2 FF 1F 00 64 03 
  1164)      4668.1  Rx     18EF1C8F  8  0D F2 05 00 CA FF A6 FF 
  1165)      4678.2  Rx     18EFCD1C  8  A0 00 00 00 00 00 00 00 
  1166)      4678.9  Rx     18EF1CCD  8  A0 00 00 00 03 00 00 00 
  1167)      4679.4  Rx     18EFCD1C  8  A1 09 00 00 6F F9 FF FF 
  1168)      4686.2  Rx     18EF1C8F  8  0D 00 00 9F 57 0D AC FB 
  1169)      4687.1  Rx     18EF1C8F  8  0D 01 FF FF 15 00 6F 03 
  1170)      4688.1  Rx     18EF1C8F  8  0D 02 08 00 0B 00 9C FF 
  1171)      4699.2  Rx     18EFCD1C  8  A1 09 00 00 50 F9 FF FF 
  1172)      4706.2  Rx     18EF1C8F  8  0D 10 00 BF A5 0D AC FB 
  1173)      4707.1  Rx     18EF1C8F  8  0D 11 F0 FF 24 00 81 03 
  1174)      4708.1  Rx     18EF1C8F  8  0D 12 1F 00 16 00 90 FF 
  1175)      4719.1  Rx     18EFCD1C  8  A1 09 00 00 2A F9 FF FF 
  1176)      4726.2  Rx     18EF1C8F  8  0D 20 00 DD F3 0D AC FB 
  1177)      4727.1  Rx     18EF1C8F  8  0D 21 F1 FF 14 00 7F 03 
  1178)      4728.1  Rx     18EF1C8F  8  0D 22 3D 00 47 00 91 FF 
  1179)      4735.4  Rx     18EF1CCD  8  A1 40 4D F9 FF FF 00 00 
  1180)      4737.9  Rx     18EFCD1C  8  A1 09 00 00 0B F9 FF FF 
  1181)      4745.4  Rx     18EF1CCD  8  A2 00 00 00 00 00 00 00 
  1182)      4746.2  Rx     18EF1C8F  8  0D 30 00 02 42 0E AC FB 
  1183)      4746.7  Rx     18EF1CCD  8  A3 5A DE 52 DE 3D F9 0B 
  1184)      4747.3  Rx     18EF1C8F  8  0D 31 D1 FF 1A 00 8F 03 
  1185)      4748.1  Rx     18EF1C8F  8  0D 32 37 00 3A 00 9C FF 
  1186)      4757.9  Rx     18EFCD1C  8  A1 09 00 00 E5 F8 FF FF 
  1187)      4766.1  Rx     18EF1C8F  8  0D 40 00 1D 90 0E AC FB 
  1188)      4767.1  Rx     18EF1C8F  8  0D 41 E0 FF 23 00 94 03 
  1189)      4768.1  Rx     18EF1C8F  8  0D 42 32 00 39 00 95 FF 
  1190)      4782.3  Rx     18EFCD1C  8  A1 09 00 00 C6 F8 FF FF 
  1191)      4786.1  Rx     18EF1C8F  8  0D 50 00 3F DE 0E AD FB 
  1192)      4787.1  Rx     18EF1C8F  8  0D 51 DE FF 1C 00 96 03 
  1193)      4788.0  Rx     18EF1C8F  8  0D 52 25 00 04 00 99 FF 
  1194)      4798.0  Rx     18EFCD1C  8  A1 09 00 00 9F F8 FF FF 
  1195)      4806.2  Rx     18EF1C8F  8  0D 60 00 5F 2C 0F AC FB 
  1196)      4807.1  Rx     18EF1C8F  8  0D 61 DB FF 16 00 9F 03 
  1197)      4808.0  Rx     18EF1C8F  8  0D 62 1B 00 DB FF A4 FF 
  1198)      4817.3  Rx     18EFCD1C  8  A0 00 14 00 00 00 00 00 
  1199)      4818.0  Rx     18EF1CCD  8  A0 00 14 00 AC 07 00 00 
  1200)      4818.5  Rx     18EFCD1C  8  A1 09 00 00 71 F8 FF FF 
  1201)      4826.1  Rx     18EF1C8F  8  0D 70 00 7D 7A 0F AD FB 
  1202)      4827.0  Rx     18EF1C8F  8  0D 71 E4 FF 11 00 91 03 
  1203)      4828.1  Rx     18EF1C8F  8  0D 72 11 00 A5 FF AA FF 
  1204)      4835.6  Rx     18EF1CCD  8  A1 40 9A F8 FF FF 00 00 
  1205)      4837.4  Rx     18EFCD1C  8  A0 00 2A 00 00 00 00 00 
  1206)      4838.1  Rx     18EF1CCD  8  A0 00 2A 00 37 06 00 00 
  1207)      4838.6  Rx     18EFCD1C  8  A1 09 00 00 4B F8 FF FF 
  1208)      4845.6  Rx     18EF1CCD  8  A2 00 00 00 00 00 00 00 
  1209)      4846.2  Rx     18EF1C8F  8  0D 80 00 9F C8 0F AD FB 
  1210)      4846.7  Rx     18EF1CCD  8  A3 3D D9 5E D9 85 F8 4B 
  1211)      4847.2  Rx     18EF1C8F  8  0D 81 E6 FF 1D 00 8D 03 
  1212)      4848.0  Rx     18EF1C8F  8  0D 82 09 00 80 FF A9 FF 
  1213)      4857.3  Rx     18EFCD1C  8  A0 00 1B 00 00 00 00 00 
  1214)      4858.0  Rx     18EF1CCD  8  A0 00 1B 00 14 98 06 00 
  1215)      4858.6  Rx     18EFCD1C  8  A1 09 00 00 2C F8 FF FF 
  1216)      4866.1  Rx     18EF1C8F  8  0D 90 00 BF 16 10 AD FB 
  1217)      4867.0  Rx     18EF1C8F  8  0D 91 FC FF 15 00 76 03 
  1218)      4868.0  Rx     18EF1C8F  8  0D 92 00 00 7C FF B0 FF 
  1219)      4877.3  Rx     18EFCD1C  8  A0 00 00 00 00 00 00 00 
  1220)      4877.9  Rx     18EF1CCD  8  A0 00 00 00 03 00 00 00 
  1221)      4878.5  Rx     18EFCD1C  8  A1 09 00 00 06 F8 FF FF 
  1222)      4886.1  Rx     18EF1C8F  8  0D A0 00 DF 64 10 AC FB 
  1223)      4887.0  Rx     18EF1C8F  8  0D A1 F4 FF 1C 00 73 03 
  1224)      4888.0  Rx     18EF1C8F  8  0D A2 FE FF 75 FF AF FF 
  1225)      4899.0  Rx     18EFCD1C  8  A1 09 00 00 E7 F7 FF FF 
  1226)      4906.1  Rx     18EF1C8F  8  0D B0 00 FD B2 10 AD FB 
  1227)      4907.0  Rx     18EF1C8F  8  0D B1 0C 00 0B 00 6C 03 
  1228)      4908.0  Rx     18EF1C8F  8  0D B2 09 00 A6 FF A4 FF 
  1229)      4919.0  Rx     18EFCD1C  8  A1 09 00 00 C1 F7 FF FF 
  1230)      4926.1  Rx     18EF1C8F  8  0D C0 00 1F 01 11 AC FB 
  1231)      4927.0  Rx     18EF1C8F  8  0D C1 04 00 1A 00 72 03 
  1232)      4928.0  Rx     18EF1C8F  8  0D C2 16 00 B8 FF A2 FF 
  1233)      4935.7  Rx     18EF1CCD  8  A1 40 DA F7 FF FF 00 00 
  1234)      4939.4  Rx     18EFCD1C  8  A1 09 00 00 A2 F7 FF FF 
  1235)      4945.8  Rx     18EF1CCD  8  A2 00 00 00 00 00 00 00 
  1236)      4946.3  Rx     18EF1C8F  8  0D D0 00 3D 4F 11 AD FB 
  1237)      4946.9  Rx     18EF1CCD  8  A3 09 E6 E4 E5 C9 F7 A2 
  1238)      4947.4  Rx     18EF1C8F  8  0D D1 06 00 1A 00 68 03 
  1239)      4948.0  Rx     18EF1C8F  8  0D D2 24 00 F7 FF B2 FF 
  1240)      4957.7  Rx     18EFCD1C  8  A1 09 00 00 7C F7 FF FF 
  1241)      4966.0  Rx     18EF1C8F  8  0D E0 00 5F 9D 11 AC FB 
  1242)      4967.0  Rx     18EF1C8F  8  0D E1 02 00 22 00 7E 03 
  1243)      4968.0  Rx     18EF1C8F  8  0D E2 17 00 06 00 B8 FF 
  1244)      4981.6  Rx     18EFCD1C  8  A1 09 00 00 4E F7 FF FF 
  1245)      4986.0  Rx     18EF1C8F  8  0D F0 00 7D EB 11 AC FB 
  1246)      4987.0  Rx     18EF1C8F  8  0D F1 FF FF 15 00 8E 03 
  1247)      4987.9  Rx     18EF1C8F  8  0D F2 12 00 2C 00 AA FF 
  1248)      4997.8  Rx     18EFCD1C  8  A1 09 00 00 27 F7 FF FF 
  1249)      5006.0  Rx     18EF1C8F  8  0D 00 00 9F 39 12 AC FB 
  1250)      5007.0  Rx     18EF1C8F  8  0D 01 F5 FF 12 00 98 03 
  1251)      5007.9  Rx     18EF1C8F  8  0D 02 17 00 0C 00 A1 FF 
  1252)      5017.2  Rx     18EFCD1C  8  A0 00 14 00 00 00 00 00 
  1253)      5017.9  Rx     18EF1CCD  8  A0 00 14 00 AD 07 00 00 
  1254)      5018.5  Rx     18EFCD1C  8  A1 09 00 00 09 F7 FF FF 
  1255)      5026.0  Rx     18EF1C8F  8  0D 10 00 BF 87 12 AC FB 
  1256)      5026.9  Rx     18EF1C8F  8  0D 11 F0 FF 14 00 AF 03 
  1257)      5027.9  Rx     18EF1C8F  8  0D 12 2B 00 F6 FF A3 FF 
  1258)      5035.9  Rx     18EF1CCD  8  A1 40 27 F7 FF FF 00 00 
  1259)      5037.3  Rx     18EFCD1C  8  A0 00 2A 00 00 00 00 00 
  1260)      5038.0  Rx     18EF1CCD  8  A0 00 2A 00 42 06 00 00 
  1261)      5038.6  Rx     18EFCD1C  8  A1 09 00 00 E2 F6 FF FF 
  1262)      5045.9  Rx     18EF1CCD  8  A2 00 00 00 00 00 00 00 
  1263)      5046.5  Rx     18EF1C8F  8  0D 20 00 DF D5 12 AD FB 
  1264)      5047.1  Rx     18EF1C8F  8  0D 21 EF FF 0D 00 A3 03 
  1265)      5047.6  Rx     18EF1CCD  8  A3 AC D9 B6 D9 11 F7 E2 
  1266)      5048.1  Rx     18EF1C8F  8  0D 22 2E 00 CF FF A9 FF 
  1267)      5057.1  Rx     18EFCD1C  8  A0 00 1B 00 00 00 00 00 
  1268)      5057.9  Rx     18EF1CCD  8  A0 00 1B 00 24 80 05 00 
  1269)      5058.5  Rx     18EFCD1C  8  A1 09 00 00 B4 F6 FF FF 
  1270)      5066.0  Rx     18EF1C8F  8  0D 30 00 FF 23 13 AC FB 
  1271)      5066.9  Rx     18EF1C8F  8  0D 31 EE FF 27 00 B4 03 
  1272)      5067.9  Rx     18EF1C8F  8  0D 32 29 00 A2 FF AC FF 
  1273)      5077.1  Rx     18EFCD1C  8  A0 00 00 00 00 00 00 00 
  1274)      5077.8  Rx     18EF1CCD  8  A0 00 00 00 03 00 00 00 
  1275)      5078.3  Rx     18EFCD1C  8  A1 09 00 00 8E F6 FF FF 
  1276)      5086.0  Rx     18EF1C8F  8  0D 40 00 22 72 13 AC FB 
  1277)      5086.9  Rx     18EF1C8F  8  0D 41 FA FF 27 00 A2 03 
  1278)      5087.9  Rx     18EF1C8F  8  0D 42 19 00 8E FF B5 FF 
  1279)      5097.8  Rx     18EFCD1C  8  A1 09 00 00 60 F6 FF FF 
  1280)      5105.9  Rx     18EF1C8F  8  0D 50 00 3D C0 13 AC FB 
  1281)      5106.9  Rx     18EF1C8F  8  0D 51 EC FF 2A 00 A0 03 
  1282)      5107.9  Rx     18EF1C8F  8  0D 52 0A 00 71 FF B8 FF 
  1283)      5119.0  Rx     18EFCD1C  8  A1 09 00 00 39 F6 FF FF 
  1284)      5125.9  Rx     18EF1C8F  8  0D 60 00 5D 0E 14 AC FB 
  1285)      5126.9  Rx     18EF1C8F  8  0D 61 03 00 18 00 82 03 
  1286)      5127.9  Rx     18EF1C8F  8  0D 62 02 00 8C FF BE FF 
  1287)      5136.1  Rx     18EF1CCD  8  A1 40 57 F6 FF FF 00 00 
  1288)      5139.6  Rx     18FEF31C  8  12 2D 80 99 9E B8 2C 89 
  1289)      5140.2  Rx     18FEE81C  8  72 81 7A 03 00 00 28 51 
  1290)      5140.8  Rx     18FEE61C  8  77 31 0C 09 57 29 00 00 
  1291)      5141.3  Rx     19F0101C  8  28 00 EE 50 E9 F4 84 1B 
  1292)      5141.9  Rx     19F8021C  8  28 FC 81 B0 60 00 FF FF 
  1293)      5142.5  Rx     18EFCD1C  8  A1 09 00 00 1A F6 FF FF 
  1294)      5144.7  Rx     19F8051C  8  A0 2F 28 EE 50 E9 F4 84 
  1295)      5145.2  Rx     19F8051C  8  A1 1B 00 4D 91 EA BD A7 
  1296)      5145.8  Rx     19F8051C  8  A2 98 06 60 56 34 2B D1 
  1297)      5146.3  Rx     18EF1C8F  8  0D 70 00 82 5C 14 AC FB 
  1298)      5146.9  Rx     18EF1CCD  8  A2 00 00 00 00 00 00 00 
  1299)      5147.4  Rx     18EF1C8F  8  0D 71 FE FF 23 00 77 03 
  1300)      5148.0  Rx     18EF1C8F  8  0D 72 0C 00 96 FF C5 FF 
  1301)      5148.5  Rx     18EF1CCD  8  A3 A6 DE A1 DE 44 F6 1A 
  1302)      5149.1  Rx     19F8051C  8  A3 8C CB 02 FE 75 3A 08 
  1303)      5149.7  Rx     19F8051C  8  A4 00 00 00 00 40 00 0D 
  1304)      5150.2  Rx     19F8051C  8  A5 50 00 88 00 FC 0F 00 
  1305)      5150.8  Rx     19F8051C  8  A6 00 01 AF 02 BC 02 FF 
  1306)      5157.6  Rx     18EFCD1C  8  A1 09 00 00 F4 F5 FF FF 
  1307)      5165.9  Rx     18EF1C8F  8  0D 80 00 A2 AA 14 AD FB 
  1308)      5166.8  Rx     18EF1C8F  8  0D 81 05 00 16 00 5D 03 
  1309)      5167.9  Rx     18EF1C8F  8  0D 82 13 00 CA FF D0 FF 
  1310)      5183.4  Rx     18EFCD1C  8  A1 09 00 00 C6 F5 FF FF 
  1311)      5185.9  Rx     18EF1C8F  8  0D 90 00 BD F8 14 AD FB 
  1312)      5186.8  Rx     18EF1C8F  8  0D 91 06 00 1E 00 5E 03 
  1313)      5187.8  Rx     18EF1C8F  8  0D 92 11 00 CB FF D0 FF 
  1314)      5198.4  Rx     18EFCD1C  8  A1 09 00 00 A0 F5 FF FF 
  1315)      5205.9  Rx     18EF1C8F  8  0D A0 00 DD 46 15 AC FB 
  1316)      5206.8  Rx     18EF1C8F  8  0D A1 FE FF 18 00 64 03 
  1317)      5207.8  Rx     18EF1C8F  8  0D A2 17 00 FB FF C9 FF 
  1318)      5217.1  Rx     18EFCD1C  8  A0 00 14 00 00 00 00 00 
  1319)      5217.7  Rx     18EF1CCD  8  A0 00 14 00 AD 07 00 00 
  1320)      5218.3  Rx     18EFCD1C  8  A1 09 00 00 72 F5 FF FF 
  1321)      5225.9  Rx     18EF1C8F  8  0D B0 00 FF 94 15 AD FB 
  1322)      5226.8  Rx     18EF1C8F  8  0D B1 F0 FF 16 00 61 03 
  1323)      5227.8  Rx     18EF1C8F  8  0D B2 10 00 00 00 CA FF 
  1324)      5236.3  Rx     18EF1CCD  8  A1 40 9B F5 FF FF 00 00 
  1325)      5237.3  Rx     18EFCD1C  8  A0 00 2A 00 00 00 00 00 
  1326)      5237.9  Rx     18EF1CCD  8  A0 00 2A 00 35 06 00 00 
  1327)      5238.5  Rx     18EFCD1C  8  A1 09 00 00 4B F5 FF FF 
  1328)      5245.9  Rx     18EF1C8F  8  0D C0 00 1F E3 15 AC FB 
  1329)      5246.5  Rx     18EF1CCD  8  A2 00 00 00 00 00 00 00 
  1330)      5247.1  Rx     18EF1C8F  8  0D C1 F0 FF 17 00 6C 03 
  1331)      5247.6  Rx     18EF1CCD  8  A3 12 D9 44 D9 86 F5 4B 
  1332)      5248.1  Rx     18EF1C8F  8  0D C2 10 00 FD FF D0 FF 
  1333)      5257.0  Rx     18EFCD1C  8  A0 00 1B 00 00 00 00 00 
  1334)      5257.7  Rx     18EF1CCD  8  A0 00 1B 00 6D 1A 07 00 
  1335)      5258.3  Rx     18EFCD1C  8  A1 09 00 00 2C F5 FF FF 
  1336)      5265.9  Rx     18EF1C8F  8  0D D0 00 3D 31 16 AC FB 
  1337)      5266.8  Rx     18EF1C8F  8  0D D1 F9 FF 1F 00 66 03 
  1338)      5267.8  Rx     18EF1C8F  8  0D D2 08 00 F4 FF D7 FF 
  1339)      5277.0  Rx     18EFCD1C  8  A0 00 00 00 00 00 00 00 
  1340)      5277.7  Rx     18EF1CCD  8  A0 00 00 00 03 00 00 00 
  1341)      5278.3  Rx     18EFCD1C  8  A1 09 00 00 06 F5 FF FF 
  1342)      5285.9  Rx     18EF1C8F  8  0D E0 00 5F 7F 16 AC FB 
  1343)      5286.8  Rx     18EF1C8F  8  0D E1 EA FF 2A 00 7A 03 
  1344)      5287.8  Rx     18EF1C8F  8  0D E2 00 00 CC FF D5 FF 
  1345)      5297.6  Rx     18EFCD1C  8  A1 09 00 00 D8 F4 FF FF 
  1346)      5305.9  Rx     18EF1C8F  8  0D F0 00 7F CD 16 AD FB 
  1347)      5306.8  Rx     18EF1C8F  8  0D F1 F8 FF 1F 00 7E 03 
  1348)      5307.8  Rx     18EF1C8F  8  0D F2 EE FF BF FF DD FF 
  1349)      5317.5  Rx     18EFCD1C  8  A1 09 00 00 B2 F4 FF FF 
  1350)      5325.9  Rx     18EF1C8F  8  0D 00 00 9D 1B 17 AC FB 
  1351)      5326.8  Rx     18EF1C8F  8  0D 01 F3 FF 28 00 95 03 
  1352)      5327.8  Rx     18EF1C8F  8  0D 02 ED FF 91 FF E8 FF 
  1353)      5336.5  Rx     18EF1CCD  8  A1 40 D0 F4 FF FF 00 00 
  1354)      5339.4  Rx     18EFCD1C  8  A1 09 00 00 93 F4 FF FF 
  1355)      5345.9  Rx     18EF1C8F  8  0D 10 00 BF 69 17 AC FB 
  1356)      5346.6  Rx     18EF1CCD  8  A2 00 00 00 00 00 00 00 
  1357)      5347.1  Rx     18EF1C8F  8  0D 11 06 00 21 00 9E 03 
  1358)      5347.7  Rx     18EF1CCD  8  A3 E0 E0 BE E0 BF F4 93 
  1359)      5348.2  Rx     18EF1C8F  8  0D 12 F1 FF 93 FF FD FF 
  1360)      5358.8  Rx     18EFCD1C  8  A1 09 00 00 6C F4 FF FF 
  1361)      5365.9  Rx     18EF1C8F  8  0D 20 00 DD B7 17 AC FB 
  1362)      5366.8  Rx     18EF1C8F  8  0D 21 F7 FF 23 00 A9 03 
  1363)      5367.8  Rx     18EF1C8F  8  0D 22 F0 FF 75 FF 0D 00 
  1364)      5380.3  Rx     18EF8F1C  4  01 80 3E 00 
  1365)      5380.8  Rx     18EF1C8F  4  01 3F 80 00 
  1366)      5382.9  Rx     18EFCD1C  8  A1 09 00 00 4E F4 FF FF 
  1367)      5385.9  Rx     18EF1C8F  8  0D 30 00 FF 05 18 AC FB 
  1368)      5386.8  Rx     18EF1C8F  8  0D 31 03 00 18 00 A2 03 
  1369)      5387.8  Rx     18EF1C8F  8  0D 32 E4 FF 92 FF 11 00 
  1370)      5397.7  Rx     18EFCD1C  8  A1 09 00 00 27 F4 FF FF 
  1371)      5405.8  Rx     18EF1C8F  8  0D 40 00 1F 54 18 AD FB 
  1372)      5406.8  Rx     18EF1C8F  8  0D 41 02 00 18 00 B0 03 
  1373)      5407.8  Rx     18EF1C8F  8  0D 42 EE FF 99 FF 19 00 
  1374)      5417.0  Rx     18EFCD1C  8  A0 00 14 00 00 00 00 00 
  1375)      5417.7  Rx     18EF1CCD  8  A0 00 14 00 AC 07 00 00 
  1376)      5418.2  Rx     18EFCD1C  8  A1 09 00 00 09 F4 FF FF 
  1377)      5425.8  Rx     18EF1C8F  8  0D 50 00 3D A2 18 AC FB 
  1378)      5426.8  Rx     18EF1C8F  8  0D 51 01 00 15 00 B7 03 
  1379)      5427.7  Rx     18EF1C8F  8  0D 52 F6 FF C4 FF 27 00 
  1380)      5436.6  Rx     18EF1CCD  8  A1 40 27 F4 FF FF 00 00 
  1381)      5437.2  Rx     18EFCD1C  8  A0 00 2A 00 00 00 00 00 
  1382)      5437.9  Rx     18EF1CCD  8  A0 00 2A 00 46 06 00 00 
  1383)      5438.5  Rx     18EFCD1C  8  A1 09 00 00 E2 F3 FF FF 
  1384)      5445.9  Rx     18EF1C8F  8  0D 60 00 5F F0 18 AC FB 
  1385)      5446.7  Rx     18EF1CCD  8  A2 00 00 00 00 00 00 00 
  1386)      5447.2  Rx     18EF1C8F  8  0D 61 02 00 0E 00 AC 03 
  1387)      5447.8  Rx     18EF1C8F  8  0D 62 F7 FF E2 FF 2F 00 
  1388)      5448.3  Rx     18EF1CCD  8  A3 DB DE E7 DE 16 F4 E2 
  1389)      5457.0  Rx     18EFCD1C  8  A0 00 1B 00 00 00 00 00 
  1390)      5457.7  Rx     18EF1CCD  8  A0 00 1B 00 5D 8A 05 00 
  1391)      5458.3  Rx     18EFCD1C  8  A1 09 00 00 C3 F3 FF FF 
  1392)      5465.8  Rx     18EF1C8F  8  0D 70 00 7F 3E 19 AD FB 
  1393)      5466.7  Rx     18EF1C8F  8  0D 71 04 00 0F 00 9F 03 
  1394)      5467.8  Rx     18EF1C8F  8  0D 72 FE FF F6 FF 24 00 
  1395)      5476.9  Rx     18EFCD1C  8  A0 00 00 00 00 00 00 00 
  1396)      5477.7  Rx     18EF1CCD  8  A0 00 00 00 03 00 00 00 
  1397)      5478.3  Rx     18EFCD1C  8  A1 09 00 00 9D F3 FF FF 
  1398)      5485.8  Rx     18EF1C8F  8  0D 80 00 9F 8C 19 AC FB 
  1399)      5486.7  Rx     18EF1C8F  8  0D 81 09 00 1D 00 8E 03 
  1400)      5487.7  Rx     18EF1C8F  8  0D 82 07 00 12 00 1F 00 
  1401)      5497.6  Rx     18EFCD1C  8  A1 09 00 00 7E F3 FF FF 
  1402)      5505.8  Rx     18EF1C8F  8  0D 90 00 BD DA 19 AC FB 
  1403)      5506.7  Rx     18EF1C8F  8  0D 91 FE FF 24 00 71 03 
  1404)      5507.7  Rx     18EF1C8F  8  0D 92 12 00 FC FF 23 00 
  1405)      5517.4  Rx     18EFCD1C  8  A1 09 00 00 58 F3 FF FF 
  1406)      5525.8  Rx     18EF1C8F  8  0D A0 00 DD 28 1A AD FB 
  1407)      5526.7  Rx     18EF1C8F  8  0D A1 FF FF 12 00 53 03 
  1408)      5527.7  Rx     18EF1C8F  8  0D A2 1E 00 F7 FF 2B 00 
  1409)      5536.8  Rx     18EF1CCD  8  A1 40 79 F3 FF FF 00 00 
  1410)      5538.1  Rx     18EFCD1C  8  A1 09 00 00 39 F3 FF FF 
  1411)      5545.8  Rx     18EF1C8F  8  0D B0 00 FF 76 1A AC FB 
  1412)      5546.7  Rx     18EF1C8F  8  0D B1 01 00 14 00 54 03 
  1413)      5547.3  Rx     18EF1CCD  8  A2 00 00 00 00 00 00 00 
  1414)      5547.8  Rx     18EF1C8F  8  0D B2 32 00 CF FF 34 00 
  1415)      5548.4  Rx     18EF1CCD  8  A3 0F DC 03 DC 67 F3 39 
  1416)      5558.9  Rx     18EFCD1C  8  A1 09 00 00 13 F3 FF FF 
  1417)      5565.8  Rx     18EF1C8F  8  0D C0 00 1D C5 1A AC FB 
  1418)      5566.7  Rx     18EF1C8F  8  0D C1 09 00 14 00 47 03 
  1419)      5567.7  Rx     18EF1C8F  8  0D C2 43 00 DC FF 4E 00 
  1420)      5581.3  Rx     18EFCD1C  8  A1 09 00 00 F4 F2 FF FF 
  1421)      5585.8  Rx     18EF1C8F  8  0D D0 00 3D 13 1B AD FB 
  1422)      5586.7  Rx     18EF1C8F  8  0D D1 0D 00 21 00 43 03 
  1423)      5587.7  Rx     18EF1C8F  8  0D D2 3F 00 BF FF 6D 00 
  1424)      5597.6  Rx     18EFCD1C  8  A1 09 00 00 CE F2 FF FF 
  1425)      5605.8  Rx     18EF1C8F  8  0D E0 00 5D 61 1B AD FB 
  1426)      5606.7  Rx     18EF1C8F  8  0D E1 18 00 17 00 46 03 
  1427)      5607.7  Rx     18EF1C8F  8  0D E2 2E 00 D2 FF 78 00 
  1428)      5616.9  Rx     18EFCD1C  8  A0 00 14 00 00 00 00 00 
  1429)      5617.6  Rx     18EF1CCD  8  A0 00 14 00 AD 07 00 00 
  1430)      5618.2  Rx     18EFCD1C  8  A1 09 00 00 AF F2 FF FF 
  1431)      5625.8  Rx     18EF1C8F  8  0D F0 00 7F AF 1B AC FB 
  1432)      5626.7  Rx     18EF1C8F  8  0D F1 19 00 15 00 5F 03 
  1433)      5627.7  Rx     18EF1C8F  8  0D F2 19 00 E0 FF 73 00 
  1434)      5636.9  Rx     18EFCD1C  8  A0 00 2A 00 00 00 00 00 
  1435)      5637.5  Rx     18EF1CCD  8  A1 40 CD F2 FF FF 00 00 
  1436)      5638.0  Rx     18EF1CCD  8  A0 00 2A 00 42 06 00 00 
  1437)      5638.6  Rx     18EFCD1C  8  A1 09 00 00 89 F2 FF FF 
  1438)      5645.8  Rx     18EF1C8F  8  0D 00 00 9F FD 1B AD FB 
  1439)      5646.7  Rx     18EF1C8F  8  0D 01 17 00 12 00 8B 03 
  1440)      5647.3  Rx     18EF1CCD  8  A2 00 00 00 00 00 00 00 
  1441)      5647.8  Rx     18EF1C8F  8  0D 02 18 00 05 00 71 00 
  1442)      5648.4  Rx     18EF1CCD  8  A3 FE DC 09 DD BD F2 89 
  1443)      5656.9  Rx     18EFCD1C  8  A0 00 1B 00 00 00 00 00 
  1444)      5657.6  Rx     18EF1CCD  8  A0 00 1B 00 CF 19 06 00 
  1445)      5658.2  Rx     18EFCD1C  8  A1 09 00 00 6A F2 FF FF 
  1446)      5665.7  Rx     18EF1C8F  8  0D 10 00 BD 4B 1C AD FB 
  1447)      5666.7  Rx     18EF1C8F  8  0D 11 1B 00 0E 00 9C 03 
  1448)      5667.7  Rx     18EF1C8F  8  0D 12 14 00 29 00 70 00 
  1449)      5676.9  Rx     18EFCD1C  8  A0 00 00 00 00 00 00 00 
  1450)      5677.5  Rx     18EF1CCD  8  A0 00 00 00 03 00 00 00 
  1451)      5678.1  Rx     18EFCD1C  8  A1 09 00 00 44 F2 FF FF 
  1452)      5685.8  Rx     18EF1C8F  8  0D 20 00 DF 99 1C AD FB 
  1453)      5686.7  Rx     18EF1C8F  8  0D 21 1B 00 1D 00 A7 03 
  1454)      5687.7  Rx     18EF1C8F  8  0D 22 1A 00 37 00 69 00 
  1455)      5697.5  Rx     18EFCD1C  8  A1 09 00 00 25 F2 FF FF 
  1456)      5705.8  Rx     18EF1C8F  8  0D 30 00 FD E7 1C AD FB 
  1457)      5706.7  Rx     18EF1C8F  8  0D 31 0E 00 1F 00 A1 03 
  1458)      5707.7  Rx     18EF1C8F  8  0D 32 1A 00 62 00 68 00 
  1459)      5717.4  Rx     18EFCD1C  8  A1 09 00 00 FE F1 FF FF 
  1460)      5725.7  Rx     18EF1C8F  8  0D 40 00 1D 36 1D AD FB 
  1461)      5726.7  Rx     18EF1C8F  8  0D 41 04 00 2C 00 A0 03 
  1462)      5727.7  Rx     18EF1C8F  8  0D 42 17 00 61 00 6A 00 
  1463)      5737.2  Rx     18EF1CCD  8  A1 40 1F F2 FF FF 00 00 
  1464)      5737.8  Rx     18EFCD1C  8  A1 09 00 00 E0 F1 FF FF 
  1465)      5745.8  Rx     18EF1C8F  8  0D 50 00 3D 84 1D AD FB 
  1466)      5746.7  Rx     18EF1C8F  8  0D 51 05 00 25 00 8E 03 
  1467)      5747.3  Rx     18EF1CCD  8  A2 00 00 00 00 00 00 00 
  1468)      5747.9  Rx     18EF1C8F  8  0D 52 11 00 82 00 67 00 
  1469)      5748.4  Rx     18EF1CCD  8  A3 59 DC 4C DC 0F F2 E0 
  1470)      5757.8  Rx     18EFCD1C  8  A1 09 00 00 B9 F1 FF FF 
  1471)      5765.7  Rx     18EF1C8F  8  0D 60 00 5D D2 1D AD FB 
  1472)      5766.7  Rx     18EF1C8F  8  0D 61 FA FF 2D 00 93 03 
  1473)      5767.7  Rx     18EF1C8F  8  0D 62 18 00 68 00 62 00 
  1474)      5782.4  Rx     18EFCD1C  8  A1 09 00 00 9B F1 FF FF 
  1475)      5785.7  Rx     18EF1C8F  8  0D 70 00 7D 20 1E AD FB 
  1476)      5786.7  Rx     18EF1C8F  8  0D 71 FC FF 24 00 88 03 
  1477)      5787.7  Rx     18EF1C8F  8  0D 72 26 00 61 00 6A 00 
  1478)      5798.8  Rx     18EFCD1C  8  A1 09 00 00 74 F1 FF FF 
  1479)      5805.8  Rx     18EF1C8F  8  0D 80 00 9D 6E 1E AD FB 
  1480)      5806.7  Rx     18EF1C8F  8  0D 81 FB FF 25 00 83 03 
  1481)      5807.7  Rx     18EF1C8F  8  0D 82 24 00 35 00 78 00 
  1482)      5816.9  Rx     18EFCD1C  8  A0 00 14 00 00 00 00 00 
  1483)      5817.6  Rx     18EF1CCD  8  A0 00 14 00 AC 07 00 00 
  1484)      5818.2  Rx     18EFCD1C  8  A1 09 00 00 56 F1 FF FF 
  1485)      5825.7  Rx     18EF1C8F  8  0D 90 00 BD BC 1E AD FB 
  1486)      5826.7  Rx     18EF1C8F  8  0D 91 00 00 25 00 8B 03 
  1487)      5827.7  Rx     18EF1C8F  8  0D 92 20 00 36 00 77 00 
  1488)      5836.9  Rx     18EFCD1C  8  A0 00 2A 00 00 00 00 00 
  1489)      5837.5  Rx     18EF1CCD  8  A1 40 75 F1 FF FF 00 00 
  1490)      5838.1  Rx     18EFCD1C  8  A1 09 00 00 2F F1 FF FF 
  1491)      5838.7  Rx     18EF1CCD  8  A0 00 2A 00 3F 06 00 00 
  1492)      5845.7  Rx     18EF1C8F  8  0D A0 00 DF 0A 1F AD FB 
  1493)      5846.7  Rx     18EF1C8F  8  0D A1 00 00 19 00 82 03 
  1494)      5847.5  Rx     18EF1CCD  8  A2 00 00 00 00 00 00 00 
  1495)      5848.0  Rx     18EF1C8F  8  0D A2 19 00 24 00 7C 00 
  1496)      5848.6  Rx     18EF1CCD  8  A3 DC DB EA DB 63 F1 2F 
  1497)      5856.9  Rx     18EFCD1C  8  A0 00 1B 00 00 00 00 00 
  1498)      5857.3  Rx     18EFCD1C  4  01 8A 2F 00 
  1499)      5857.9  Rx     18EF1CCD  8  A0 00 1B 00 4B 3D 06 00 
  1500)      5858.4  Rx     18EFCD1C  8  A1 09 00 00 10 F1 FF FF 
  1501)      5858.8  Rx     18EF1CCD  4  01 30 8A 00 
  1502)      5865.8  Rx     18EF1C8F  8  0D B0 00 02 59 1F AD FB 
  1503)      5866.7  Rx     18EF1C8F  8  0D B1 0B 00 17 00 83 03 
  1504)      5867.7  Rx     18EF1C8F  8  0D B2 16 00 19 00 83 00 
  1505)      5876.9  Rx     18EFCD1C  8  A0 00 00 00 00 00 00 00 
  1506)      5877.7  Rx     18EF1CCD  8  A0 00 00 00 03 00 00 00 
  1507)      5878.2  Rx     18EFCD1C  8  A1 09 00 00 EA F0 FF FF 
  1508)      5885.7  Rx     18EF1C8F  8  0D C0 00 1D A7 1F AD FB 
  1509)      5886.6  Rx     18EF1C8F  8  0D C1 0D 00 13 00 84 03 
  1510)      5887.7  Rx     18EF1C8F  8  0D C2 1A 00 2E 00 81 00 
