;$FILEVERSION=1.1
;$STARTTIME=46287.6164062384
;
;   Start time: 9/22/2026 14:47:37.499.0
;   Generated by PCAN-View v5.3.3.958
;
;   Message Number
;   |         Time Offset (ms)
;   |         |        Type
;   |         |        |        ID (hex)
;   |         |        |        |     Data Length
;   |         |        |        |     |   Data Bytes (hex) ...
;   |         |        |        |     |   |
;---+--   ----+----  --+--  ----+---  +  -+ -- -- -- -- -- -- --
     1)         0.1  Rx     18EF1C8F  8  0D 70 00 95 B6 58 6C FB 
     2)         1.0  Rx     18EF1C8F  8  0D 71 0B 00 1F 00 81 03 
     3)         1.6  Rx     18EFCD1C  8  A0 00 14 00 00 00 00 00 
     4)         2.2  Rx     18EF1C8F  8  0D 72 16 00 18 00 0F 00 
     5)         2.8  Rx     18EF1CCD  8  A0 00 14 00 B3 07 00 00 
     6)        19.2  Rx     18EFCD1C  8  A0 00 2A 00 00 00 00 00 
     7)        19.9  Rx     18EF1CCD  8  A0 00 2A 00 4A 06 00 00 
     8)        20.4  Rx     18EF1C8F  8  0D 80 00 B5 04 59 6C FB 
     9)        21.1  Rx     18EF1C8F  8  0D 81 F0 FF 22 00 82 03 
    10)        22.1  Rx     18EF1C8F  8  0D 82 15 00 02 00 0E 00 
    11)        35.7  Rx     18EFCD1C  8  A0 00 1B 00 00 00 00 00 
    12)        36.4  Rx     18EF1CCD  8  A0 00 1B 00 00 00 00 00 
    13)        40.1  Rx     18EF1C8F  8  0D 90 00 D5 52 59 6C FB 
    14)        41.0  Rx     18EF1C8F  8  0D 91 08 00 1D 00 85 03 
    15)        42.1  Rx     18EF1C8F  8  0D 92 18 00 10 00 0D 00 
    16)        55.8  Rx     18EFCD1C  8  A0 00 00 00 00 00 00 00 
    17)        56.5  Rx     18EF1CCD  8  A0 00 00 00 01 00 00 00 
    18)        57.1  Rx     18EF1CCD  8  A2 00 00 00 00 00 00 00 
    19)        60.1  Rx     18EF1C8F  8  0D A0 00 F5 A0 59 6C FB 
    20)        61.1  Rx     18EF1C8F  8  0D A1 F1 FF 23 00 83 03 
    21)        62.0  Rx     18EF1C8F  8  0D A2 19 00 FE FF 10 00 
    22)        77.2  Rx     18EF1CCD  8  A3 00 00 00 00 00 00 00 
    23)        80.2  Rx     18EF1C8F  8  0D B0 00 17 EF 59 6C FB 
    24)        81.1  Rx     18EF1C8F  8  0D B1 02 00 1F 00 84 03 
    25)        82.1  Rx     18EF1C8F  8  0D B2 18 00 0F 00 0F 00 
    26)        94.9  Rx     18EFCD1C  8  A1 01 00 00 00 00 00 00 
    27)        97.2  Rx     18EF1CCD  8  A1 40 00 00 00 00 00 00 
    28)       100.1  Rx     18EF1C8F  8  0D C0 00 35 3D 5A 6D FB 
    29)       101.1  Rx     18EF1C8F  8  0D C1 FA FF 1F 00 80 03 
    30)       102.1  Rx     18EF1C8F  8  0D C2 18 00 02 00 11 00 
    31)       120.1  Rx     18EF1C8F  8  0D D0 00 55 8B 5A 6D FB 
    32)       121.1  Rx     18EF1C8F  8  0D D1 FD FF 22 00 84 03 
    33)       122.0  Rx     18EF1C8F  8  0D D2 17 00 0C 00 0E 00 
    34)       140.2  Rx     18EF1C8F  8  0D E0 00 75 D9 5A 6D FB 
    35)       141.0  Rx     18EF1C8F  8  0D E1 FF FF 1E 00 83 03 
    36)       142.1  Rx     18EF1C8F  8  0D E2 1A 00 07 00 10 00 
    37)       157.4  Rx     18EF1CCD  8  A2 00 00 00 00 00 00 00 
    38)       160.1  Rx     18EF1C8F  8  0D F0 00 95 27 5B 6D FB 
    39)       161.1  Rx     18EF1C8F  8  0D F1 F6 FF 23 00 85 03 
    40)       162.1  Rx     18EF1C8F  8  0D F2 17 00 09 00 0D 00 
    41)       177.4  Rx     18EF1CCD  8  A3 00 00 00 00 00 00 00 
    42)       180.2  Rx     18EF1C8F  8  0D 00 00 B5 75 5B 6D FB 
    43)       181.1  Rx     18EF1C8F  8  0D 01 03 00 1D 00 81 03 
    44)       182.1  Rx     18EF1C8F  8  0D 02 17 00 10 00 11 00 
    45)       197.5  Rx     18EF1CCD  8  A1 40 00 00 00 00 00 00 
    46)       199.9  Rx     18EFCD1C  8  A0 00 14 00 00 00 00 00 
    47)       200.4  Rx     18EF1C8F  8  0D 10 00 D5 C3 5B 6D FB 
    48)       201.0  Rx     18EF1CCD  8  A0 00 14 00 B3 07 00 00 
    49)       201.6  Rx     18EF1C8F  8  0D 11 F5 FF 23 00 86 03 
    50)       202.1  Rx     18EF1C8F  8  0D 12 14 00 08 00 0C 00 
    51)       216.5  Rx     18EFCD1C  8  A0 00 2A 00 00 00 00 00 
    52)       217.1  Rx     18EF1CCD  8  A0 00 2A 00 47 06 00 00 
    53)       220.2  Rx     18EF1C8F  8  0D 20 00 F7 11 5C 6D FB 
    54)       221.1  Rx     18EF1C8F  8  0D 21 07 00 1A 00 82 03 
    55)       222.1  Rx     18EF1C8F  8  0D 22 17 00 12 00 10 00 
    56)       234.9  Rx     18EFCD1C  8  A0 00 1B 00 00 00 00 00 
    57)       235.6  Rx     18EF1CCD  8  A0 00 1B 00 00 00 00 00 
    58)       240.2  Rx     18EF1C8F  8  0D 30 00 15 60 5C 6C FB 
    59)       241.1  Rx     18EF1C8F  8  0D 31 F3 FF 23 00 85 03 
    60)       242.1  Rx     18EF1C8F  8  0D 32 14 00 02 00 0E 00 
    61)       256.0  Rx     18EFCD1C  8  A0 00 00 00 00 00 00 00 
    62)       256.6  Rx     18EF1CCD  8  A0 00 00 00 01 00 00 00 
    63)       257.7  Rx     18EF1CCD  8  A2 00 00 00 00 00 00 00 
    64)       260.2  Rx     18EF1C8F  8  0D 40 00 35 AE 5C 6D FB 
    65)       261.1  Rx     18EF1C8F  8  0D 41 09 00 19 00 82 03 
    66)       262.1  Rx     18EF1C8F  8  0D 42 15 00 14 00 0F 00 
    67)       277.7  Rx     18EF1CCD  8  A3 00 00 00 00 00 00 00 
    68)       280.2  Rx     18EF1C8F  8  0D 50 00 55 FC 5C 6D FB 
    69)       281.1  Rx     18EF1C8F  8  0D 51 F1 FF 26 00 83 03 
    70)       282.1  Rx     18EF1C8F  8  0D 52 16 00 02 00 0E 00 
    71)       294.9  Rx     18EFCD1C  8  A1 01 00 00 00 00 00 00 
    72)       297.7  Rx     18EF1CCD  8  A1 40 00 00 00 00 00 00 
    73)       300.2  Rx     18EF1C8F  8  0D 60 00 75 4A 5D 6D FB 
    74)       301.1  Rx     18EF1C8F  8  0D 61 0A 00 1C 00 84 03 
    75)       302.1  Rx     18EF1C8F  8  0D 62 17 00 15 00 0D 00 
    76)       320.2  Rx     18EF1C8F  8  0D 70 00 95 98 5D 6D FB 
    77)       321.1  Rx     18EF1C8F  8  0D 71 F3 FF 23 00 82 03 
    78)       322.1  Rx     18EF1C8F  8  0D 72 16 00 01 00 0F 00 
    79)       340.2  Rx     18EF1C8F  8  0D 80 00 B5 E6 5D 6D FB 
    80)       341.1  Rx     18EF1C8F  8  0D 81 08 00 1F 00 86 03 
    81)       342.2  Rx     18EF1C8F  8  0D 82 18 00 10 00 0F 00 
    82)       357.9  Rx     18EF1CCD  8  A2 00 00 00 00 00 00 00 
    83)       360.2  Rx     18EF1C8F  8  0D 90 00 D5 34 5E 6D FB 
    84)       361.2  Rx     18EF1C8F  8  0D 91 F3 FF 1E 00 7E 03 
    85)       362.1  Rx     18EF1C8F  8  0D 92 18 00 04 00 0F 00 
    86)       377.9  Rx     18EF1CCD  8  A3 00 00 00 00 00 00 00 
    87)       380.2  Rx     18EF1C8F  8  0D A0 00 F5 82 5E 6D FB 
    88)       381.1  Rx     18EF1C8F  8  0D A1 00 00 22 00 87 03 
    89)       382.2  Rx     18EF1C8F  8  0D A2 1A 00 0D 00 0F 00 
    90)       398.0  Rx     18EF1CCD  8  A1 40 00 00 00 00 00 00 
    91)       399.7  Rx     18EFCD1C  8  A0 00 14 00 00 00 00 00 
    92)       400.3  Rx     18EF1C8F  8  0D B0 00 17 D1 5E 6D FB 
    93)       400.8  Rx     18EF1CCD  8  A0 00 14 00 B3 07 00 00 
    94)       401.4  Rx     18EF1C8F  8  0D B1 F9 FF 1D 00 7F 03 
    95)       402.1  Rx     18EF1C8F  8  0D B2 18 00 05 00 11 00 
    96)       415.8  Rx     18EFCD1C  8  A0 00 2A 00 00 00 00 00 
    97)       416.4  Rx     18EF1CCD  8  A0 00 2A 00 42 06 00 00 
    98)       420.3  Rx     18EF1C8F  8  0D C0 00 35 1F 5F 6D FB 
    99)       421.2  Rx     18EF1C8F  8  0D C1 FC FF 23 00 89 03 
   100)       422.2  Rx     18EF1C8F  8  0D C2 16 00 08 00 0E 00 
   101)       435.0  Rx     18EFCD1C  8  A0 00 1B 00 00 00 00 00 
   102)       435.7  Rx     18EF1CCD  8  A0 00 1B 00 00 00 00 00 
   103)       440.2  Rx     18EF1C8F  8  0D D0 00 55 6D 5F 6D FB 
   104)       441.2  Rx     18EF1C8F  8  0D D1 00 00 1C 00 80 03 
   105)       442.2  Rx     18EF1C8F  8  0D D2 19 00 09 00 11 00 
   106)       455.2  Rx     18EFCD1C  8  A0 00 00 00 00 00 00 00 
   107)       455.8  Rx     18EF1CCD  8  A0 00 00 00 01 00 00 00 
   108)       458.1  Rx     18EF1CCD  8  A2 00 00 00 00 00 00 00 
   109)       460.2  Rx     18EF1C8F  8  0D E0 00 75 BB 5F 6D FB 
   110)       461.2  Rx     18EF1C8F  8  0D E1 F5 FF 22 00 86 03 
   111)       462.1  Rx     18EF1C8F  8  0D E2 16 00 0B 00 0D 00 
   112)       478.2  Rx     18EF1CCD  8  A3 00 00 00 00 00 00 00 
   113)       480.3  Rx     18EF1C8F  8  0D F0 00 97 09 60 6D FB 
   114)       481.1  Rx     18EF1C8F  8  0D F1 07 00 1E 00 80 03 
   115)       482.2  Rx     18EF1C8F  8  0D F2 18 00 11 00 10 00 
   116)       495.0  Rx     18EFCD1C  8  A1 01 00 00 00 00 00 00 
   117)       498.2  Rx     18EF1CCD  8  A1 40 00 00 00 00 00 00 
   118)       500.2  Rx     18EF1C8F  8  0D 00 00 B5 57 60 6D FB 
   119)       501.2  Rx     18EF1C8F  8  0D 01 F3 FF 23 00 88 03 
   120)       502.2  Rx     18EF1C8F  8  0D 02 17 00 06 00 0D 00 
   121)       520.3  Rx     18EF1C8F  8  0D 10 00 D5 A5 60 6D FB 
   122)       521.2  Rx     18EF1C8F  8  0D 11 08 00 1E 00 81 03 
   123)       522.2  Rx     18EF1C8F  8  0D 12 16 00 15 00 0F 00 
   124)       540.2  Rx     18EF1C8F  8  0D 20 00 F5 F3 60 6D FB 
   125)       541.1  Rx     18EF1C8F  8  0D 21 F2 FF 23 00 85 03 
   126)       542.2  Rx     18EF1C8F  8  0D 22 14 00 02 00 0C 00 
   127)       558.4  Rx     18EF1CCD  8  A2 00 00 00 00 00 00 00 
   128)       560.3  Rx     18EF1C8F  8  0D 30 00 15 42 61 6D FB 
   129)       561.2  Rx     18EF1C8F  8  0D 31 0B 00 1C 00 81 03 
   130)       562.2  Rx     18EF1C8F  8  0D 32 17 00 14 00 0E 00 
   131)       578.4  Rx     18EF1CCD  8  A3 00 00 00 00 00 00 00 
   132)       580.3  Rx     18EF1C8F  8  0D 40 00 35 90 61 6D FB 
   133)       581.2  Rx     18EF1C8F  8  0D 41 F2 FF 25 00 83 03 
   134)       582.2  Rx     18EF1C8F  8  0D 42 17 00 00 00 10 00 
   135)       598.5  Rx     18EFCD1C  8  A0 00 14 00 00 00 00 00 
   136)       599.1  Rx     18EF1CCD  8  A1 40 00 00 00 00 00 00 
   137)       599.6  Rx     18EF1CCD  8  A0 00 14 00 B2 07 00 00 
   138)       600.3  Rx     18EF1C8F  8  0D 50 00 57 DE 61 6D FB 
   139)       601.2  Rx     18EF1C8F  8  0D 51 06 00 1C 00 82 03 
   140)       602.2  Rx     18EF1C8F  8  0D 52 18 00 12 00 0B 00 
   141)       615.0  Rx     18EFCD1C  8  A0 00 2A 00 00 00 00 00 
   142)       615.7  Rx     18EF1CCD  8  A0 00 2A 00 43 06 00 00 
   143)       620.3  Rx     18EF1C8F  8  0D 60 00 75 2C 62 6D FB 
   144)       621.2  Rx     18EF1C8F  8  0D 61 F5 FF 24 00 84 03 
   145)       622.2  Rx     18EF1C8F  8  0D 62 16 00 01 00 0C 00 
   146)       635.1  Rx     18EFCD1C  8  A0 00 1B 00 00 00 00 00 
   147)       635.7  Rx     18EF1CCD  8  A0 00 1B 00 00 00 00 00 
   148)       640.3  Rx     18EF1C8F  8  0D 70 00 95 7A 62 6D FB 
   149)       641.2  Rx     18EF1C8F  8  0D 71 03 00 20 00 85 03 
   150)       642.2  Rx     18EF1C8F  8  0D 72 18 00 12 00 10 00 
   151)       655.0  Rx     18EFCD1C  8  A0 00 00 00 00 00 00 00 
   152)       655.7  Rx     18EF1CCD  8  A0 00 00 00 01 00 00 00 
   153)       658.6  Rx     18EF1CCD  8  A2 00 00 00 00 00 00 00 
   154)       660.3  Rx     18EF1C8F  8  0D 80 00 B7 C8 62 6D FB 
   155)       661.2  Rx     18EF1C8F  8  0D 81 F9 FF 21 00 82 03 
   156)       662.2  Rx     18EF1C8F  8  0D 82 19 00 02 00 14 00 
   157)       678.7  Rx     18EF1CCD  8  A3 00 00 00 00 00 00 00 
   158)       680.3  Rx     18EF1C8F  8  0D 90 00 D2 16 63 6D FB 
   159)       681.2  Rx     18EF1C8F  8  0D 91 00 00 21 00 88 03 
   160)       682.2  Rx     18EF1C8F  8  0D 92 14 00 0F 00 0E 00 
   161)       696.5  Rx     18EFCD1C  8  A1 01 00 00 00 00 00 00 
   162)       698.7  Rx     18EF1CCD  8  A1 40 00 00 00 00 00 00 
   163)       700.3  Rx     18EF1C8F  8  0D A0 00 F5 64 63 6D FB 
   164)       701.2  Rx     18EF1C8F  8  0D A1 FA FF 1E 00 7D 03 
   165)       702.2  Rx     18EF1C8F  8  0D A2 18 00 07 00 0F 00 
   166)       720.3  Rx     18EF1C8F  8  0D B0 00 15 B3 63 6D FB 
   167)       721.2  Rx     18EF1C8F  8  0D B1 F9 FF 24 00 8A 03 
   168)       722.2  Rx     18EF1C8F  8  0D B2 17 00 0A 00 0E 00 
   169)       740.3  Rx     18EF1C8F  8  0D C0 00 35 01 64 6D FB 
   170)       741.2  Rx     18EF1C8F  8  0D C1 03 00 1D 00 7E 03 
   171)       742.2  Rx     18EF1C8F  8  0D C2 17 00 0B 00 10 00 
   172)       758.9  Rx     18EF1CCD  8  A2 00 00 00 00 00 00 00 
   173)       760.3  Rx     18EF1C8F  8  0D D0 00 55 4F 64 6D FB 
   174)       761.2  Rx     18EF1C8F  8  0D D1 F7 FF 24 00 88 03 
   175)       762.2  Rx     18EF1C8F  8  0D D2 13 00 07 00 0C 00 
   176)       778.9  Rx     18EF1CCD  8  A3 00 00 00 00 00 00 00 
   177)       780.3  Rx     18EF1C8F  8  0D E0 00 75 9D 64 6E FB 
   178)       781.2  Rx     18EF1C8F  8  0D E1 09 00 1C 00 81 03 
   179)       782.2  Rx     18EF1C8F  8  0D E2 17 00 0F 00 10 00 
   180)       799.0  Rx     18EF1CCD  8  A1 40 00 00 00 00 00 00 
   181)       800.3  Rx     18EF1C8F  8  0D F0 00 95 EB 64 6E FB 
   182)       801.2  Rx     18EF1C8F  8  0D F1 F1 FF 23 00 88 03 
   183)       801.8  Rx     18EFCD1C  8  A0 00 14 00 00 00 00 00 
   184)       802.3  Rx     18EF1C8F  8  0D F2 17 00 06 00 0B 00 
   185)       802.9  Rx     18EF1CCD  8  A0 00 14 00 B3 07 00 00 
   186)       815.6  Rx     18EFCD1C  8  A0 00 2A 00 00 00 00 00 
   187)       816.0  Rx     18EFCD1C  4  01 52 52 00 
   188)       816.6  Rx     18EF1CCD  8  A0 00 2A 00 47 06 00 00 
   189)       817.0  Rx     18EF1CCD  4  01 53 52 00 
   190)       820.3  Rx     18EF1C8F  8  0D 00 00 B5 39 65 6D FB 
   191)       821.2  Rx     18EF1C8F  8  0D 01 0B 00 1C 00 83 03 
   192)       822.2  Rx     18EF1C8F  8  0D 02 16 00 16 00 0E 00 
   193)       835.0  Rx     18EFCD1C  8  A0 00 1B 00 00 00 00 00 
   194)       835.7  Rx     18EF1CCD  8  A0 00 1B 00 00 00 00 00 
   195)       840.3  Rx     18EF1C8F  8  0D 10 00 D5 87 65 6E FB 
   196)       841.2  Rx     18EF1C8F  8  0D 11 F3 FF 23 00 85 03 
   197)       842.2  Rx     18EF1C8F  8  0D 12 15 00 05 00 10 00 
   198)       855.1  Rx     18EFCD1C  8  A0 00 00 00 00 00 00 00 
   199)       855.7  Rx     18EF1CCD  8  A0 00 00 00 01 00 00 00 
   200)       859.1  Rx     18EF1CCD  8  A2 00 00 00 00 00 00 00 
   201)       860.3  Rx     18EF1C8F  8  0D 20 00 F5 D5 65 6E FB 
   202)       861.2  Rx     18EF1C8F  8  0D 21 0B 00 1D 00 83 03 
   203)       862.2  Rx     18EF1C8F  8  0D 22 18 00 16 00 11 00 
   204)       879.2  Rx     18EF1CCD  8  A3 00 00 00 00 00 00 00 
   205)       880.3  Rx     18EF1C8F  8  0D 30 00 17 24 66 6E FB 
   206)       881.2  Rx     18EF1C8F  8  0D 31 F1 FF 21 00 83 03 
   207)       882.2  Rx     18EF1C8F  8  0D 32 14 00 00 00 12 00 
   208)       895.6  Rx     18EFCD1C  8  A1 01 00 00 00 00 00 00 
   209)       899.2  Rx     18EF1CCD  8  A1 40 00 00 00 00 00 00 
   210)       900.3  Rx     18EF1C8F  8  0D 40 00 35 72 66 6E FB 
   211)       901.2  Rx     18EF1C8F  8  0D 41 09 00 20 00 84 03 
   212)       902.2  Rx     18EF1C8F  8  0D 42 16 00 12 00 0F 00 
   213)       917.7  Rx     18FEF31C  8  B4 2B 80 99 12 C7 2C 89 
   214)       918.3  Rx     18FEE81C  8  33 8A 01 00 00 00 2C 51 
   215)       918.8  Rx     18FEE61C  8  97 2F 0C 09 57 29 00 00 
   216)       919.4  Rx     19F8021C  8  E9 FC 70 BC 00 00 FF FF 
   217)       920.3  Rx     18EF1C8F  8  0D 50 00 55 C0 66 6E FB 
   218)       921.2  Rx     18EF1C8F  8  0D 51 F5 FF 23 00 84 03 
   219)       922.2  Rx     18EF1C8F  8  0D 52 17 00 00 00 0F 00 
   220)       922.8  Rx     19F8051C  8  A0 2F E9 EE 50 E9 DD 73 
   221)       923.3  Rx     19F8051C  8  A1 1B C0 A9 0B 54 6C A7 
   222)       923.9  Rx     19F8051C  8  A2 98 06 60 9B 7E C2 2E 
   223)       924.4  Rx     19F8051C  8  A3 90 CB 02 55 03 41 08 
   224)       925.0  Rx     19F8051C  8  A4 00 00 00 00 40 00 0C 
   225)       925.6  Rx     19F8051C  8  A5 5E 00 C0 00 FC 0F 00 
   226)       926.2  Rx     19F8051C  8  A6 00 01 AF 02 BC 02 FF 
   227)       940.3  Rx     18EF1C8F  8  0D 60 00 7A 0E 67 6E FB 
   228)       941.3  Rx     18EF1C8F  8  0D 61 04 00 20 00 85 03 
   229)       942.2  Rx     18EF1C8F  8  0D 62 16 00 0F 00 0E 00 
   230)       959.4  Rx     18EF1CCD  8  A2 00 00 00 00 00 00 00 
   231)       960.3  Rx     18EF1C8F  8  0D 70 00 95 5C 67 6E FB 
   232)       961.2  Rx     18EF1C8F  8  0D 71 F9 FF 21 00 82 03 
   233)       962.3  Rx     18EF1C8F  8  0D 72 17 00 04 00 11 00 
   234)       979.4  Rx     18EF1CCD  8  A3 00 00 00 00 00 00 00 
   235)       980.4  Rx     18EF1C8F  8  0D 80 00 B5 AA 67 6E FB 
   236)       981.3  Rx     18EF1C8F  8  0D 81 FE FF 23 00 87 03 
   237)       982.2  Rx     18EF1C8F  8  0D 82 17 00 0E 00 0F 00 
   238)       999.5  Rx     18EF1CCD  8  A1 40 00 00 00 00 00 00 
   239)      1000.4  Rx     18EF1C8F  8  0D 90 00 D5 F8 67 6E FB 
   240)      1001.2  Rx     18EF1C8F  8  0D 91 00 00 1F 00 81 03 
   241)      1001.7  Rx     18EF8F1C  4  01 4C 0A 00 
   242)      1002.3  Rx     18EF1C8F  8  0D 92 19 00 09 00 11 00 
   243)      1002.9  Rx     18EFCD1C  8  A0 00 14 00 00 00 00 00 
   244)      1003.2  Rx     18EF1C8F  4  01 0B 4C 00 
   245)      1003.8  Rx     18EF1CCD  8  A0 00 14 00 B3 07 00 00 
   246)      1020.3  Rx     18EF1C8F  8  0D A0 00 F5 46 68 6D FB 
   247)      1021.3  Rx     18EF1C8F  8  0D A1 F7 FF 1F 00 86 03 
   248)      1021.8  Rx     18EFCD1C  8  A0 00 2A 00 00 00 00 00 
   249)      1022.4  Rx     18EF1C8F  8  0D A2 16 00 0B 00 10 00 
   250)      1023.0  Rx     18EF1CCD  8  A0 00 2A 00 46 06 00 00 
   251)      1035.1  Rx     18EFCD1C  8  A0 00 1B 00 00 00 00 00 
   252)      1035.7  Rx     18EF1CCD  8  A0 00 1B 00 00 00 00 00 
   253)      1040.4  Rx     18EF1C8F  8  0D B0 00 17 95 68 6E FB 
   254)      1041.3  Rx     18EF1C8F  8  0D B1 02 00 1D 00 82 03 
   255)      1042.3  Rx     18EF1C8F  8  0D B2 1A 00 0F 00 10 00 
   256)      1055.1  Rx     18EFCD1C  8  A0 00 00 00 00 00 00 00 
   257)      1055.7  Rx     18EF1CCD  8  A0 00 00 00 01 00 00 00 
   258)      1059.6  Rx     18EF1CCD  8  A2 00 00 00 00 00 00 00 
   259)      1060.3  Rx     18EF1C8F  8  0D C0 00 35 E3 68 6E FB 
   260)      1061.3  Rx     18EF1C8F  8  0D C1 F4 FF 25 00 87 03 
   261)      1062.3  Rx     18EF1C8F  8  0D C2 15 00 08 00 0E 00 
   262)      1079.6  Rx     18EF1CCD  8  A3 00 00 00 00 00 00 00 
   263)      1080.4  Rx     18EF1C8F  8  0D D0 00 55 31 69 6E FB 
   264)      1081.3  Rx     18EF1C8F  8  0D D1 08 00 1B 00 80 03 
   265)      1082.3  Rx     18EF1C8F  8  0D D2 16 00 11 00 10 00 
   266)      1095.1  Rx     18EFCD1C  8  A1 01 00 00 00 00 00 00 
   267)      1099.7  Rx     18EF1CCD  8  A1 40 00 00 00 00 00 00 
   268)      1100.4  Rx     18EF1C8F  8  0D E0 00 77 7F 69 6E FB 
   269)      1101.3  Rx     18EF1C8F  8  0D E1 F1 FF 24 00 86 03 
   270)      1102.3  Rx     18EF1C8F  8  0D E2 16 00 04 00 0C 00 
   271)      1120.4  Rx     18EF1C8F  8  0D F0 00 95 CD 69 6E FB 
   272)      1121.3  Rx     18EF1C8F  8  0D F1 08 00 1A 00 81 03 
   273)      1122.3  Rx     18EF1C8F  8  0D F2 17 00 15 00 10 00 
   274)      1140.4  Rx     18EF1C8F  8  0D 00 00 B5 1B 6A 6E FB 
   275)      1141.3  Rx     18EF1C8F  8  0D 01 EF FF 26 00 85 03 
   276)      1142.3  Rx     18EF1C8F  8  0D 02 16 00 03 00 0D 00 
   277)      1159.8  Rx     18EF1CCD  8  A2 00 00 00 00 00 00 00 
   278)      1160.4  Rx     18EF1C8F  8  0D 10 00 D5 69 6A 6E FB 
   279)      1161.3  Rx     18EF1C8F  8  0D 11 0B 00 1D 00 85 03 
   280)      1162.3  Rx     18EF1C8F  8  0D 12 17 00 15 00 0D 00 
   281)      1179.9  Rx     18EF1CCD  8  A3 00 00 00 00 00 00 00 
   282)      1180.5  Rx     18EF1C8F  8  0D 20 00 F5 B7 6A 6E FB 
   283)      1181.3  Rx     18EF1C8F  8  0D 21 F2 FF 22 00 82 03 
   284)      1182.3  Rx     18EF1C8F  8  0D 22 14 00 03 00 12 00 
   285)      1200.0  Rx     18EF1CCD  8  A1 40 00 00 00 00 00 00 
   286)      1200.5  Rx     18EF1C8F  8  0D 30 00 12 06 6B 6E FB 
   287)      1201.1  Rx     18EFCD1C  8  A0 00 14 00 00 00 00 00 
   288)      1201.7  Rx     18EF1C8F  8  0D 31 08 00 20 00 87 03 
   289)      1202.2  Rx     18EF1CCD  8  A0 00 14 00 B3 07 00 00 
   290)      1202.8  Rx     18EF1C8F  8  0D 32 17 00 13 00 0F 00 
   291)      1216.2  Rx     18EFCD1C  8  A0 00 2A 00 00 00 00 00 
   292)      1216.8  Rx     18EF1CCD  8  A0 00 2A 00 4C 06 00 00 
   293)      1220.4  Rx     18EF1C8F  8  0D 40 00 37 54 6B 6E FB 
   294)      1221.4  Rx     18EF1C8F  8  0D 41 F3 FF 21 00 80 03 
   295)      1222.3  Rx     18EF1C8F  8  0D 42 18 00 02 00 11 00 
   296)      1235.2  Rx     18EFCD1C  8  A0 00 1B 00 00 00 00 00 
   297)      1235.8  Rx     18EF1CCD  8  A0 00 1B 00 00 00 00 00 
   298)      1240.4  Rx     18EF1C8F  8  0D 50 00 55 A2 6B 6E FB 
   299)      1241.3  Rx     18EF1C8F  8  0D 51 01 00 22 00 88 03 
   300)      1242.3  Rx     18EF1C8F  8  0D 52 17 00 0F 00 0D 00 
   301)      1255.1  Rx     18EFCD1C  8  A0 00 00 00 00 00 00 00 
   302)      1255.8  Rx     18EF1CCD  8  A0 00 00 00 01 00 00 00 
   303)      1260.1  Rx     18EF1CCD  8  A2 00 00 00 00 00 00 00 
   304)      1260.7  Rx     18EF1C8F  8  0D 60 00 75 F0 6B 6E FB 
   305)      1261.4  Rx     18EF1C8F  8  0D 61 F9 FF 1F 00 7E 03 
   306)      1262.3  Rx     18EF1C8F  8  0D 62 17 00 06 00 11 00 
   307)      1280.2  Rx     18EF1CCD  8  A3 00 00 00 00 00 00 00 
   308)      1280.7  Rx     18EF1C8F  8  0D 70 00 95 3E 6C 6E FB 
   309)      1281.4  Rx     18EF1C8F  8  0D 71 F9 FF 23 00 86 03 
   310)      1282.3  Rx     18EF1C8F  8  0D 72 16 00 0A 00 0D 00 
   311)      1295.2  Rx     18EFCD1C  8  A1 01 00 00 00 00 00 00 
   312)      1300.2  Rx     18EF1CCD  8  A1 40 00 00 00 00 00 00 
   313)      1300.7  Rx     18EF1C8F  8  0D 80 00 B5 8C 6C 6E FB 
   314)      1301.4  Rx     18EF1C8F  8  0D 81 FF FF 1E 00 82 03 
   315)      1302.4  Rx     18EF1C8F  8  0D 82 18 00 05 00 10 00 
   316)      1320.4  Rx     18EF1C8F  8  0D 90 00 D7 DA 6C 6E FB 
   317)      1321.3  Rx     18EF1C8F  8  0D 91 F2 FF 22 00 87 03 
   318)      1322.3  Rx     18EF1C8F  8  0D 92 17 00 08 00 0F 00 
   319)      1340.4  Rx     18EF1C8F  8  0D A0 00 F2 28 6D 6E FB 
   320)      1341.3  Rx     18EF1C8F  8  0D A1 06 00 1C 00 80 03 
   321)      1342.4  Rx     18EF1C8F  8  0D A2 18 00 10 00 0F 00 
   322)      1360.4  Rx     18EF1CCD  8  A2 00 00 00 00 00 00 00 
   323)      1360.9  Rx     18EF1C8F  8  0D B0 00 15 77 6D 6E FB 
   324)      1361.5  Rx     18EF1C8F  8  0D B1 F1 FF 22 00 86 03 
   325)      1362.4  Rx     18EF1C8F  8  0D B2 13 00 05 00 0E 00 
   326)      1380.4  Rx     18EF1CCD  8  A3 00 00 00 00 00 00 00 
   327)      1380.9  Rx     18EF1C8F  8  0D C0 00 35 C5 6D 6E FB 
   328)      1381.5  Rx     18EF1C8F  8  0D C1 0A 00 1D 00 81 03 
   329)      1382.3  Rx     18EF1C8F  8  0D C2 18 00 13 00 11 00 
   330)      1400.2  Rx     18EFCD1C  8  A0 00 14 00 00 00 00 00 
   331)      1400.8  Rx     18EF1C8F  8  0D D0 00 55 13 6E 6E FB 
   332)      1401.3  Rx     18EF1CCD  8  A1 40 00 00 00 00 00 00 
   333)      1401.9  Rx     18EF1C8F  8  0D D1 F2 FF 24 00 88 03 
   334)      1402.4  Rx     18EF1C8F  8  0D D2 14 00 01 00 0F 00 
   335)      1403.0  Rx     18EF1CCD  8  A0 00 14 00 B3 07 00 00 
   336)      1416.6  Rx     18EFCD1C  8  A0 00 2A 00 00 00 00 00 
   337)      1417.2  Rx     18EF1CCD  8  A0 00 2A 00 42 06 00 00 
   338)      1420.4  Rx     18EF1C8F  8  0D E0 00 7A 61 6E 6E FB 
   339)      1421.4  Rx     18EF1C8F  8  0D E1 0E 00 1C 00 82 03 
   340)      1422.3  Rx     18EF1C8F  8  0D E2 17 00 14 00 0E 00 
   341)      1435.2  Rx     18EFCD1C  8  A0 00 1B 00 00 00 00 00 
   342)      1435.8  Rx     18EF1CCD  8  A0 00 1B 00 00 00 00 00 
   343)      1440.5  Rx     18EF1C8F  8  0D F0 00 95 AF 6E 6E FB 
   344)      1441.4  Rx     18EF1C8F  8  0D F1 F3 FF 26 00 83 03 
   345)      1442.4  Rx     18EF1C8F  8  0D F2 15 00 FE FF 0D 00 
   346)      1455.2  Rx     18EFCD1C  8  A0 00 00 00 00 00 00 00 
   347)      1455.8  Rx     18EF1CCD  8  A0 00 00 00 01 00 00 00 
   348)      1460.4  Rx     18EF1C8F  8  0D 00 00 B5 FD 6E 6E FB 
   349)      1461.0  Rx     18EF1CCD  8  A2 00 00 00 00 00 00 00 
   350)      1461.6  Rx     18EF1C8F  8  0D 01 0A 00 1C 00 85 03 
   351)      1462.4  Rx     18EF1C8F  8  0D 02 17 00 0F 00 0F 00 
   352)      1480.5  Rx     18EF1C8F  8  0D 10 00 D5 4B 6F 6E FB 
   353)      1481.0  Rx     18EF1CCD  8  A3 00 00 00 00 00 00 00 
   354)      1481.6  Rx     18EF1C8F  8  0D 11 F6 FF 23 00 82 03 
   355)      1482.4  Rx     18EF1C8F  8  0D 12 14 00 00 00 10 00 
   356)      1495.2  Rx     18EFCD1C  8  A1 01 00 00 00 00 00 00 
   357)      1500.5  Rx     18EF1C8F  8  0D 20 00 F5 99 6F 6E FB 
   358)      1501.0  Rx     18EF1CCD  8  A1 40 00 00 00 00 00 00 
   359)      1501.6  Rx     18EF1C8F  8  0D 21 06 00 20 00 89 03 
   360)      1502.4  Rx     18EF1C8F  8  0D 22 17 00 13 00 0C 00 
   361)      1520.5  Rx     18EF1C8F  8  0D 30 00 15 E8 6F 6E FB 
   362)      1521.4  Rx     18EF1C8F  8  0D 31 FA FF 21 00 80 03 
   363)      1522.4  Rx     18EF1C8F  8  0D 32 18 00 05 00 12 00 
   364)      1540.5  Rx     18EF1C8F  8  0D 40 00 35 36 70 6E FB 
   365)      1541.4  Rx     18EF1C8F  8  0D 41 FF FF 1F 00 87 03 
   366)      1542.4  Rx     18EF1C8F  8  0D 42 18 00 0E 00 0F 00 
   367)      1560.4  Rx     18EF1C8F  8  0D 50 00 55 84 70 6E FB 
   368)      1561.0  Rx     18EF1CCD  8  A2 00 00 00 00 00 00 00 
   369)      1561.6  Rx     18EF1C8F  8  0D 51 FA FF 1F 00 7D 03 
   370)      1562.4  Rx     18EF1C8F  8  0D 52 1B 00 03 00 0D 00 
   371)      1580.5  Rx     18EF1C8F  8  0D 60 00 75 D2 70 6E FB 
   372)      1581.1  Rx     18EF1CCD  8  A3 00 00 00 00 00 00 00 
   373)      1581.6  Rx     18EF1C8F  8  0D 61 FC FF 24 00 89 03 
   374)      1582.4  Rx     18EF1C8F  8  0D 62 17 00 0C 00 09 00 
   375)      1600.5  Rx     18EF1C8F  8  0D 70 00 95 20 71 6E FB 
   376)      1601.1  Rx     18EF1CCD  8  A1 40 00 00 00 00 00 00 
   377)      1601.6  Rx     18EF1C8F  8  0D 71 02 00 1A 00 7D 03 
   378)      1602.2  Rx     18EFCD1C  8  A0 00 14 00 00 00 00 00 
   379)      1602.8  Rx     18EF1C8F  8  0D 72 18 00 0D 00 0E 00 
   380)      1603.3  Rx     18EF1CCD  8  A0 00 14 00 B2 07 00 00 
   381)      1616.7  Rx     18EFCD1C  8  A0 00 2A 00 00 00 00 00 
   382)      1617.2  Rx     18EF1CCD  8  A0 00 2A 00 41 06 00 00 
   383)      1620.5  Rx     18EF1C8F  8  0D 80 00 B7 6E 71 6E FB 
   384)      1621.4  Rx     18EF1C8F  8  0D 81 F5 FF 22 00 87 03 
   385)      1622.4  Rx     18EF1C8F  8  0D 82 13 00 07 00 0E 00 
   386)      1635.1  Rx     18EFCD1C  8  A0 00 1B 00 00 00 00 00 
   387)      1635.8  Rx     18EF1CCD  8  A0 00 1B 00 00 00 00 00 
   388)      1640.5  Rx     18EF1C8F  8  0D 90 00 D5 BC 71 6E FB 
   389)      1641.4  Rx     18EF1C8F  8  0D 91 08 00 1C 00 82 03 
   390)      1642.4  Rx     18EF1C8F  8  0D 92 17 00 12 00 12 00 
   391)      1655.2  Rx     18EFCD1C  8  A0 00 00 00 00 00 00 00 
   392)      1655.8  Rx     18EF1CCD  8  A0 00 00 00 01 00 00 00 
   393)      1660.5  Rx     18EF1C8F  8  0D A0 00 F5 0A 72 6E FB 
   394)      1661.1  Rx     18EF1CCD  8  A2 00 00 00 00 00 00 00 
   395)      1661.6  Rx     18EF1C8F  8  0D A1 F2 FF 22 00 86 03 
   396)      1662.4  Rx     18EF1C8F  8  0D A2 16 00 07 00 0C 00 
   397)      1680.5  Rx     18EF1C8F  8  0D B0 00 15 59 72 6E FB 
   398)      1681.2  Rx     18EF1CCD  8  A3 00 00 00 00 00 00 00 
   399)      1681.7  Rx     18EF1C8F  8  0D B1 0A 00 1B 00 7F 03 
   400)      1682.4  Rx     18EF1C8F  8  0D B2 18 00 15 00 0E 00 
   401)      1695.2  Rx     18EFCD1C  8  A1 01 00 00 00 00 00 00 
   402)      1700.5  Rx     18EF1C8F  8  0D C0 00 35 A7 72 6F FB 
   403)      1701.2  Rx     18EF1CCD  8  A1 40 00 00 00 00 00 00 
   404)      1701.7  Rx     18EF1C8F  8  0D C1 F2 FF 22 00 85 03 
   405)      1702.4  Rx     18EF1C8F  8  0D C2 14 00 04 00 0E 00 
   406)      1720.5  Rx     18EF1C8F  8  0D D0 00 55 F5 72 6F FB 
   407)      1721.4  Rx     18EF1C8F  8  0D D1 0C 00 20 00 80 03 
   408)      1722.4  Rx     18EF1C8F  8  0D D2 17 00 13 00 10 00 
   409)      1740.5  Rx     18EF1C8F  8  0D E0 00 75 43 73 6E FB 
   410)      1741.4  Rx     18EF1C8F  8  0D E1 F1 FF 22 00 84 03 
   411)      1742.4  Rx     18EF1C8F  8  0D E2 14 00 00 00 0E 00 
   412)      1760.5  Rx     18EF1C8F  8  0D F0 00 95 91 73 6F FB 
   413)      1761.3  Rx     18EF1CCD  8  A2 00 00 00 00 00 00 00 
   414)      1761.9  Rx     18EF1C8F  8  0D F1 0A 00 1F 00 83 03 
   415)      1762.4  Rx     18EF1C8F  8  0D F2 17 00 18 00 0E 00 
   416)      1780.5  Rx     18EF1C8F  8  0D 00 00 B5 DF 73 6F FB 
   417)      1781.3  Rx     18EF1CCD  8  A3 00 00 00 00 00 00 00 
   418)      1781.9  Rx     18EF1C8F  8  0D 01 F2 FF 21 00 85 03 
   419)      1782.4  Rx     18EF1C8F  8  0D 02 17 00 00 00 0F 00 
   420)      1800.5  Rx     18EF1C8F  8  0D 10 00 D5 2D 74 6E FB 
   421)      1801.1  Rx     18EFCD1C  8  A0 00 14 00 00 00 00 00 
   422)      1801.6  Rx     18EF1C8F  8  0D 11 05 00 20 00 84 03 
   423)      1802.2  Rx     18EF1CCD  8  A1 40 00 00 00 00 00 00 
   424)      1802.7  Rx     18EF1C8F  8  0D 12 18 00 11 00 0E 00 
   425)      1803.3  Rx     18EF1CCD  8  A0 00 14 00 B3 07 00 00 
   426)      1815.6  Rx     18EFCD1C  8  A0 00 2A 00 00 00 00 00 
   427)      1816.2  Rx     18EF1CCD  8  A0 00 2A 00 48 06 00 00 
   428)      1820.5  Rx     18EF1C8F  8  0D 20 00 F7 7B 74 6E FB 
   429)      1821.4  Rx     18EF1C8F  8  0D 21 F8 FF 1F 00 82 03 
   430)      1822.4  Rx     18EF1C8F  8  0D 22 17 00 02 00 12 00 
   431)      1835.2  Rx     18EFCD1C  8  A0 00 1B 00 00 00 00 00 
   432)      1835.8  Rx     18EF1CCD  8  A0 00 1B 00 00 00 00 00 
   433)      1840.5  Rx     18EF1C8F  8  0D 30 00 15 CA 74 6E FB 
   434)      1841.4  Rx     18EF1C8F  8  0D 31 FE FF 20 00 84 03 
   435)      1842.4  Rx     18EF1C8F  8  0D 32 13 00 0F 00 0E 00 
   436)      1855.2  Rx     18EFCD1C  8  A0 00 00 00 00 00 00 00 
   437)      1855.8  Rx     18EF1CCD  8  A0 00 00 00 01 00 00 00 
   438)      1860.5  Rx     18EF1C8F  8  0D 40 00 35 18 75 6E FB 
   439)      1861.4  Rx     18EF1C8F  8  0D 41 FD FF 1E 00 86 03 
   440)      1862.0  Rx     18EF1CCD  8  A2 00 00 00 00 00 00 00 
   441)      1862.6  Rx     18EF1C8F  8  0D 42 18 00 06 00 10 00 
   442)      1880.5  Rx     18EF1C8F  8  0D 50 00 55 66 75 6E FB 
   443)      1881.4  Rx     18EF1C8F  8  0D 51 F8 FF 22 00 84 03 
   444)      1882.0  Rx     18EF1CCD  8  A3 00 00 00 00 00 00 00 
   445)      1882.5  Rx     18EF1C8F  8  0D 52 18 00 0A 00 0E 00 
   446)      1895.2  Rx     18EFCD1C  8  A1 01 00 00 00 00 00 00 
   447)      1900.5  Rx     18EF1C8F  8  0D 60 00 75 B4 75 6E FB 
   448)      1901.4  Rx     18EF1C8F  8  0D 61 FF FF 1D 00 82 03 
   449)      1902.0  Rx     18EF1CCD  8  A1 40 00 00 00 00 00 00 
   450)      1902.6  Rx     18EF1C8F  8  0D 62 18 00 0B 00 12 00 
   451)      1916.4  Rx     18FEF31C  8  B4 2B 80 99 11 C7 2C 89 
   452)      1917.0  Rx     18FEE81C  8  33 8A 08 00 00 00 2C 51 
   453)      1917.5  Rx     18FEE61C  8  9B 2F 0C 09 57 29 00 00 
   454)      1918.1  Rx     19F8021C  8  EE FC 70 BC 00 00 FF FF 
   455)      1920.5  Rx     18EF1C8F  8  0D 70 00 95 02 76 6F FB 
   456)      1921.1  Rx     19F8051C  8  C0 2F EE EE 50 F9 04 74 
   457)      1921.6  Rx     18EF1C8F  8  0D 71 F4 FF 24 00 88 03 
   458)      1922.2  Rx     19F8051C  8  C1 1B 00 8C 3D 60 6C A7 
   459)      1922.7  Rx     18EF1C8F  8  0D 72 13 00 08 00 0C 00 
   460)      1923.3  Rx     19F8051C  8  C2 98 06 40 6D 59 8D 2E 
   461)      1923.8  Rx     19F8051C  8  C3 90 CB 02 1B F6 40 08 
   462)      1924.4  Rx     19F8051C  8  C4 00 00 00 00 40 00 0C 
   463)      1925.0  Rx     19F8051C  8  C5 5E 00 C0 00 FC 0F 00 
   464)      1925.5  Rx     19F8051C  8  C6 00 01 AF 02 20 03 FF 
   465)      1940.5  Rx     18EF1C8F  8  0D 80 00 B7 50 76 6F FB 
   466)      1941.4  Rx     18EF1C8F  8  0D 81 05 00 1B 00 81 03 
   467)      1942.4  Rx     18EF1C8F  8  0D 82 17 00 10 00 0F 00 
   468)      1960.5  Rx     18EF1C8F  8  0D 90 00 D5 9E 76 6F FB 
   469)      1961.4  Rx     18EF1C8F  8  0D 91 F1 FF 25 00 85 03 
   470)      1962.0  Rx     18EF1CCD  8  A2 00 00 00 00 00 00 00 
   471)      1962.6  Rx     18EF1C8F  8  0D 92 17 00 02 00 0B 00 
   472)      1980.5  Rx     18EF1C8F  8  0D A0 00 F5 EC 76 6F FB 
   473)      1981.4  Rx     18EF1C8F  8  0D A1 09 00 1A 00 82 03 
   474)      1982.0  Rx     18EF1CCD  8  A3 00 00 00 00 00 00 00 
   475)      1982.5  Rx     18EF1C8F  8  0D A2 19 00 15 00 12 00 
   476)      2000.5  Rx     18EF1C8F  8  0D B0 00 15 3B 77 6F FB 
   477)      2001.4  Rx     18EF1C8F  8  0D B1 F1 FF 27 00 84 03 
   478)      2002.0  Rx     18EF1CCD  8  A1 40 00 00 00 00 00 00 
   479)      2002.5  Rx     18EF1C8F  8  0D B2 14 00 04 00 0E 00 
   480)      2003.1  Rx     18EFCD1C  8  A0 00 14 00 00 00 00 00 
   481)      2003.8  Rx     18EF1CCD  8  A0 00 14 00 B4 07 00 00 
   482)      2020.5  Rx     18EF1C8F  8  0D C0 00 35 89 77 6F FB 
   483)      2021.1  Rx     18EFCD1C  8  A0 00 2A 00 00 00 00 00 
   484)      2021.7  Rx     18EF1C8F  8  0D C1 0A 00 1D 00 82 03 
   485)      2022.2  Rx     18EF1CCD  8  A0 00 2A 00 48 06 00 00 
   486)      2022.8  Rx     18EF1C8F  8  0D C2 15 00 15 00 0D 00 
   487)      2035.2  Rx     18EFCD1C  8  A0 00 1B 00 00 00 00 00 
   488)      2035.9  Rx     18EF1CCD  8  A0 00 1B 00 00 00 00 00 
   489)      2040.5  Rx     18EF1C8F  8  0D D0 00 55 D7 77 6F FB 
   490)      2041.4  Rx     18EF1C8F  8  0D D1 F2 FF 24 00 80 03 
   491)      2042.5  Rx     18EF1C8F  8  0D D2 17 00 01 00 10 00 
   492)      2055.2  Rx     18EFCD1C  8  A0 00 00 00 00 00 00 00 
   493)      2055.8  Rx     18EF1CCD  8  A0 00 00 00 01 00 00 00 
   494)      2060.5  Rx     18EF1C8F  8  0D E0 00 75 25 78 6F FB 
   495)      2061.4  Rx     18EF1C8F  8  0D E1 08 00 1F 00 85 03 
   496)      2062.0  Rx     18EF1CCD  8  A2 00 00 00 00 00 00 00 
   497)      2062.6  Rx     18EF1C8F  8  0D E2 18 00 13 00 0F 00 
   498)      2080.5  Rx     18EF1C8F  8  0D F0 00 95 73 78 6F FB 
   499)      2081.4  Rx     18EF1C8F  8  0D F1 F4 FF 22 00 7E 03 
   500)      2082.1  Rx     18EF1CCD  8  A3 00 00 00 00 00 00 00 
   501)      2082.6  Rx     18EF1C8F  8  0D F2 16 00 02 00 0F 00 
   502)      2095.2  Rx     18EFCD1C  8  A1 01 00 00 00 00 00 00 
   503)      2100.5  Rx     18EF1C8F  8  0D 00 00 B5 C1 78 6F FB 
   504)      2101.4  Rx     18EF1C8F  8  0D 01 05 00 21 00 87 03 
   505)      2102.1  Rx     18EF1CCD  8  A1 40 00 00 00 00 00 00 
   506)      2102.7  Rx     18EF1C8F  8  0D 02 18 00 0D 00 0E 00 
   507)      2120.5  Rx     18EF1C8F  8  0D 10 00 D5 0F 79 6F FB 
   508)      2121.5  Rx     18EF1C8F  8  0D 11 F8 FF 21 00 80 03 
   509)      2122.4  Rx     18EF1C8F  8  0D 12 18 00 01 00 11 00 
   510)      2140.5  Rx     18EF1C8F  8  0D 20 00 F5 5D 79 6F FB 
   511)      2141.4  Rx     18EF1C8F  8  0D 21 FD FF 22 00 87 03 
   512)      2142.5  Rx     18EF1C8F  8  0D 22 17 00 0A 00 0E 00 
   513)      2160.5  Rx     18EF1C8F  8  0D 30 00 15 AC 79 6F FB 
   514)      2161.5  Rx     18EF1C8F  8  0D 31 00 00 1C 00 82 03 
   515)      2162.3  Rx     18EF1CCD  8  A2 00 00 00 00 00 00 00 
   516)      2162.8  Rx     18EF1C8F  8  0D 32 16 00 0B 00 11 00 
   517)      2180.6  Rx     18EF1C8F  8  0D 40 00 35 FA 79 6F FB 
   518)      2181.4  Rx     18EF1C8F  8  0D 41 F6 FF 21 00 87 03 
   519)      2182.3  Rx     18EF1CCD  8  A3 00 00 00 00 00 00 00 
   520)      2182.9  Rx     18EF1C8F  8  0D 42 13 00 0C 00 0E 00 
   521)      2199.8  Rx     18EFCD1C  8  A0 00 14 00 00 00 00 00 
   522)      2200.4  Rx     18EF1CCD  8  A0 00 14 00 B3 07 00 00 
   523)      2200.9  Rx     18EF1C8F  8  0D 50 00 55 48 7A 6F FB 
   524)      2201.5  Rx     18EF1C8F  8  0D 51 03 00 1B 00 82 03 
   525)      2202.4  Rx     18EF1CCD  8  A1 40 00 00 00 00 00 00 
   526)      2203.0  Rx     18EF1C8F  8  0D 52 17 00 0E 00 11 00 
   527)      2216.9  Rx     18EFCD1C  8  A0 00 2A 00 00 00 00 00 
   528)      2217.5  Rx     18EF1CCD  8  A0 00 2A 00 48 06 00 00 
   529)      2220.5  Rx     18EF1C8F  8  0D 60 00 77 96 7A 6F FB 
   530)      2221.5  Rx     18EF1C8F  8  0D 61 F5 FF 21 00 88 03 
   531)      2222.5  Rx     18EF1C8F  8  0D 62 16 00 07 00 0D 00 
   532)      2235.3  Rx     18EFCD1C  8  A0 00 1B 00 00 00 00 00 
   533)      2236.0  Rx     18EF1CCD  8  A0 00 1B 00 00 00 00 00 
   534)      2240.6  Rx     18EF1C8F  8  0D 70 00 95 E4 7A 6F FB 
   535)      2241.5  Rx     18EF1C8F  8  0D 71 06 00 1E 00 84 03 
   536)      2242.5  Rx     18EF1C8F  8  0D 72 19 00 14 00 10 00 
   537)      2255.3  Rx     18EFCD1C  8  A0 00 00 00 00 00 00 00 
   538)      2255.9  Rx     18EF1CCD  8  A0 00 00 00 01 00 00 00 
   539)      2260.6  Rx     18EF1C8F  8  0D 80 00 B5 32 7B 6F FB 
   540)      2261.5  Rx     18EF1C8F  8  0D 81 F0 FF 23 00 88 03 
   541)      2262.5  Rx     18EF1C8F  8  0D 82 13 00 05 00 0C 00 
   542)      2263.1  Rx     18EF1CCD  8  A2 00 00 00 00 00 00 00 
   543)      2280.6  Rx     18EF1C8F  8  0D 90 00 D5 80 7B 70 FB 
   544)      2281.5  Rx     18EF1C8F  8  0D 91 0A 00 1D 00 80 03 
   545)      2282.5  Rx     18EF1C8F  8  0D 92 17 00 14 00 0D 00 
   546)      2283.1  Rx     18EF1CCD  8  A3 00 00 00 00 00 00 00 
   547)      2295.2  Rx     18EFCD1C  8  A1 01 00 00 00 00 00 00 
   548)      2300.6  Rx     18EF1C8F  8  0D A0 00 F5 CE 7B 6F FB 
   549)      2301.5  Rx     18EF1C8F  8  0D A1 EF FF 26 00 84 03 
   550)      2302.5  Rx     18EF1C8F  8  0D A2 17 00 01 00 12 00 
   551)      2303.1  Rx     18EF1CCD  8  A1 40 00 00 00 00 00 00 
   552)      2320.6  Rx     18EF1C8F  8  0D B0 00 15 1D 7C 6F FB 
   553)      2321.5  Rx     18EF1C8F  8  0D B1 0B 00 1C 00 83 03 
   554)      2322.5  Rx     18EF1C8F  8  0D B2 17 00 12 00 11 00 
   555)      2340.6  Rx     18EF1C8F  8  0D C0 00 35 6B 7C 70 FB 
   556)      2341.5  Rx     18EF1C8F  8  0D C1 F4 FF 25 00 80 03 
   557)      2342.5  Rx     18EF1C8F  8  0D C2 15 00 02 00 0D 00 
   558)      2360.6  Rx     18EF1C8F  8  0D D0 00 55 B9 7C 70 FB 
   559)      2361.5  Rx     18EF1C8F  8  0D D1 06 00 1D 00 87 03 
   560)      2362.5  Rx     18EF1C8F  8  0D D2 17 00 10 00 0B 00 
   561)      2363.1  Rx     18EF1CCD  8  A2 00 00 00 00 00 00 00 
   562)      2380.6  Rx     18EF1C8F  8  0D E0 00 75 07 7D 70 FB 
   563)      2381.5  Rx     18EF1C8F  8  0D E1 F9 FF 22 00 80 03 
   564)      2382.5  Rx     18EF1C8F  8  0D E2 19 00 FF FF 0F 00 
   565)      2383.1  Rx     18EF1CCD  8  A3 00 00 00 00 00 00 00 
   566)      2400.2  Rx     18EFCD1C  8  A0 00 14 00 00 00 00 00 
   567)      2400.7  Rx     18EF1C8F  8  0D F0 00 95 55 7D 70 FB 
   568)      2401.3  Rx     18EF1CCD  8  A0 00 14 00 B2 07 00 00 
   569)      2401.9  Rx     18EF1C8F  8  0D F1 01 00 21 00 88 03 
   570)      2402.5  Rx     18EF1C8F  8  0D F2 16 00 0E 00 0E 00 
   571)      2403.1  Rx     18EF1CCD  8  A1 40 00 00 00 00 00 00 
   572)      2416.9  Rx     18EFCD1C  8  A0 00 2A 00 00 00 00 00 
   573)      2417.5  Rx     18EF1CCD  8  A0 00 2A 00 4C 06 00 00 
   574)      2420.6  Rx     18EF1C8F  8  0D 00 00 B7 A3 7D 70 FB 
   575)      2421.5  Rx     18EF1C8F  8  0D 01 F8 FF 1E 00 80 03 
   576)      2422.5  Rx     18EF1C8F  8  0D 02 17 00 0A 00 10 00 
   577)      2436.2  Rx     18EFCD1C  8  A0 00 1B 00 00 00 00 00 
   578)      2437.0  Rx     18EF1CCD  8  A0 00 1B 00 00 00 00 00 
   579)      2440.6  Rx     18EF1C8F  8  0D 10 00 D2 F1 7D 70 FB 
   580)      2441.5  Rx     18EF1C8F  8  0D 11 FD FF 25 00 88 03 
   581)      2442.5  Rx     18EF1C8F  8  0D 12 18 00 0D 00 0D 00 
   582)      2455.3  Rx     18EFCD1C  8  A0 00 00 00 00 00 00 00 
   583)      2456.0  Rx     18EF1CCD  8  A0 00 00 00 01 00 00 00 
   584)      2460.6  Rx     18EF1C8F  8  0D 20 00 F5 3F 7E 70 FB 
   585)      2461.5  Rx     18EF1C8F  8  0D 21 FF FF 1F 00 7E 03 
   586)      2462.5  Rx     18EF1C8F  8  0D 22 16 00 0A 00 11 00 
   587)      2463.1  Rx     18EF1CCD  8  A2 00 00 00 00 00 00 00 
   588)      2480.6  Rx     18EF1C8F  8  0D 30 00 15 8E 7E 70 FB 
   589)      2481.5  Rx     18EF1C8F  8  0D 31 F6 FF 22 00 88 03 
   590)      2482.5  Rx     18EF1C8F  8  0D 32 14 00 09 00 0C 00 
   591)      2483.1  Rx     18EF1CCD  8  A3 00 00 00 00 00 00 00 
   592)      2495.3  Rx     18EFCD1C  8  A1 01 00 00 00 00 00 00 
   593)      2500.6  Rx     18EF1C8F  8  0D 40 00 35 DC 7E 70 FB 
   594)      2501.5  Rx     18EF1C8F  8  0D 41 07 00 1D 00 82 03 
   595)      2502.5  Rx     18EF1C8F  8  0D 42 18 00 0F 00 10 00 
   596)      2503.1  Rx     18EF1CCD  8  A1 40 00 00 00 00 00 00 
   597)      2520.6  Rx     18EF1C8F  8  0D 50 00 52 2A 7F 70 FB 
   598)      2521.5  Rx     18EF1C8F  8  0D 51 F3 FF 22 00 88 03 
   599)      2522.5  Rx     18EF1C8F  8  0D 52 17 00 05 00 0E 00 
   600)      2540.6  Rx     18EF1C8F  8  0D 60 00 75 78 7F 70 FB 
   601)      2541.5  Rx     18EF1C8F  8  0D 61 0A 00 1D 00 81 03 
   602)      2542.5  Rx     18EF1C8F  8  0D 62 18 00 12 00 11 00 
   603)      2560.6  Rx     18EF1C8F  8  0D 70 00 95 C6 7F 70 FB 
   604)      2561.5  Rx     18EF1C8F  8  0D 71 F1 FF 23 00 83 03 
   605)      2562.5  Rx     18EF1C8F  8  0D 72 15 00 02 00 0E 00 
   606)      2563.3  Rx     18EF1CCD  8  A2 00 00 00 00 00 00 00 
   607)      2580.6  Rx     18EF1C8F  8  0D 80 00 B5 14 80 70 FB 
   608)      2581.5  Rx     18EF1C8F  8  0D 81 09 00 1E 00 81 03 
   609)      2582.5  Rx     18EF1C8F  8  0D 82 16 00 18 00 0F 00 
   610)      2583.3  Rx     18EF1CCD  8  A3 00 00 00 00 00 00 00 
   611)      2600.6  Rx     18EF1C8F  8  0D 90 00 D5 62 80 70 FB 
   612)      2601.2  Rx     18EFCD1C  8  A0 00 14 00 00 00 00 00 
   613)      2601.7  Rx     18EF1C8F  8  0D 91 F1 FF 20 00 85 03 
   614)      2602.3  Rx     18EF1CCD  8  A0 00 14 00 B2 07 00 00 
   615)      2602.8  Rx     18EF1C8F  8  0D 92 14 00 02 00 0D 00 
   616)      2603.4  Rx     18EF1CCD  8  A1 40 00 00 00 00 00 00 
   617)      2618.0  Rx     18EFCD1C  8  A0 00 2A 00 00 00 00 00 
   618)      2618.6  Rx     18EF1CCD  8  A0 00 2A 00 41 06 00 00 
   619)      2620.6  Rx     18EF1C8F  8  0D A0 00 F7 B0 80 70 FB 
   620)      2621.5  Rx     18EF1C8F  8  0D A1 0B 00 1E 00 85 03 
   621)      2622.5  Rx     18EF1C8F  8  0D A2 18 00 16 00 0E 00 
   622)      2636.3  Rx     18EFCD1C  8  A0 00 1B 00 00 00 00 00 
   623)      2636.9  Rx     18EF1CCD  8  A0 00 1B 00 00 00 00 00 
   624)      2640.6  Rx     18EF1C8F  8  0D B0 00 15 FF 80 70 FB 
   625)      2641.5  Rx     18EF1C8F  8  0D B1 F1 FF 22 00 84 03 
   626)      2642.5  Rx     18EF1C8F  8  0D B2 19 00 00 00 0F 00 
   627)      2655.3  Rx     18EFCD1C  8  A0 00 00 00 00 00 00 00 
   628)      2655.9  Rx     18EF1CCD  8  A0 00 00 00 01 00 00 00 
   629)      2660.6  Rx     18EF1C8F  8  0D C0 00 35 4D 81 70 FB 
   630)      2661.5  Rx     18EF1C8F  8  0D C1 05 00 21 00 84 03 
   631)      2662.5  Rx     18EF1C8F  8  0D C2 17 00 12 00 0F 00 
   632)      2663.4  Rx     18EF1CCD  8  A2 00 00 00 00 00 00 00 
   633)      2680.6  Rx     18EF1C8F  8  0D D0 00 55 9B 81 70 FB 
   634)      2681.5  Rx     18EF1C8F  8  0D D1 F6 FF 20 00 80 03 
   635)      2682.5  Rx     18EF1C8F  8  0D D2 16 00 02 00 10 00 
   636)      2683.5  Rx     18EF1CCD  8  A3 00 00 00 00 00 00 00 
   637)      2695.2  Rx     18EFCD1C  8  A1 01 00 00 00 00 00 00 
   638)      2700.6  Rx     18EF1C8F  8  0D E0 00 75 E9 81 70 FB 
   639)      2701.5  Rx     18EF1C8F  8  0D E1 FE FF 1F 00 84 03 
   640)      2702.5  Rx     18EF1C8F  8  0D E2 18 00 0E 00 0E 00 
   641)      2703.5  Rx     18EF1CCD  8  A1 40 00 00 00 00 00 00 
   642)      2720.6  Rx     18EF1C8F  8  0D F0 00 97 37 82 70 FB 
   643)      2721.5  Rx     18EF1C8F  8  0D F1 FC FF 20 00 81 03 
   644)      2722.5  Rx     18EF1C8F  8  0D F2 18 00 06 00 10 00 
   645)      2740.6  Rx     18EF1C8F  8  0D 00 00 B2 85 82 70 FB 
   646)      2741.5  Rx     18EF1C8F  8  0D 01 F6 FF 21 00 84 03 
   647)      2742.5  Rx     18EF1C8F  8  0D 02 15 00 09 00 0E 00 
   648)      2760.6  Rx     18EF1C8F  8  0D 10 00 D5 D3 82 70 FB 
   649)      2761.5  Rx     18EF1C8F  8  0D 11 01 00 1D 00 82 03 
   650)      2762.5  Rx     18EF1C8F  8  0D 12 18 00 0D 00 12 00 
   651)      2763.7  Rx     18EF1CCD  8  A2 00 00 00 00 00 00 00 
   652)      2780.6  Rx     18EF1C8F  8  0D 20 00 F5 21 83 70 FB 
   653)      2781.5  Rx     18EF1C8F  8  0D 21 F6 FF 25 00 89 03 
   654)      2782.5  Rx     18EF1C8F  8  0D 22 16 00 06 00 0C 00 
   655)      2783.7  Rx     18EF1CCD  8  A3 00 00 00 00 00 00 00 
   656)      2800.0  Rx     18EFCD1C  8  A0 00 14 00 00 00 00 00 
   657)      2800.6  Rx     18EF1C8F  8  0D 30 00 15 70 83 70 FB 
   658)      2801.2  Rx     18EF1CCD  8  A0 00 14 00 B2 07 00 00 
   659)      2801.8  Rx     18EF1C8F  8  0D 31 07 00 1C 00 82 03 
   660)      2802.5  Rx     18EF1C8F  8  0D 32 16 00 11 00 11 00 
   661)      2803.8  Rx     18EF1CCD  8  A1 40 00 00 00 00 00 00 
   662)      2816.5  Rx     18EFCD1C  8  A0 00 2A 00 00 00 00 00 
   663)      2816.9  Rx     18EFCD1C  4  01 53 53 00 
   664)      2817.5  Rx     18EF1CCD  8  A0 00 2A 00 42 06 00 00 
   665)      2817.9  Rx     18EF1CCD  4  01 54 53 00 
   666)      2820.6  Rx     18EF1C8F  8  0D 40 00 37 BE 83 70 FB 
   667)      2821.5  Rx     18EF1C8F  8  0D 41 F4 FF 24 00 87 03 
   668)      2822.5  Rx     18EF1C8F  8  0D 42 13 00 03 00 0C 00 
   669)      2836.1  Rx     18EFCD1C  8  A0 00 1B 00 00 00 00 00 
   670)      2836.7  Rx     18EF1CCD  8  A0 00 1B 00 00 00 00 00 
   671)      2840.6  Rx     18EF1C8F  8  0D 50 00 57 0C 84 70 FB 
   672)      2841.5  Rx     18EF1C8F  8  0D 51 0A 00 1A 00 82 03 
   673)      2842.5  Rx     18EF1C8F  8  0D 52 16 00 12 00 0F 00 
   674)      2856.4  Rx     18EFCD1C  8  A0 00 00 00 00 00 00 00 
   675)      2857.0  Rx     18EF1CCD  8  A0 00 00 00 01 00 00 00 
   676)      2860.6  Rx     18EF1C8F  8  0D 60 00 75 5A 84 70 FB 
   677)      2861.5  Rx     18EF1C8F  8  0D 61 F3 FF 25 00 84 03 
   678)      2862.6  Rx     18EF1C8F  8  0D 62 16 00 03 00 0E 00 
   679)      2863.9  Rx     18EF1CCD  8  A2 00 00 00 00 00 00 00 
   680)      2880.6  Rx     18EF1C8F  8  0D 70 00 95 A8 84 70 FB 
   681)      2881.6  Rx     18EF1C8F  8  0D 71 0B 00 1B 00 84 03 
   682)      2882.5  Rx     18EF1C8F  8  0D 72 17 00 15 00 0F 00 
   683)      2884.0  Rx     18EF1CCD  8  A3 00 00 00 00 00 00 00 
   684)      2895.3  Rx     18EFCD1C  8  A1 01 00 00 00 00 00 00 
   685)      2900.6  Rx     18EF1C8F  8  0D 80 00 B5 F6 84 70 FB 
   686)      2901.6  Rx     18EF1C8F  8  0D 81 F2 FF 22 00 81 03 
   687)      2902.6  Rx     18EF1C8F  8  0D 82 18 00 01 00 0D 00 
   688)      2904.1  Rx     18EF1CCD  8  A1 40 00 00 00 00 00 00 
   689)      2916.6  Rx     18FEF31C  8  B5 2B 80 99 11 C7 2C 89 
   690)      2917.2  Rx     18FEE81C  8  33 8A 02 00 00 00 2C 51 
   691)      2917.7  Rx     18FEE61C  8  9F 2F 0C 09 57 29 00 00 
   692)      2918.3  Rx     19F0101C  8  F3 00 EE 50 09 2C 74 1B 
   693)      2918.8  Rx     19F8021C  8  F3 FC 70 BC 00 00 FF FF 
   694)      2920.6  Rx     18EF1C8F  8  0D 90 00 D5 44 85 71 FB 
   695)      2921.6  Rx     18EF1C8F  8  0D 91 0B 00 1E 00 83 03 
   696)      2922.5  Rx     18EF1C8F  8  0D 92 19 00 12 00 0B 00 
   697)      2923.1  Rx     19F8051C  8  E0 2F F3 EE 50 09 2C 74 
   698)      2923.7  Rx     19F8051C  8  E1 1B 00 BC B0 88 6C A7 
   699)      2924.2  Rx     19F8051C  8  E2 98 06 40 47 16 7B 2E 
   700)      2924.8  Rx     19F8051C  8  E3 90 CB 02 E8 B3 40 08 
   701)      2925.4  Rx     19F8051C  8  E4 00 00 00 00 40 00 0C 
   702)      2925.9  Rx     19F8051C  8  E5 5E 00 C0 00 FC 0F 00 
   703)      2926.5  Rx     19F8051C  8  E6 00 01 AF 02 F4 01 FF 
   704)      2940.7  Rx     18EF1C8F  8  0D A0 00 FA 92 85 70 FB 
   705)      2941.6  Rx     18EF1C8F  8  0D A1 F0 FF 20 00 80 03 
   706)      2942.6  Rx     18EF1C8F  8  0D A2 17 00 FF FF 12 00 
   707)      2960.7  Rx     18EF1C8F  8  0D B0 00 15 E1 85 71 FB 
   708)      2961.6  Rx     18EF1C8F  8  0D B1 05 00 21 00 87 03 
   709)      2962.6  Rx     18EF1C8F  8  0D B2 19 00 12 00 11 00 
   710)      2964.2  Rx     18EF1CCD  8  A2 00 00 00 00 00 00 00 
   711)      2980.7  Rx     18EF1C8F  8  0D C0 00 35 2F 86 70 FB 
   712)      2981.6  Rx     18EF1C8F  8  0D C1 F8 FF 20 00 81 03 
   713)      2982.6  Rx     18EF1C8F  8  0D C2 18 00 09 00 0F 00 
   714)      2984.2  Rx     18EF1CCD  8  A3 00 00 00 00 00 00 00 
   715)      3000.7  Rx     18EF1C8F  8  0D D0 00 52 7D 86 70 FB 
   716)      3001.6  Rx     18EF1C8F  8  0D D1 FE FF 22 00 86 03 
   717)      3002.6  Rx     18EF1C8F  8  0D D2 17 00 0A 00 0B 00 
   718)      3003.0  Rx     18EF8F1C  4  01 4D 0B 00 
   719)      3003.5  Rx     18EF1C8F  4  01 0C 4D 00 
   720)      3004.3  Rx     18EF1CCD  8  A1 40 00 00 00 00 00 00 
   721)      3004.9  Rx     18EFCD1C  8  A0 00 14 00 00 00 00 00 
   722)      3005.5  Rx     18EF1CCD  8  A0 00 14 00 B2 07 00 00 
   723)      3020.3  Rx     18EFCD1C  8  A0 00 2A 00 00 00 00 00 
   724)      3020.8  Rx     18EF1C8F  8  0D E0 00 77 CB 86 71 FB 
   725)      3021.4  Rx     18EF1CCD  8  A0 00 2A 00 49 06 00 00 
   726)      3021.9  Rx     18EF1C8F  8  0D E1 00 00 1E 00 80 03 
   727)      3022.6  Rx     18EF1C8F  8  0D E2 18 00 0A 00 11 00 
   728)      3035.3  Rx     18EFCD1C  8  A0 00 1B 00 00 00 00 00 
   729)      3036.0  Rx     18EF1CCD  8  A0 00 1B 00 00 00 00 00 
   730)      3040.7  Rx     18EF1C8F  8  0D F0 00 95 19 87 70 FB 
   731)      3041.6  Rx     18EF1C8F  8  0D F1 F7 FF 23 00 86 03 
   732)      3042.6  Rx     18EF1C8F  8  0D F2 17 00 0B 00 0F 00 
   733)      3056.3  Rx     18EFCD1C  8  A0 00 00 00 00 00 00 00 
   734)      3057.0  Rx     18EF1CCD  8  A0 00 00 00 01 00 00 00 
   735)      3060.7  Rx     18EF1C8F  8  0D 00 00 B5 67 87 71 FB 
   736)      3061.6  Rx     18EF1C8F  8  0D 01 04 00 1E 00 82 03 
   737)      3062.6  Rx     18EF1C8F  8  0D 02 18 00 0D 00 11 00 
   738)      3064.4  Rx     18EF1CCD  8  A2 00 00 00 00 00 00 00 
   739)      3080.7  Rx     18EF1C8F  8  0D 10 00 D5 B5 87 71 FB 
   740)      3081.6  Rx     18EF1C8F  8  0D 11 F4 FF 22 00 86 03 
   741)      3082.6  Rx     18EF1C8F  8  0D 12 14 00 05 00 0B 00 
   742)      3084.5  Rx     18EF1CCD  8  A3 00 00 00 00 00 00 00 
   743)      3095.4  Rx     18EFCD1C  8  A1 01 00 00 00 00 00 00 
   744)      3100.7  Rx     18EF1C8F  8  0D 20 00 F5 03 88 71 FB 
   745)      3101.6  Rx     18EF1C8F  8  0D 21 0A 00 1D 00 82 03 
   746)      3102.6  Rx     18EF1C8F  8  0D 22 18 00 14 00 0F 00 
   747)      3104.5  Rx     18EF1CCD  8  A1 40 00 00 00 00 00 00 
   748)      3120.7  Rx     18EF1C8F  8  0D 30 00 15 52 88 71 FB 
   749)      3121.6  Rx     18EF1C8F  8  0D 31 F3 FF 25 00 85 03 
   750)      3122.6  Rx     18EF1C8F  8  0D 32 15 00 03 00 0C 00 
   751)      3140.7  Rx     18EF1C8F  8  0D 40 00 35 A0 88 71 FB 
   752)      3141.6  Rx     18EF1C8F  8  0D 41 0A 00 1C 00 84 03 
   753)      3142.6  Rx     18EF1C8F  8  0D 42 16 00 16 00 0D 00 
   754)      3160.7  Rx     18EF1C8F  8  0D 50 00 55 EE 88 71 FB 
   755)      3161.6  Rx     18EF1C8F  8  0D 51 F1 FF 25 00 83 03 
   756)      3162.6  Rx     18EF1C8F  8  0D 52 13 00 00 00 0D 00 
   757)      3164.7  Rx     18EF1CCD  8  A2 00 00 00 00 00 00 00 
   758)      3180.8  Rx     18EF1C8F  8  0D 60 00 75 3C 89 71 FB 
   759)      3181.6  Rx     18EF1C8F  8  0D 61 09 00 1C 00 83 03 
   760)      3182.7  Rx     18EF1C8F  8  0D 62 19 00 12 00 10 00 
   761)      3184.8  Rx     18EF1CCD  8  A3 00 00 00 00 00 00 00 
   762)      3199.8  Rx     18EFCD1C  8  A0 00 14 00 00 00 00 00 
   763)      3200.4  Rx     18EF1CCD  8  A0 00 14 00 B3 07 00 00 
   764)      3200.9  Rx     18EF1C8F  8  0D 70 00 97 8A 89 71 FB 
   765)      3201.7  Rx     18EF1C8F  8  0D 71 F4 FF 24 00 84 03 
   766)      3202.7  Rx     18EF1C8F  8  0D 72 16 00 00 00 0F 00 
   767)      3204.8  Rx     18EF1CCD  8  A1 40 00 00 00 00 00 00 
   768)      3216.5  Rx     18EFCD1C  8  A0 00 2A 00 00 00 00 00 
   769)      3217.1  Rx     18EF1CCD  8  A0 00 2A 00 48 06 00 00 
   770)      3220.8  Rx     18EF1C8F  8  0D 80 00 B5 D8 89 71 FB 
   771)      3221.7  Rx     18EF1C8F  8  0D 81 05 00 1E 00 87 03 
   772)      3222.7  Rx     18EF1C8F  8  0D 82 16 00 13 00 0F 00 
   773)      3235.4  Rx     18EFCD1C  8  A0 00 1B 00 00 00 00 00 
   774)      3236.1  Rx     18EF1CCD  8  A0 00 1B 00 00 00 00 00 
   775)      3240.7  Rx     18EF1C8F  8  0D 90 00 D7 26 8A 71 FB 
   776)      3241.7  Rx     18EF1C8F  8  0D 91 F4 FF 21 00 82 03 
   777)      3242.7  Rx     18EF1C8F  8  0D 92 17 00 04 00 11 00 
   778)      3255.4  Rx     18EFCD1C  8  A0 00 00 00 00 00 00 00 
   779)      3256.0  Rx     18EF1CCD  8  A0 00 00 00 01 00 00 00 
   780)      3260.7  Rx     18EF1C8F  8  0D A0 00 F5 74 8A 71 FB 
   781)      3261.7  Rx     18EF1C8F  8  0D A1 01 00 1F 00 86 03 
   782)      3262.6  Rx     18EF1C8F  8  0D A2 1A 00 10 00 0E 00 
   783)      3264.9  Rx     18EF1CCD  8  A2 00 00 00 00 00 00 00 
   784)      3280.8  Rx     18EF1C8F  8  0D B0 00 15 C3 8A 71 FB 
   785)      3281.7  Rx     18EF1C8F  8  0D B1 F9 FF 20 00 7E 03 
   786)      3282.7  Rx     18EF1C8F  8  0D B2 1B 00 07 00 12 00 
   787)      3285.0  Rx     18EF1CCD  8  A3 00 00 00 00 00 00 00 
   788)      3296.4  Rx     18EFCD1C  8  A1 01 00 00 00 00 00 00 
   789)      3300.7  Rx     18EF1C8F  8  0D C0 00 35 11 8B 71 FB 
   790)      3301.6  Rx     18EF1C8F  8  0D C1 FE FF 22 00 89 03 
   791)      3302.7  Rx     18EF1C8F  8  0D C2 16 00 0D 00 0F 00 
   792)      3305.0  Rx     18EF1CCD  8  A1 40 00 00 00 00 00 00 
   793)      3320.7  Rx     18EF1C8F  8  0D D0 00 57 5F 8B 71 FB 
   794)      3321.7  Rx     18EF1C8F  8  0D D1 00 00 1C 00 7F 03 
   795)      3322.6  Rx     18EF1C8F  8  0D D2 17 00 09 00 11 00 
   796)      3340.8  Rx     18EF1C8F  8  0D E0 00 72 AD 8B 71 FB 
   797)      3341.6  Rx     18EF1C8F  8  0D E1 F5 FF 23 00 89 03 
   798)      3342.7  Rx     18EF1C8F  8  0D E2 17 00 05 00 0D 00 
   799)      3360.7  Rx     18EF1C8F  8  0D F0 00 95 FB 8B 71 FB 
   800)      3361.7  Rx     18EF1C8F  8  0D F1 04 00 1C 00 80 03 
   801)      3362.7  Rx     18EF1C8F  8  0D F2 17 00 0F 00 10 00 
   802)      3365.2  Rx     18EF1CCD  8  A2 00 00 00 00 00 00 00 
   803)      3380.8  Rx     18EF1C8F  8  0D 00 00 B5 49 8C 71 FB 
   804)      3381.7  Rx     18EF1C8F  8  0D 01 F4 FF 25 00 87 03 
   805)      3382.7  Rx     18EF1C8F  8  0D 02 14 00 05 00 0C 00 
   806)      3385.2  Rx     18EF1CCD  8  A3 00 00 00 00 00 00 00 
   807)      3399.3  Rx     18EFCD1C  8  A0 00 14 00 00 00 00 00 
   808)      3400.0  Rx     18EF1CCD  8  A0 00 14 00 B2 07 00 00 
   809)      3400.8  Rx     18EF1C8F  8  0D 10 00 D5 97 8C 71 FB 
   810)      3401.7  Rx     18EF1C8F  8  0D 11 0A 00 1C 00 80 03 
   811)      3402.7  Rx     18EF1C8F  8  0D 12 19 00 15 00 0E 00 
   812)      3405.3  Rx     18EF1CCD  8  A1 40 00 00 00 00 00 00 
   813)      3416.3  Rx     18EFCD1C  8  A0 00 2A 00 00 00 00 00 
   814)      3416.9  Rx     18EF1CCD  8  A0 00 2A 00 48 06 00 00 
   815)      3420.8  Rx     18EF1C8F  8  0D 20 00 F5 E5 8C 71 FB 
   816)      3421.7  Rx     18EF1C8F  8  0D 21 F3 FF 22 00 84 03 
   817)      3422.7  Rx     18EF1C8F  8  0D 22 15 00 03 00 0E 00 
   818)      3435.4  Rx     18EFCD1C  8  A0 00 1B 00 00 00 00 00 
   819)      3436.1  Rx     18EF1CCD  8  A0 00 1B 00 00 00 00 00 
   820)      3440.8  Rx     18EF1C8F  8  0D 30 00 15 34 8D 71 FB 
   821)      3441.7  Rx     18EF1C8F  8  0D 31 0A 00 1D 00 81 03 
   822)      3442.7  Rx     18EF1C8F  8  0D 32 19 00 15 00 12 00 
   823)      3455.5  Rx     18EFCD1C  8  A0 00 00 00 00 00 00 00 
   824)      3456.1  Rx     18EF1CCD  8  A0 00 00 00 01 00 00 00 
   825)      3460.8  Rx     18EF1C8F  8  0D 40 00 37 82 8D 71 FB 
   826)      3461.7  Rx     18EF1C8F  8  0D 41 F0 FF 22 00 83 03 
   827)      3462.7  Rx     18EF1C8F  8  0D 42 16 00 00 00 12 00 
   828)      3465.4  Rx     18EF1CCD  8  A2 00 00 00 00 00 00 00 
   829)      3480.8  Rx     18EF1C8F  8  0D 50 00 55 D0 8D 71 FB 
   830)      3481.7  Rx     18EF1C8F  8  0D 51 0A 00 1E 00 81 03 
   831)      3482.7  Rx     18EF1C8F  8  0D 52 16 00 16 00 0B 00 
   832)      3485.5  Rx     18EF1CCD  8  A3 00 00 00 00 00 00 00 
   833)      3496.8  Rx     18EFCD1C  8  A1 01 00 00 00 00 00 00 
   834)      3500.8  Rx     18EF1C8F  8  0D 60 00 75 1E 8E 71 FB 
   835)      3501.7  Rx     18EF1C8F  8  0D 61 F3 FF 21 00 83 03 
   836)      3502.7  Rx     18EF1C8F  8  0D 62 16 00 00 00 0D 00 
   837)      3505.5  Rx     18EF1CCD  8  A1 40 00 00 00 00 00 00 
   838)      3520.8  Rx     18EF1C8F  8  0D 70 00 95 6C 8E 71 FB 
   839)      3521.7  Rx     18EF1C8F  8  0D 71 05 00 1F 00 85 03 
   840)      3522.7  Rx     18EF1C8F  8  0D 72 1B 00 0F 00 0F 00 
   841)      3540.8  Rx     18EF1C8F  8  0D 80 00 B7 BA 8E 71 FB 
   842)      3541.7  Rx     18EF1C8F  8  0D 81 F7 FF 20 00 82 03 
   843)      3542.7  Rx     18EF1C8F  8  0D 82 19 00 00 00 10 00 
   844)      3560.7  Rx     18EF1C8F  8  0D 90 00 D2 08 8F 71 FB 
   845)      3561.7  Rx     18EF1C8F  8  0D 91 FE FF 22 00 86 03 
   846)      3562.7  Rx     18EF1C8F  8  0D 92 16 00 0E 00 0F 00 
   847)      3565.6  Rx     18EF1CCD  8  A2 00 00 00 00 00 00 00 
   848)      3580.8  Rx     18EF1C8F  8  0D A0 00 F5 56 8F 71 FB 
   849)      3581.7  Rx     18EF1C8F  8  0D A1 FD FF 20 00 82 03 
   850)      3582.7  Rx     18EF1C8F  8  0D A2 18 00 05 00 10 00 
   851)      3585.7  Rx     18EF1CCD  8  A3 00 00 00 00 00 00 00 
   852)      3600.8  Rx     18EF1C8F  8  0D B0 00 15 A5 8F 72 FB 
   853)      3601.7  Rx     18EF1C8F  8  0D B1 F8 FF 23 00 86 03 
   854)      3602.3  Rx     18EFCD1C  8  A0 00 14 00 00 00 00 00 
   855)      3602.8  Rx     18EF1C8F  8  0D B2 15 00 0C 00 0D 00 
   856)      3603.4  Rx     18EF1CCD  8  A0 00 14 00 B3 07 00 00 
   857)      3605.7  Rx     18EF1CCD  8  A1 40 00 00 00 00 00 00 
   858)      3617.0  Rx     18EFCD1C  8  A0 00 2A 00 00 00 00 00 
   859)      3617.7  Rx     18EF1CCD  8  A0 00 2A 00 48 06 00 00 
   860)      3620.7  Rx     18EF1C8F  8  0D C0 00 37 F3 8F 72 FB 
   861)      3621.7  Rx     18EF1C8F  8  0D C1 00 00 1E 00 84 03 
   862)      3622.7  Rx     18EF1C8F  8  0D C2 18 00 0D 00 0F 00 
   863)      3635.4  Rx     18EFCD1C  8  A0 00 1B 00 00 00 00 00 
   864)      3636.0  Rx     18EF1CCD  8  A0 00 1B 00 00 00 00 00 
   865)      3640.7  Rx     18EF1C8F  8  0D D0 00 55 41 90 71 FB 
   866)      3641.7  Rx     18EF1C8F  8  0D D1 F6 FF 25 00 89 03 
   867)      3642.6  Rx     18EF1C8F  8  0D D2 16 00 0B 00 0B 00 
   868)      3655.4  Rx     18EFCD1C  8  A0 00 00 00 00 00 00 00 
   869)      3656.0  Rx     18EF1CCD  8  A0 00 00 00 01 00 00 00 
   870)      3660.8  Rx     18EF1C8F  8  0D E0 00 77 8F 90 71 FB 
   871)      3661.6  Rx     18EF1C8F  8  0D E1 04 00 1B 00 83 03 
   872)      3662.7  Rx     18EF1C8F  8  0D E2 15 00 10 00 13 00 
   873)      3665.8  Rx     18EF1CCD  8  A2 00 00 00 00 00 00 00 
   874)      3680.7  Rx     18EF1C8F  8  0D F0 00 95 DD 90 71 FB 
   875)      3681.6  Rx     18EF1C8F  8  0D F1 F3 FF 22 00 85 03 
   876)      3682.7  Rx     18EF1C8F  8  0D F2 15 00 02 00 10 00 
   877)      3685.9  Rx     18EF1CCD  8  A3 00 00 00 00 00 00 00 
   878)      3695.4  Rx     18EFCD1C  8  A1 01 00 00 00 00 00 00 
   879)      3700.7  Rx     18EF1C8F  8  0D 00 00 B5 2B 91 72 FB 
   880)      3701.7  Rx     18EF1C8F  8  0D 01 0A 00 1A 00 82 03 
   881)      3702.6  Rx     18EF1C8F  8  0D 02 14 00 11 00 12 00 
   882)      3705.9  Rx     18EF1CCD  8  A1 40 00 00 00 00 00 00 
   883)      3720.7  Rx     18EF1C8F  8  0D 10 00 D5 79 91 71 FB 
   884)      3721.6  Rx     18EF1C8F  8  0D 11 F2 FF 27 00 86 03 
   885)      3722.6  Rx     18EF1C8F  8  0D 12 14 00 04 00 0E 00 
   886)      3740.7  Rx     18EF1C8F  8  0D 20 00 F5 C7 91 72 FB 
   887)      3741.6  Rx     18EF1C8F  8  0D 21 0D 00 1C 00 83 03 
   888)      3742.7  Rx     18EF1C8F  8  0D 22 18 00 16 00 0F 00 
   889)      3760.7  Rx     18EF1C8F  8  0D 30 00 15 16 92 72 FB 
   890)      3761.6  Rx     18EF1C8F  8  0D 31 F1 FF 22 00 82 03 
   891)      3762.6  Rx     18EF1C8F  8  0D 32 17 00 00 00 10 00 
   892)      3766.0  Rx     18EF1CCD  8  A2 00 00 00 00 00 00 00 
   893)      3780.7  Rx     18EF1C8F  8  0D 40 00 35 64 92 72 FB 
   894)      3781.6  Rx     18EF1C8F  8  0D 41 0B 00 20 00 84 03 
   895)      3782.6  Rx     18EF1C8F  8  0D 42 17 00 14 00 0E 00 
   896)      3786.1  Rx     18EF1CCD  8  A3 00 00 00 00 00 00 00 
   897)      3799.9  Rx     18EFCD1C  8  A0 00 14 00 00 00 00 00 
   898)      3800.6  Rx     18EF1CCD  8  A0 00 14 00 B3 07 00 00 
   899)      3801.1  Rx     18EF1C8F  8  0D 50 00 55 B2 92 72 FB 
   900)      3801.7  Rx     18EF1C8F  8  0D 51 F4 FF 21 00 7F 03 
   901)      3802.6  Rx     18EF1C8F  8  0D 52 15 00 01 00 10 00 
   902)      3806.1  Rx     18EF1CCD  8  A1 40 00 00 00 00 00 00 
   903)      3816.8  Rx     18EFCD1C  8  A0 00 2A 00 00 00 00 00 
   904)      3817.4  Rx     18EF1CCD  8  A0 00 2A 00 41 06 00 00 
   905)      3820.7  Rx     18EF1C8F  8  0D 60 00 77 00 93 71 FB 
   906)      3821.6  Rx     18EF1C8F  8  0D 61 07 00 21 00 86 03 
   907)      3822.6  Rx     18EF1C8F  8  0D 62 17 00 14 00 0E 00 
   908)      3835.3  Rx     18EFCD1C  8  A0 00 1B 00 00 00 00 00 
   909)      3836.0  Rx     18EF1CCD  8  A0 00 1B 00 00 00 00 00 
   910)      3840.7  Rx     18EF1C8F  8  0D 70 00 95 4E 93 72 FB 
   911)      3841.6  Rx     18EF1C8F  8  0D 71 F7 FF 20 00 81 03 
   912)      3842.6  Rx     18EF1C8F  8  0D 72 19 00 02 00 10 00 
   913)      3855.3  Rx     18EFCD1C  8  A0 00 00 00 00 00 00 00 
   914)      3856.0  Rx     18EF1CCD  8  A0 00 00 00 01 00 00 00 
   915)      3860.7  Rx     18EF1C8F  8  0D 80 00 B5 9C 93 72 FB 
   916)      3861.6  Rx     18EF1C8F  8  0D 81 FF FF 21 00 88 03 
   917)      3862.6  Rx     18EF1C8F  8  0D 82 19 00 0F 00 10 00 
   918)      3866.2  Rx     18EF1CCD  8  A2 00 00 00 00 00 00 00 
   919)      3880.7  Rx     18EF1C8F  8  0D 90 00 D5 EA 93 71 FB 
   920)      3881.6  Rx     18EF1C8F  8  0D 91 FD FF 1F 00 82 03 
   921)      3882.6  Rx     18EF1C8F  8  0D 92 18 00 05 00 11 00 
   922)      3886.2  Rx     18EF1CCD  8  A3 00 00 00 00 00 00 00 
   923)      3895.3  Rx     18EFCD1C  8  A1 01 00 00 00 00 00 00 
   924)      3900.6  Rx     18EF1C8F  8  0D A0 00 F5 38 94 72 FB 
   925)      3901.6  Rx     18EF1C8F  8  0D A1 F5 FF 21 00 85 03 
   926)      3902.6  Rx     18EF1C8F  8  0D A2 16 00 0B 00 0E 00 
   927)      3906.3  Rx     18EF1CCD  8  A1 40 00 00 00 00 00 00 
   928)      3916.6  Rx     18FEF31C  8  B5 2B 80 99 11 C7 2C 89 
   929)      3917.1  Rx     18FEE81C  8  33 8A 03 00 00 00 2C 51 
   930)      3917.7  Rx     18FEE61C  8  A3 2F 0C 09 57 29 00 00 
   931)      3918.3  Rx     19F8021C  8  F8 FC 70 BC 00 00 FF FF 
   932)      3920.7  Rx     18EF1C8F  8  0D B0 00 15 87 94 72 FB 
   933)      3921.2  Rx     19F8051C  8  00 2F F8 EE 50 8E 53 74 
   934)      3921.8  Rx     18EF1C8F  8  0D B1 02 00 1C 00 82 03 
   935)      3922.3  Rx     19F8051C  8  01 1B 80 18 8C 83 6C A7 
   936)      3922.9  Rx     18EF1C8F  8  0D B2 19 00 0B 00 0E 00 
   937)      3923.4  Rx     19F8051C  8  02 98 06 40 29 A3 8D 2E 
   938)      3924.0  Rx     19F8051C  8  03 90 CB 02 E1 AB 40 08 
   939)      3924.6  Rx     19F8051C  8  04 00 00 00 00 40 00 0C 
   940)      3925.1  Rx     19F8051C  8  05 5E 00 C0 00 FC 0F 00 
   941)      3925.7  Rx     19F8051C  8  06 00 01 AF 02 58 02 FF 
   942)      3940.7  Rx     18EF1C8F  8  0D C0 00 37 D5 94 72 FB 
   943)      3941.6  Rx     18EF1C8F  8  0D C1 F4 FF 22 00 87 03 
   944)      3942.6  Rx     18EF1C8F  8  0D C2 16 00 0B 00 0A 00 
   945)      3960.6  Rx     18EF1C8F  8  0D D0 00 55 23 95 72 FB 
   946)      3961.6  Rx     18EF1C8F  8  0D D1 05 00 1E 00 84 03 
   947)      3962.6  Rx     18EF1C8F  8  0D D2 17 00 13 00 0F 00 
   948)      3966.4  Rx     18EF1CCD  8  A2 00 00 00 00 00 00 00 
   949)      3980.7  Rx     18EF1C8F  8  0D E0 00 77 71 95 72 FB 
   950)      3981.6  Rx     18EF1C8F  8  0D E1 F3 FF 21 00 86 03 
   951)      3982.6  Rx     18EF1C8F  8  0D E2 14 00 05 00 0D 00 
   952)      3986.5  Rx     18EF1CCD  8  A3 00 00 00 00 00 00 00 
   953)      4000.7  Rx     18EF1C8F  8  0D F0 00 92 BF 95 71 FB 
   954)      4001.6  Rx     18EF1C8F  8  0D F1 08 00 1C 00 83 03 
   955)      4002.1  Rx     18EFCD1C  8  A0 00 14 00 00 00 00 00 
   956)      4002.7  Rx     18EF1C8F  8  0D F2 17 00 12 00 10 00 
   957)      4003.3  Rx     18EF1CCD  8  A0 00 14 00 B2 07 00 00 
   958)      4006.5  Rx     18EF1CCD  8  A1 40 00 00 00 00 00 00 
   959)      4020.0  Rx     18EFCD1C  8  A0 00 2A 00 00 00 00 00 
   960)      4020.6  Rx     18EF1CCD  8  A0 00 2A 00 43 06 00 00 
   961)      4021.2  Rx     18EF1C8F  8  0D 00 00 B7 0D 96 72 FB 
   962)      4021.7  Rx     18EF1C8F  8  0D 01 EF FF 25 00 85 03 
   963)      4022.6  Rx     18EF1C8F  8  0D 02 15 00 00 00 0C 00 
   964)      4035.3  Rx     18EFCD1C  8  A0 00 1B 00 00 00 00 00 
   965)      4035.9  Rx     18EF1CCD  8  A0 00 1B 00 00 00 00 00 
   966)      4040.7  Rx     18EF1C8F  8  0D 10 00 D5 5B 96 72 FB 
   967)      4041.6  Rx     18EF1C8F  8  0D 11 0A 00 1B 00 83 03 
   968)      4042.6  Rx     18EF1C8F  8  0D 12 17 00 13 00 0D 00 
   969)      4055.3  Rx     18EFCD1C  8  A0 00 00 00 00 00 00 00 
   970)      4055.9  Rx     18EF1CCD  8  A0 00 00 00 01 00 00 00 
   971)      4060.6  Rx     18EF1C8F  8  0D 20 00 F5 A9 96 72 FB 
   972)      4061.6  Rx     18EF1C8F  8  0D 21 F3 FF 24 00 83 03 
   973)      4062.6  Rx     18EF1C8F  8  0D 22 16 00 00 00 0E 00 
   974)      4066.7  Rx     18EF1CCD  8  A2 00 00 00 00 00 00 00 
   975)      4080.7  Rx     18EF1C8F  8  0D 30 00 15 F8 96 72 FB 
   976)      4081.6  Rx     18EF1C8F  8  0D 31 07 00 1D 00 86 03 
   977)      4082.6  Rx     18EF1C8F  8  0D 32 15 00 13 00 10 00 
   978)      4086.7  Rx     18EF1CCD  8  A3 00 00 00 00 00 00 00 
   979)      4095.3  Rx     18EFCD1C  8  A1 01 00 00 00 00 00 00 
   980)      4100.7  Rx     18EF1C8F  8  0D 40 00 35 46 97 72 FB 
   981)      4101.6  Rx     18EF1C8F  8  0D 41 F4 FF 22 00 7F 03 
   982)      4102.6  Rx     18EF1C8F  8  0D 42 17 00 01 00 12 00 
   983)      4106.8  Rx     18EF1CCD  8  A1 40 00 00 00 00 00 00 
   984)      4120.7  Rx     18EF1C8F  8  0D 50 00 55 94 97 72 FB 
   985)      4121.6  Rx     18EF1C8F  8  0D 51 04 00 20 00 86 03 
   986)      4122.6  Rx     18EF1C8F  8  0D 52 16 00 0F 00 0F 00 
   987)      4140.7  Rx     18EF1C8F  8  0D 60 00 77 E2 97 72 FB 
   988)      4141.6  Rx     18EF1C8F  8  0D 61 F7 FF 20 00 7E 03 
   989)      4142.6  Rx     18EF1C8F  8  0D 62 17 00 02 00 11 00 
   990)      4160.7  Rx     18EF1C8F  8  0D 70 00 92 30 98 72 FB 
   991)      4161.6  Rx     18EF1C8F  8  0D 71 FF FF 24 00 89 03 
   992)      4162.6  Rx     18EF1C8F  8  0D 72 18 00 0C 00 0F 00 
   993)      4166.9  Rx     18EF1CCD  8  A2 00 00 00 00 00 00 00 
   994)      4180.7  Rx     18EF1C8F  8  0D 80 00 B7 7E 98 72 FB 
   995)      4181.6  Rx     18EF1C8F  8  0D 81 FE FF 1E 00 81 03 
   996)      4182.6  Rx     18EF1C8F  8  0D 82 18 00 06 00 12 00 
   997)      4187.0  Rx     18EF1CCD  8  A3 00 00 00 00 00 00 00 
   998)      4200.4  Rx     18EFCD1C  8  A0 00 14 00 00 00 00 00 
   999)      4200.9  Rx     18EF1C8F  8  0D 90 00 D5 CC 98 72 FB 
  1000)      4201.5  Rx     18EF1CCD  8  A0 00 14 00 B3 07 00 00 
  1001)      4202.0  Rx     18EF1C8F  8  0D 91 F8 FF 23 00 88 03 
  1002)      4202.7  Rx     18EF1C8F  8  0D 92 16 00 09 00 0E 00 
  1003)      4207.0  Rx     18EF1CCD  8  A1 40 00 00 00 00 00 00 
  1004)      4215.4  Rx     18EFCD1C  8  A0 00 2A 00 00 00 00 00 
  1005)      4216.1  Rx     18EF1CCD  8  A0 00 2A 00 48 06 00 00 
  1006)      4220.7  Rx     18EF1C8F  8  0D A0 00 F7 1A 99 72 FB 
  1007)      4221.6  Rx     18EF1C8F  8  0D A1 03 00 1E 00 81 03 
  1008)      4222.6  Rx     18EF1C8F  8  0D A2 18 00 0F 00 12 00 
  1009)      4235.3  Rx     18EFCD1C  8  A0 00 1B 00 00 00 00 00 
  1010)      4235.9  Rx     18EF1CCD  8  A0 00 1B 00 00 00 00 00 
  1011)      4240.7  Rx     18EF1C8F  8  0D B0 00 15 69 99 72 FB 
  1012)      4241.6  Rx     18EF1C8F  8  0D B1 F4 FF 22 00 87 03 
  1013)      4242.6  Rx     18EF1C8F  8  0D B2 17 00 08 00 0E 00 
  1014)      4255.3  Rx     18EFCD1C  8  A0 00 00 00 00 00 00 00 
  1015)      4256.0  Rx     18EF1CCD  8  A0 00 00 00 01 00 00 00 
  1016)      4260.7  Rx     18EF1C8F  8  0D C0 00 35 B7 99 72 FB 
  1017)      4261.6  Rx     18EF1C8F  8  0D C1 09 00 1B 00 80 03 
  1018)      4262.6  Rx     18EF1C8F  8  0D C2 19 00 13 00 0F 00 
  1019)      4267.2  Rx     18EF1CCD  8  A2 00 00 00 00 00 00 00 
  1020)      4280.7  Rx     18EF1C8F  8  0D D0 00 55 05 9A 72 FB 
  1021)      4281.6  Rx     18EF1C8F  8  0D D1 F4 FF 21 00 85 03 
  1022)      4282.6  Rx     18EF1C8F  8  0D D2 14 00 07 00 0F 00 
  1023)      4287.2  Rx     18EF1CCD  8  A3 00 00 00 00 00 00 00 
  1024)      4295.3  Rx     18EFCD1C  8  A1 01 00 00 00 00 00 00 
  1025)      4300.7  Rx     18EF1C8F  8  0D E0 00 75 53 9A 72 FB 
  1026)      4301.6  Rx     18EF1C8F  8  0D E1 0B 00 1E 00 80 03 
  1027)      4302.6  Rx     18EF1C8F  8  0D E2 17 00 16 00 0E 00 
  1028)      4307.3  Rx     18EF1CCD  8  A1 40 00 00 00 00 00 00 
  1029)      4320.7  Rx     18EF1C8F  8  0D F0 00 92 A1 9A 72 FB 
  1030)      4321.6  Rx     18EF1C8F  8  0D F1 F2 FF 23 00 87 03 
  1031)      4322.6  Rx     18EF1C8F  8  0D F2 13 00 01 00 0E 00 
  1032)      4340.7  Rx     18EF1C8F  8  0D 00 00 B5 EF 9A 72 FB 
  1033)      4341.6  Rx     18EF1C8F  8  0D 01 08 00 1E 00 82 03 
  1034)      4342.6  Rx     18EF1C8F  8  0D 02 18 00 15 00 0E 00 
  1035)      4360.7  Rx     18EF1C8F  8  0D 10 00 D5 3D 9B 72 FB 
  1036)      4361.6  Rx     18EF1C8F  8  0D 11 F4 FF 24 00 83 03 
  1037)      4362.6  Rx     18EF1C8F  8  0D 12 17 00 FE FF 11 00 
  1038)      4367.4  Rx     18EF1CCD  8  A2 00 00 00 00 00 00 00 
  1039)      4380.7  Rx     18EF1C8F  8  0D 20 00 F5 8B 9B 72 FB 
  1040)      4381.6  Rx     18EF1C8F  8  0D 21 05 00 1E 00 82 03 
  1041)      4382.6  Rx     18EF1C8F  8  0D 22 18 00 12 00 0E 00 
  1042)      4387.5  Rx     18EF1CCD  8  A3 00 00 00 00 00 00 00 
  1043)      4399.7  Rx     18EFCD1C  8  A0 00 14 00 00 00 00 00 
  1044)      4400.5  Rx     18EF1CCD  8  A0 00 14 00 B2 07 00 00 
  1045)      4401.0  Rx     18EF1C8F  8  0D 30 00 17 DA 9B 72 FB 
  1046)      4401.6  Rx     18EF1C8F  8  0D 31 F7 FF 23 00 82 03 
  1047)      4402.6  Rx     18EF1C8F  8  0D 32 19 00 02 00 0C 00 
  1048)      4407.5  Rx     18EF1CCD  8  A1 40 00 00 00 00 00 00 
  1049)      4415.6  Rx     18EFCD1C  8  A0 00 2A 00 00 00 00 00 
  1050)      4416.3  Rx     18EF1CCD  8  A0 00 2A 00 47 06 00 00 
  1051)      4420.7  Rx     18EF1C8F  8  0D 40 00 35 28 9C 72 FB 
  1052)      4421.6  Rx     18EF1C8F  8  0D 41 FF FF 21 00 85 03 
  1053)      4422.7  Rx     18EF1C8F  8  0D 42 19 00 11 00 0B 00 
  1054)      4435.4  Rx     18EFCD1C  8  A0 00 1B 00 00 00 00 00 
  1055)      4436.0  Rx     18EF1CCD  8  A0 00 1B 00 00 00 00 00 
  1056)      4440.7  Rx     18EF1C8F  8  0D 50 00 57 76 9C 72 FB 
  1057)      4441.7  Rx     18EF1C8F  8  0D 51 F9 FF 20 00 7F 03 
  1058)      4442.6  Rx     18EF1C8F  8  0D 52 16 00 06 00 12 00 
  1059)      4455.3  Rx     18EFCD1C  8  A0 00 00 00 00 00 00 00 
  1060)      4456.0  Rx     18EF1CCD  8  A0 00 00 00 01 00 00 00 
  1061)      4460.7  Rx     18EF1C8F  8  0D 60 00 75 C4 9C 73 FB 
  1062)      4461.6  Rx     18EF1C8F  8  0D 61 FD FF 22 00 87 03 
  1063)      4462.7  Rx     18EF1C8F  8  0D 62 12 00 0E 00 10 00 
  1064)      4467.6  Rx     18EF1CCD  8  A2 00 00 00 00 00 00 00 
  1065)      4480.7  Rx     18EF1C8F  8  0D 70 00 95 12 9D 73 FB 
  1066)      4481.7  Rx     18EF1C8F  8  0D 71 FD FF 1F 00 80 03 
  1067)      4482.6  Rx     18EF1C8F  8  0D 72 19 00 0B 00 11 00 
  1068)      4487.7  Rx     18EF1CCD  8  A3 00 00 00 00 00 00 00 
  1069)      4495.3  Rx     18EFCD1C  8  A1 01 00 00 00 00 00 00 
  1070)      4500.8  Rx     18EF1C8F  8  0D 80 00 B5 60 9D 73 FB 
  1071)      4501.7  Rx     18EF1C8F  8  0D 81 F6 FF 23 00 88 03 
  1072)      4502.6  Rx     18EF1C8F  8  0D 82 16 00 0A 00 0B 00 
  1073)      4507.7  Rx     18EF1CCD  8  A1 40 00 00 00 00 00 00 
  1074)      4520.7  Rx     18EF1C8F  8  0D 90 00 D7 AE 9D 72 FB 
  1075)      4521.6  Rx     18EF1C8F  8  0D 91 03 00 1C 00 7F 03 
  1076)      4522.7  Rx     18EF1C8F  8  0D 92 18 00 0C 00 0F 00 
  1077)      4540.7  Rx     18EF1C8F  8  0D A0 00 F2 FC 9D 73 FB 
  1078)      4541.6  Rx     18EF1C8F  8  0D A1 F2 FF 23 00 87 03 
  1079)      4542.6  Rx     18EF1C8F  8  0D A2 14 00 05 00 0D 00 
  1080)      4560.7  Rx     18EF1C8F  8  0D B0 00 15 4B 9E 73 FB 
  1081)      4561.6  Rx     18EF1C8F  8  0D B1 08 00 1A 00 83 03 
  1082)      4562.6  Rx     18EF1C8F  8  0D B2 17 00 10 00 12 00 
  1083)      4567.9  Rx     18EF1CCD  8  A2 00 00 00 00 00 00 00 
  1084)      4580.7  Rx     18EF1C8F  8  0D C0 00 35 99 9E 73 FB 
  1085)      4581.6  Rx     18EF1C8F  8  0D C1 F2 FF 25 00 86 03 
  1086)      4582.6  Rx     18EF1C8F  8  0D C2 15 00 03 00 0F 00 
  1087)      4587.9  Rx     18EF1CCD  8  A3 00 00 00 00 00 00 00 
  1088)      4600.3  Rx     18EFCD1C  8  A0 00 14 00 00 00 00 00 
  1089)      4600.9  Rx     18EF1C8F  8  0D D0 00 55 E7 9E 73 FB 
  1090)      4601.4  Rx     18EF1CCD  8  A0 00 14 00 B3 07 00 00 
  1091)      4602.0  Rx     18EF1C8F  8  0D D1 09 00 1C 00 83 03 
  1092)      4602.6  Rx     18EF1C8F  8  0D D2 17 00 13 00 0F 00 
  1093)      4607.9  Rx     18EF1CCD  8  A1 40 00 00 00 00 00 00 
  1094)      4615.8  Rx     18EFCD1C  8  A0 00 2A 00 00 00 00 00 
  1095)      4616.4  Rx     18EF1CCD  8  A0 00 2A 00 4B 06 00 00 
  1096)      4620.7  Rx     18EF1C8F  8  0D E0 00 7A 35 9F 73 FB 
  1097)      4621.6  Rx     18EF1C8F  8  0D E1 F0 FF 23 00 83 03 
  1098)      4622.6  Rx     18EF1C8F  8  0D E2 16 00 04 00 0E 00 
  1099)      4635.3  Rx     18EFCD1C  8  A0 00 1B 00 00 00 00 00 
  1100)      4636.0  Rx     18EF1CCD  8  A0 00 1B 00 00 00 00 00 
  1101)      4640.7  Rx     18EF1C8F  8  0D F0 00 95 83 9F 72 FB 
  1102)      4641.6  Rx     18EF1C8F  8  0D F1 0B 00 1D 00 83 03 
  1103)      4642.6  Rx     18EF1C8F  8  0D F2 17 00 17 00 0F 00 
  1104)      4655.3  Rx     18EFCD1C  8  A0 00 00 00 00 00 00 00 
  1105)      4656.0  Rx     18EF1CCD  8  A0 00 00 00 01 00 00 00 
  1106)      4660.7  Rx     18EF1C8F  8  0D 00 00 B7 D1 9F 73 FB 
  1107)      4661.7  Rx     18EF1C8F  8  0D 01 EF FF 21 00 7F 03 
  1108)      4662.6  Rx     18EF1C8F  8  0D 02 18 00 00 00 11 00 
  1109)      4668.0  Rx     18EF1CCD  8  A2 00 00 00 00 00 00 00 
  1110)      4680.7  Rx     18EF1C8F  8  0D 10 00 D5 1F A0 73 FB 
  1111)      4681.6  Rx     18EF1C8F  8  0D 11 06 00 21 00 85 03 
  1112)      4682.7  Rx     18EF1C8F  8  0D 12 18 00 12 00 0E 00 
  1113)      4688.1  Rx     18EF1CCD  8  A3 00 00 00 00 00 00 00 
  1114)      4695.3  Rx     18EFCD1C  8  A1 01 00 00 00 00 00 00 
  1115)      4700.7  Rx     18EF1C8F  8  0D 20 00 F5 6D A0 73 FB 
  1116)      4701.6  Rx     18EF1C8F  8  0D 21 F8 FF 21 00 81 03 
  1117)      4702.6  Rx     18EF1C8F  8  0D 22 17 00 01 00 12 00 
  1118)      4708.2  Rx     18EF1CCD  8  A1 40 00 00 00 00 00 00 
  1119)      4720.8  Rx     18EF1C8F  8  0D 30 00 15 BC A0 73 FB 
  1120)      4721.6  Rx     18EF1C8F  8  0D 31 00 00 21 00 87 03 
  1121)      4722.6  Rx     18EF1C8F  8  0D 32 15 00 0C 00 0F 00 
  1122)      4740.7  Rx     18EF1C8F  8  0D 40 00 35 0A A1 73 FB 
  1123)      4741.6  Rx     18EF1C8F  8  0D 41 FC FF 1D 00 82 03 
  1124)      4742.7  Rx     18EF1C8F  8  0D 42 1A 00 04 00 0F 00 
  1125)      4760.7  Rx     18EF1C8F  8  0D 50 00 55 58 A1 73 FB 
  1126)      4761.7  Rx     18EF1C8F  8  0D 51 FA FF 20 00 86 03 
  1127)      4762.6  Rx     18EF1C8F  8  0D 52 19 00 0C 00 0D 00 
  1128)      4768.3  Rx     18EF1CCD  8  A2 00 00 00 00 00 00 00 
  1129)      4780.7  Rx     18EF1C8F  8  0D 60 00 75 A6 A1 73 FB 
  1130)      4781.6  Rx     18EF1C8F  8  0D 61 03 00 1E 00 83 03 
  1131)      4782.7  Rx     18EF1C8F  8  0D 62 1A 00 0A 00 0F 00 
  1132)      4788.4  Rx     18EF1CCD  8  A3 00 00 00 00 00 00 00 
  1133)      4800.1  Rx     18EFCD1C  8  A0 00 14 00 00 00 00 00 
  1134)      4800.7  Rx     18EF1C8F  8  0D 70 00 92 F4 A1 73 FB 
  1135)      4801.3  Rx     18EF1CCD  8  A0 00 14 00 B3 07 00 00 
  1136)      4801.8  Rx     18EF1C8F  8  0D 71 F7 FF 23 00 88 03 
  1137)      4802.6  Rx     18EF1C8F  8  0D 72 18 00 0A 00 0D 00 
  1138)      4808.4  Rx     18EF1CCD  8  A1 40 00 00 00 00 00 00 
  1139)      4816.9  Rx     18EFCD1C  8  A0 00 2A 00 00 00 00 00 
  1140)      4817.6  Rx     18EF1CCD  8  A0 00 2A 00 43 06 00 00 
  1141)      4820.8  Rx     18EF1C8F  8  0D 80 00 B7 42 A2 73 FB 
  1142)      4821.7  Rx     18EF1C8F  8  0D 81 06 00 1E 00 84 03 
  1143)      4822.7  Rx     18EF1C8F  8  0D 82 1A 00 13 00 0F 00 
  1144)      4835.3  Rx     18EFCD1C  8  A0 00 1B 00 00 00 00 00 
  1145)      4835.8  Rx     18EFCD1C  4  01 54 54 00 
  1146)      4836.4  Rx     18EF1CCD  8  A0 00 1B 00 00 00 00 00 
  1147)      4836.8  Rx     18EF1CCD  4  01 55 54 00 
  1148)      4840.7  Rx     18EF1C8F  8  0D 90 00 D5 90 A2 73 FB 
  1149)      4841.6  Rx     18EF1C8F  8  0D 91 F4 FF 23 00 84 03 
  1150)      4842.7  Rx     18EF1C8F  8  0D 92 15 00 06 00 0C 00 
  1151)      4855.4  Rx     18EFCD1C  8  A0 00 00 00 00 00 00 00 
  1152)      4856.0  Rx     18EF1CCD  8  A0 00 00 00 01 00 00 00 
  1153)      4860.8  Rx     18EF1C8F  8  0D A0 00 F5 DE A2 73 FB 
  1154)      4861.7  Rx     18EF1C8F  8  0D A1 09 00 1C 00 7F 03 
  1155)      4862.6  Rx     18EF1C8F  8  0D A2 16 00 13 00 0E 00 
  1156)      4868.6  Rx     18EF1CCD  8  A2 00 00 00 00 00 00 00 
  1157)      4880.8  Rx     18EF1C8F  8  0D B0 00 17 2D A3 73 FB 
  1158)      4881.7  Rx     18EF1C8F  8  0D B1 F2 FF 25 00 83 03 
  1159)      4882.7  Rx     18EF1C8F  8  0D B2 16 00 01 00 0D 00 
  1160)      4888.6  Rx     18EF1CCD  8  A3 00 00 00 00 00 00 00 
  1161)      4895.4  Rx     18EFCD1C  8  A1 01 00 00 00 00 00 00 
  1162)      4900.7  Rx     18EF1C8F  8  0D C0 00 35 7B A3 73 FB 
  1163)      4901.7  Rx     18EF1C8F  8  0D C1 09 00 1A 00 81 03 
  1164)      4902.7  Rx     18EF1C8F  8  0D C2 1A 00 12 00 0E 00 
  1165)      4908.7  Rx     18EF1CCD  8  A1 40 00 00 00 00 00 00 
  1166)      4916.4  Rx     18FEF31C  8  B5 2B 80 99 11 C7 2C 89 
  1167)      4916.9  Rx     18FEE81C  8  33 8A 04 00 00 00 2C 51 
  1168)      4917.5  Rx     18FEE61C  8  A7 2F 0C 09 57 29 00 00 
  1169)      4918.1  Rx     19F8021C  8  02 FC 70 BC 00 00 FF FF 
  1170)      4920.3  Rx     19F8051C  8  20 2F 02 EE 50 29 7A 74 
  1171)      4920.8  Rx     18EF1C8F  8  0D D0 00 57 C9 A3 72 FB 
  1172)      4921.7  Rx     18EF1C8F  8  0D D1 F2 FF 27 00 84 03 
  1173)      4922.6  Rx     19F8051C  8  21 1B 40 CC D3 8D 6C A7 
  1174)      4923.1  Rx     18EF1C8F  8  0D D2 18 00 00 00 0D 00 
  1175)      4923.7  Rx     19F8051C  8  22 98 06 80 4A FA 7E 2E 
  1176)      4924.3  Rx     19F8051C  8  23 90 CB 02 E7 A2 40 08 
  1177)      4924.9  Rx     19F8051C  8  24 00 00 00 00 40 00 0C 
  1178)      4925.4  Rx     19F8051C  8  25 5E 00 C0 00 FC 0F 00 
  1179)      4926.0  Rx     19F8051C  8  26 00 01 AF 02 BC 02 FF 
  1180)      4940.7  Rx     18EF1C8F  8  0D E0 00 77 17 A4 73 FB 
  1181)      4941.7  Rx     18EF1C8F  8  0D E1 09 00 1F 00 84 03 
  1182)      4942.7  Rx     18EF1C8F  8  0D E2 17 00 15 00 0B 00 
  1183)      4960.8  Rx     18EF1C8F  8  0D F0 00 95 65 A4 73 FB 
  1184)      4961.7  Rx     18EF1C8F  8  0D F1 F5 FF 25 00 80 03 
  1185)      4962.7  Rx     18EF1C8F  8  0D F2 15 00 03 00 0C 00 
  1186)      4968.8  Rx     18EF1CCD  8  A2 00 00 00 00 00 00 00 
  1187)      4980.8  Rx     18EF1C8F  8  0D 00 00 B5 B3 A4 73 FB 
  1188)      4981.7  Rx     18EF1C8F  8  0D 01 05 00 1F 00 89 03 
  1189)      4982.7  Rx     18EF1C8F  8  0D 02 17 00 14 00 0F 00 
  1190)      4988.9  Rx     18EF1CCD  8  A3 00 00 00 00 00 00 00 
  1191)      5000.8  Rx     18EF1C8F  8  0D 10 00 D5 01 A5 73 FB 
  1192)      5001.7  Rx     18EF1C8F  8  0D 11 F5 FF 1F 00 7F 03 
  1193)      5002.3  Rx     18EFCD1C  8  A0 00 14 00 00 00 00 00 
  1194)      5002.8  Rx     18EF1C8F  8  0D 12 17 00 04 00 11 00 
  1195)      5003.4  Rx     18EF1CCD  8  A0 00 14 00 B3 07 00 00 
  1196)      5008.9  Rx     18EF1CCD  8  A1 40 00 00 00 00 00 00 
  1197)      5020.4  Rx     18EFCD1C  8  A0 00 2A 00 00 00 00 00 
  1198)      5020.9  Rx     18EF1C8F  8  0D 20 00 F7 4F A5 73 FB 
  1199)      5021.5  Rx     18EF1CCD  8  A0 00 2A 00 40 06 00 00 
  1200)      5022.1  Rx     18EF1C8F  8  0D 21 00 00 23 00 89 03 
  1201)      5022.7  Rx     18EF1C8F  8  0D 22 15 00 0E 00 0C 00 
  1202)      5035.4  Rx     18EFCD1C  8  A0 00 1B 00 00 00 00 00 
  1203)      5036.0  Rx     18EF1CCD  8  A0 00 1B 00 00 00 00 00 
  1204)      5040.8  Rx     18EF1C8F  8  0D 30 00 15 9E A5 73 FB 
  1205)      5041.7  Rx     18EF1C8F  8  0D 31 FE FF 1F 00 80 03 
  1206)      5042.7  Rx     18EF1C8F  8  0D 32 16 00 0B 00 10 00 
  1207)      5055.4  Rx     18EFCD1C  8  A0 00 00 00 00 00 00 00 
  1208)      5056.0  Rx     18EF1CCD  8  A0 00 00 00 01 00 00 00 
  1209)      5060.8  Rx     18EF1C8F  8  0D 40 00 35 EC A5 73 FB 
  1210)      5061.7  Rx     18EF1C8F  8  0D 41 F7 FF 23 00 88 03 
  1211)      5062.7  Rx     18EF1C8F  8  0D 42 16 00 0C 00 10 00 
  1212)      5069.0  Rx     18EF1CCD  8  A2 00 00 00 00 00 00 00 
  1213)      5080.8  Rx     18EF1C8F  8  0D 50 00 57 3A A6 73 FB 
  1214)      5081.7  Rx     18EF1C8F  8  0D 51 02 00 1D 00 82 03 
  1215)      5082.7  Rx     18EF1C8F  8  0D 52 1A 00 0C 00 15 00 
  1216)      5089.1  Rx     18EF1CCD  8  A3 00 00 00 00 00 00 00 
  1217)      5095.4  Rx     18EFCD1C  8  A1 01 00 00 00 00 00 00 
  1218)      5100.8  Rx     18EF1C8F  8  0D 60 00 75 88 A6 73 FB 
  1219)      5101.7  Rx     18EF1C8F  8  0D 61 F3 FF 21 00 86 03 
  1220)      5102.7  Rx     18EF1C8F  8  0D 62 15 00 06 00 10 00 
  1221)      5109.1  Rx     18EF1CCD  8  A1 40 00 00 00 00 00 00 
  1222)      5120.8  Rx     18EF1C8F  8  0D 70 00 95 D6 A6 73 FB 
  1223)      5121.7  Rx     18EF1C8F  8  0D 71 06 00 1C 00 80 03 
  1224)      5122.7  Rx     18EF1C8F  8  0D 72 18 00 10 00 10 00 
  1225)      5140.8  Rx     18EF1C8F  8  0D 80 00 B2 24 A7 73 FB 
  1226)      5141.7  Rx     18EF1C8F  8  0D 81 F1 FF 21 00 84 03 
  1227)      5142.7  Rx     18EF1C8F  8  0D 82 16 00 04 00 0F 00 
  1228)      5160.8  Rx     18EF1C8F  8  0D 90 00 D5 72 A7 73 FB 
  1229)      5161.7  Rx     18EF1C8F  8  0D 91 08 00 20 00 7F 03 
  1230)      5162.7  Rx     18EF1C8F  8  0D 92 17 00 17 00 0D 00 
  1231)      5169.3  Rx     18EF1CCD  8  A2 00 00 00 00 00 00 00 
  1232)      5180.8  Rx     18EF1C8F  8  0D A0 00 F5 C0 A7 73 FB 
  1233)      5181.7  Rx     18EF1C8F  8  0D A1 EF FF 21 00 85 03 
  1234)      5182.8  Rx     18EF1C8F  8  0D A2 14 00 00 00 0E 00 
  1235)      5189.4  Rx     18EF1CCD  8  A3 00 00 00 00 00 00 00 
  1236)      5200.1  Rx     18EF8F1C  4  01 4E 0C 00 
  1237)      5200.8  Rx     18EF1C8F  8  0D B0 00 15 0F A8 73 FB 
  1238)      5201.4  Rx     18EFCD1C  8  A0 00 14 00 00 00 00 00 
  1239)      5202.0  Rx     18EF1C8F  8  0D B1 08 00 1C 00 84 03 
  1240)      5202.5  Rx     18EF1CCD  8  A0 00 14 00 B3 07 00 00 
  1241)      5203.1  Rx     18EF1C8F  8  0D B2 17 00 15 00 0F 00 
  1242)      5203.7  Rx     18EF1C8F  4  01 0D 4E 00 
  1243)      5209.4  Rx     18EF1CCD  8  A1 40 00 00 00 00 00 00 
  1244)      5217.3  Rx     18EFCD1C  8  A0 00 2A 00 00 00 00 00 
  1245)      5218.0  Rx     18EF1CCD  8  A0 00 2A 00 47 06 00 00 
  1246)      5220.8  Rx     18EF1C8F  8  0D C0 00 37 5D A8 74 FB 
  1247)      5221.7  Rx     18EF1C8F  8  0D C1 F0 FF 22 00 84 03 
  1248)      5222.7  Rx     18EF1C8F  8  0D C2 18 00 01 00 0C 00 
  1249)      5236.5  Rx     18EFCD1C  8  A0 00 1B 00 00 00 00 00 
  1250)      5237.1  Rx     18EF1CCD  8  A0 00 1B 00 00 00 00 00 
  1251)      5240.8  Rx     18EF1C8F  8  0D D0 00 55 AB A8 74 FB 
  1252)      5241.7  Rx     18EF1C8F  8  0D D1 06 00 1C 00 84 03 
  1253)      5242.8  Rx     18EF1C8F  8  0D D2 1A 00 13 00 0C 00 
  1254)      5255.4  Rx     18EFCD1C  8  A0 00 00 00 00 00 00 00 
  1255)      5256.0  Rx     18EF1CCD  8  A0 00 00 00 01 00 00 00 
  1256)      5260.8  Rx     18EF1C8F  8  0D E0 00 75 F9 A8 74 FB 
  1257)      5261.8  Rx     18EF1C8F  8  0D E1 F6 FF 24 00 81 03 
  1258)      5262.7  Rx     18EF1C8F  8  0D E2 14 00 00 00 11 00 
  1259)      5269.5  Rx     18EF1CCD  8  A2 00 00 00 00 00 00 00 
  1260)      5280.8  Rx     18EF1C8F  8  0D F0 00 95 47 A9 74 FB 
  1261)      5281.7  Rx     18EF1C8F  8  0D F1 02 00 20 00 85 03 
  1262)      5282.8  Rx     18EF1C8F  8  0D F2 11 00 10 00 0D 00 
  1263)      5289.6  Rx     18EF1CCD  8  A3 00 00 00 00 00 00 00 
  1264)      5295.4  Rx     18EFCD1C  8  A1 01 00 00 00 00 00 00 
  1265)      5300.8  Rx     18EF1C8F  8  0D 00 00 B7 95 A9 74 FB 
  1266)      5301.7  Rx     18EF1C8F  8  0D 01 F9 FF 20 00 81 03 
  1267)      5302.7  Rx     18EF1C8F  8  0D 02 17 00 02 00 10 00 
  1268)      5309.6  Rx     18EF1CCD  8  A1 40 00 00 00 00 00 00 
  1269)      5320.8  Rx     18EF1C8F  8  0D 10 00 D5 E3 A9 74 FB 
  1270)      5321.7  Rx     18EF1C8F  8  0D 11 FD FF 21 00 88 03 
  1271)      5322.7  Rx     18EF1C8F  8  0D 12 17 00 08 00 0E 00 
  1272)      5340.8  Rx     18EF1C8F  8  0D 20 00 F5 31 AA 74 FB 
  1273)      5341.7  Rx     18EF1C8F  8  0D 21 FB FF 1E 00 7F 03 
  1274)      5342.8  Rx     18EF1C8F  8  0D 22 1C 00 07 00 12 00 
  1275)      5360.8  Rx     18EF1C8F  8  0D 30 00 12 80 AA 74 FB 
  1276)      5361.7  Rx     18EF1C8F  8  0D 31 FA FF 25 00 8C 03 
  1277)      5362.7  Rx     18EF1C8F  8  0D 32 16 00 08 00 0D 00 
  1278)      5369.8  Rx     18EF1CCD  8  A2 00 00 00 00 00 00 00 
  1279)      5380.8  Rx     18EF1C8F  8  0D 40 00 37 CE AA 74 FB 
  1280)      5381.7  Rx     18EF1C8F  8  0D 41 04 00 1B 00 7F 03 
  1281)      5382.7  Rx     18EF1C8F  8  0D 42 18 00 0E 00 10 00 
  1282)      5389.8  Rx     18EF1CCD  8  A3 00 00 00 00 00 00 00 
  1283)      5400.5  Rx     18EFCD1C  8  A0 00 14 00 00 00 00 00 
  1284)      5401.0  Rx     18EF1C8F  8  0D 50 00 55 1C AB 74 FB 
  1285)      5401.6  Rx     18EF1CCD  8  A0 00 14 00 B3 07 00 00 
  1286)      5402.1  Rx     18EF1C8F  8  0D 51 F2 FF 22 00 87 03 
  1287)      5402.8  Rx     18EF1C8F  8  0D 52 14 00 06 00 0B 00 
  1288)      5409.8  Rx     18EF1CCD  8  A1 40 00 00 00 00 00 00 
  1289)      5416.7  Rx     18EFCD1C  8  A0 00 2A 00 00 00 00 00 
  1290)      5417.3  Rx     18EF1CCD  8  A0 00 2A 00 49 06 00 00 
  1291)      5420.8  Rx     18EF1C8F  8  0D 60 00 77 6A AB 74 FB 
  1292)      5421.7  Rx     18EF1C8F  8  0D 61 0A 00 1B 00 82 03 
  1293)      5422.7  Rx     18EF1C8F  8  0D 62 17 00 11 00 10 00 
  1294)      5436.2  Rx     18EFCD1C  8  A0 00 1B 00 00 00 00 00 
  1295)      5436.9  Rx     18EF1CCD  8  A0 00 1B 00 00 00 00 00 
  1296)      5440.8  Rx     18EF1C8F  8  0D 70 00 95 B8 AB 74 FB 
  1297)      5441.7  Rx     18EF1C8F  8  0D 71 F1 FF 23 00 88 03 
  1298)      5442.7  Rx     18EF1C8F  8  0D 72 16 00 05 00 0F 00 
  1299)      5456.5  Rx     18EFCD1C  8  A0 00 00 00 00 00 00 00 
  1300)      5457.1  Rx     18EF1CCD  8  A0 00 00 00 01 00 00 00 
  1301)      5460.8  Rx     18EF1C8F  8  0D 80 00 B5 06 AC 73 FB 
  1302)      5461.7  Rx     18EF1C8F  8  0D 81 0C 00 1B 00 7F 03 
  1303)      5462.7  Rx     18EF1C8F  8  0D 82 17 00 16 00 0F 00 
  1304)      5470.0  Rx     18EF1CCD  8  A2 00 00 00 00 00 00 00 
  1305)      5480.8  Rx     18EF1C8F  8  0D 90 00 D5 54 AC 74 FB 
  1306)      5481.8  Rx     18EF1C8F  8  0D 91 F0 FF 24 00 84 03 
  1307)      5482.7  Rx     18EF1C8F  8  0D 92 16 00 00 00 11 00 
  1308)      5490.0  Rx     18EF1CCD  8  A3 00 00 00 00 00 00 00 
  1309)      5495.4  Rx     18EFCD1C  8  A1 01 00 00 00 00 00 00 
  1310)      5500.8  Rx     18EF1C8F  8  0D A0 00 F5 A2 AC 74 FB 
  1311)      5501.7  Rx     18EF1C8F  8  0D A1 0C 00 1F 00 84 03 
  1312)      5502.7  Rx     18EF1C8F  8  0D A2 18 00 14 00 0E 00 
  1313)      5510.0  Rx     18EF1CCD  8  A1 40 00 00 00 00 00 00 
  1314)      5520.8  Rx     18EF1C8F  8  0D B0 00 15 F1 AC 74 FB 
  1315)      5521.7  Rx     18EF1C8F  8  0D B1 F2 FF 22 00 81 03 
  1316)      5522.7  Rx     18EF1C8F  8  0D B2 15 00 01 00 10 00 
  1317)      5540.8  Rx     18EF1C8F  8  0D C0 00 32 3F AD 74 FB 
  1318)      5541.7  Rx     18EF1C8F  8  0D C1 07 00 20 00 85 03 
  1319)      5542.7  Rx     18EF1C8F  8  0D C2 18 00 12 00 0C 00 
  1320)      5560.8  Rx     18EF1C8F  8  0D D0 00 57 8D AD 74 FB 
  1321)      5561.7  Rx     18EF1C8F  8  0D D1 F5 FF 1F 00 83 03 
  1322)      5562.8  Rx     18EF1C8F  8  0D D2 17 00 02 00 0F 00 
  1323)      5570.2  Rx     18EF1CCD  8  A2 00 00 00 00 00 00 00 
  1324)      5580.8  Rx     18EF1C8F  8  0D E0 00 75 DB AD 73 FB 
  1325)      5581.8  Rx     18EF1C8F  8  0D E1 01 00 22 00 86 03 
  1326)      5582.7  Rx     18EF1C8F  8  0D E2 19 00 10 00 10 00 
  1327)      5590.2  Rx     18EF1CCD  8  A3 00 00 00 00 00 00 00 
  1328)      5599.7  Rx     18EFCD1C  8  A0 00 14 00 00 00 00 00 
  1329)      5600.4  Rx     18EF1CCD  8  A0 00 14 00 B3 07 00 00 
  1330)      5600.9  Rx     18EF1C8F  8  0D F0 00 95 29 AE 74 FB 
  1331)      5601.7  Rx     18EF1C8F  8  0D F1 FC FF 20 00 80 03 
  1332)      5602.7  Rx     18EF1C8F  8  0D F2 1A 00 09 00 10 00 
  1333)      5610.3  Rx     18EF1CCD  8  A1 40 00 00 00 00 00 00 
  1334)      5616.7  Rx     18EFCD1C  8  A0 00 2A 00 00 00 00 00 
  1335)      5617.4  Rx     18EF1CCD  8  A0 00 2A 00 47 06 00 00 
  1336)      5620.8  Rx     18EF1C8F  8  0D 00 00 B5 77 AE 74 FB 
  1337)      5621.7  Rx     18EF1C8F  8  0D 01 FA FF 22 00 86 03 
  1338)      5622.7  Rx     18EF1C8F  8  0D 02 14 00 10 00 0C 00 
  1339)      5635.9  Rx     18EFCD1C  8  A0 00 1B 00 00 00 00 00 
  1340)      5636.5  Rx     18EF1CCD  8  A0 00 1B 00 00 00 00 00 
  1341)      5640.8  Rx     18EF1C8F  8  0D 10 00 D5 C5 AE 74 FB 
  1342)      5641.8  Rx     18EF1C8F  8  0D 11 00 00 1E 00 83 03 
  1343)      5642.7  Rx     18EF1C8F  8  0D 12 16 00 0D 00 12 00 
  1344)      5656.4  Rx     18EFCD1C  8  A0 00 00 00 00 00 00 00 
  1345)      5657.0  Rx     18EF1CCD  8  A0 00 00 00 01 00 00 00 
  1346)      5660.8  Rx     18EF1C8F  8  0D 20 00 F5 13 AF 74 FB 
  1347)      5661.7  Rx     18EF1C8F  8  0D 21 F7 FF 23 00 89 03 
  1348)      5662.7  Rx     18EF1C8F  8  0D 22 14 00 09 00 10 00 
  1349)      5670.4  Rx     18EF1CCD  8  A2 00 00 00 00 00 00 00 
  1350)      5680.8  Rx     18EF1C8F  8  0D 30 00 15 62 AF 74 FB 
  1351)      5681.7  Rx     18EF1C8F  8  0D 31 02 00 20 00 83 03 
  1352)      5682.7  Rx     18EF1C8F  8  0D 32 18 00 0D 00 11 00 
  1353)      5690.5  Rx     18EF1CCD  8  A3 00 00 00 00 00 00 00 
  1354)      5695.4  Rx     18EFCD1C  8  A1 01 00 00 00 00 00 00 
  1355)      5700.8  Rx     18EF1C8F  8  0D 40 00 35 B0 AF 74 FB 
  1356)      5701.7  Rx     18EF1C8F  8  0D 41 F3 FF 26 00 86 03 
  1357)      5702.7  Rx     18EF1C8F  8  0D 42 15 00 07 00 0E 00 
  1358)      5710.5  Rx     18EF1CCD  8  A1 40 00 00 00 00 00 00 
  1359)      5720.8  Rx     18EF1C8F  8  0D 50 00 55 FE AF 74 FB 
  1360)      5721.7  Rx     18EF1C8F  8  0D 51 06 00 1B 00 82 03 
  1361)      5722.8  Rx     18EF1C8F  8  0D 52 16 00 13 00 0F 00 
  1362)      5740.8  Rx     18EF1C8F  8  0D 60 00 75 4C B0 74 FB 
  1363)      5741.7  Rx     18EF1C8F  8  0D 61 EF FF 24 00 85 03 
  1364)      5742.7  Rx     18EF1C8F  8  0D 62 14 00 00 00 0F 00 
  1365)      5760.8  Rx     18EF1C8F  8  0D 70 00 95 9A B0 74 FB 
  1366)      5761.7  Rx     18EF1C8F  8  0D 71 09 00 1B 00 81 03 
  1367)      5762.7  Rx     18EF1C8F  8  0D 72 16 00 14 00 12 00 
  1368)      5770.6  Rx     18EF1CCD  8  A2 00 00 00 00 00 00 00 
  1369)      5780.8  Rx     18EF1C8F  8  0D 80 00 B5 E8 B0 74 FB 
  1370)      5781.7  Rx     18EF1C8F  8  0D 81 F1 FF 25 00 82 03 
  1371)      5782.7  Rx     18EF1C8F  8  0D 82 16 00 00 00 0E 00 
  1372)      5790.7  Rx     18EF1CCD  8  A3 00 00 00 00 00 00 00 
  1373)      5800.2  Rx     18EFCD1C  8  A0 00 14 00 00 00 00 00 
  1374)      5800.8  Rx     18EF1C8F  8  0D 90 00 D5 36 B1 74 FB 
  1375)      5801.4  Rx     18EF1CCD  8  A0 00 14 00 B3 07 00 00 
  1376)      5801.9  Rx     18EF1C8F  8  0D 91 08 00 1C 00 85 03 
  1377)      5802.7  Rx     18EF1C8F  8  0D 92 18 00 14 00 0C 00 
  1378)      5810.7  Rx     18EF1CCD  8  A1 40 00 00 00 00 00 00 
  1379)      5816.4  Rx     18EFCD1C  8  A0 00 2A 00 00 00 00 00 
  1380)      5817.1  Rx     18EF1CCD  8  A0 00 2A 00 49 06 00 00 
  1381)      5820.8  Rx     18EF1C8F  8  0D A0 00 F7 84 B1 74 FB 
  1382)      5821.7  Rx     18EF1C8F  8  0D A1 F2 FF 23 00 80 03 
  1383)      5822.7  Rx     18EF1C8F  8  0D A2 16 00 01 00 0D 00 
  1384)      5835.4  Rx     18EFCD1C  8  A0 00 1B 00 00 00 00 00 
  1385)      5836.0  Rx     18EF1CCD  8  A0 00 1B 00 00 00 00 00 
  1386)      5840.8  Rx     18EF1C8F  8  0D B0 00 15 D3 B1 74 FB 
  1387)      5841.7  Rx     18EF1C8F  8  0D B1 06 00 1E 00 85 03 
  1388)      5842.7  Rx     18EF1C8F  8  0D B2 16 00 13 00 0D 00 
  1389)      5855.8  Rx     18EFCD1C  8  A0 00 00 00 00 00 00 00 
  1390)      5856.4  Rx     18EF1CCD  8  A0 00 00 00 01 00 00 00 
  1391)      5860.8  Rx     18EF1C8F  8  0D C0 00 35 21 B2 74 FB 
  1392)      5861.7  Rx     18EF1C8F  8  0D C1 F5 FF 1F 00 7F 03 
  1393)      5862.7  Rx     18EF1C8F  8  0D C2 16 00 01 00 12 00 
  1394)      5870.8  Rx     18EF1CCD  8  A2 00 00 00 00 00 00 00 
  1395)      5880.8  Rx     18EF1C8F  8  0D D0 00 55 6F B2 74 FB 
  1396)      5881.7  Rx     18EF1C8F  8  0D D1 01 00 22 00 88 03 
  1397)      5882.7  Rx     18EF1C8F  8  0D D2 17 00 0D 00 0C 00 
  1398)      5890.9  Rx     18EF1CCD  8  A3 00 00 00 00 00 00 00 
  1399)      5895.4  Rx     18EFCD1C  8  A1 01 00 00 00 00 00 00 
  1400)      5900.8  Rx     18EF1C8F  8  0D E0 00 75 BD B2 74 FB 
  1401)      5901.7  Rx     18EF1C8F  8  0D E1 FB FF 1E 00 80 03 
  1402)      5902.7  Rx     18EF1C8F  8  0D E2 17 00 03 00 11 00 
  1403)      5910.9  Rx     18EF1CCD  8  A1 40 00 00 00 00 00 00 
  1404)      5920.8  Rx     18EF1C8F  8  0D F0 00 95 0B B3 74 FB 
  1405)      5921.3  Rx     18FEF31C  8  B5 2B 80 99 11 C7 2C 89 
  1406)      5921.8  Rx     18EF1C8F  8  0D F1 FC FF 22 00 8A 03 
  1407)      5922.4  Rx     18FEE81C  8  33 8A 09 00 00 00 2C 51 
  1408)      5923.0  Rx     18EF1C8F  8  0D F2 15 00 09 00 0F 00 
  1409)      5923.5  Rx     18FEE61C  8  AB 2F 0C 09 57 29 00 00 
  1410)      5924.1  Rx     19F8021C  8  07 FC 70 BC 00 00 FF FF 
  1411)      5940.7  Rx     18EF1C8F  8  0D 00 00 B7 59 B3 75 FB 
  1412)      5941.7  Rx     18EF1C8F  8  0D 01 02 00 1D 00 83 03 
  1413)      5942.7  Rx     18EF1C8F  8  0D 02 18 00 0A 00 10 00 
  1414)      5944.4  Rx     19F8051C  8  40 2F 07 EE 50 39 A1 74 
  1415)      5944.9  Rx     19F8051C  8  41 1B 00 FA 66 9B 6C A7 
  1416)      5945.5  Rx     19F8051C  8  42 98 06 40 0F 22 85 2E 
  1417)      5946.0  Rx     19F8051C  8  43 90 CB 02 C0 BE 40 08 
  1418)      5946.6  Rx     19F8051C  8  44 00 00 00 00 40 00 0C 
  1419)      5947.2  Rx     19F8051C  8  45 5E 00 C0 00 FC 0F 00 
  1420)      5947.7  Rx     19F8051C  8  46 00 01 AF 02 20 03 FF 
  1421)      5960.7  Rx     18EF1C8F  8  0D 10 00 D7 A7 B3 74 FB 
  1422)      5961.7  Rx     18EF1C8F  8  0D 11 F6 FF 24 00 89 03 
  1423)      5962.6  Rx     18EF1C8F  8  0D 12 14 00 06 00 0E 00 
  1424)      5971.0  Rx     18EF1CCD  8  A2 00 00 00 00 00 00 00 
  1425)      5980.7  Rx     18EF1C8F  8  0D 20 00 F5 F5 B3 74 FB 
  1426)      5981.7  Rx     18EF1C8F  8  0D 21 07 00 1C 00 82 03 
  1427)      5982.6  Rx     18EF1C8F  8  0D 22 16 00 0D 00 11 00 
  1428)      5991.1  Rx     18EF1CCD  8  A3 00 00 00 00 00 00 00 
  1429)      6000.7  Rx     18EF1C8F  8  0D 30 00 15 44 B4 74 FB 
  1430)      6001.6  Rx     18EF1C8F  8  0D 31 F2 FF 21 00 88 03 
  1431)      6002.2  Rx     18EFCD1C  8  A0 00 14 00 00 00 00 00 
  1432)      6002.8  Rx     18EF1C8F  8  0D 32 15 00 08 00 0E 00 
  1433)      6003.3  Rx     18EF1CCD  8  A0 00 14 00 B4 07 00 00 
  1434)      6011.1  Rx     18EF1CCD  8  A1 40 00 00 00 00 00 00 
  1435)      6019.4  Rx     18EFCD1C  8  A0 00 2A 00 00 00 00 00 
  1436)      6020.1  Rx     18EF1CCD  8  A0 00 2A 00 42 06 00 00 
  1437)      6020.7  Rx     18EF1C8F  8  0D 40 00 35 92 B4 74 FB 
  1438)      6021.6  Rx     18EF1C8F  8  0D 41 09 00 1E 00 83 03 
  1439)      6022.6  Rx     18EF1C8F  8  0D 42 19 00 16 00 0E 00 
  1440)      6035.3  Rx     18EFCD1C  8  A0 00 1B 00 00 00 00 00 
  1441)      6035.9  Rx     18EF1CCD  8  A0 00 1B 00 00 00 00 00 
  1442)      6040.7  Rx     18EF1C8F  8  0D 50 00 55 E0 B4 74 FB 
  1443)      6041.6  Rx     18EF1C8F  8  0D 51 F3 FF 24 00 86 03 
  1444)      6042.6  Rx     18EF1C8F  8  0D 52 15 00 03 00 0E 00 
  1445)      6055.2  Rx     18EFCD1C  8  A0 00 00 00 00 00 00 00 
  1446)      6055.9  Rx     18EF1CCD  8  A0 00 00 00 01 00 00 00 
  1447)      6060.7  Rx     18EF1C8F  8  0D 60 00 75 2E B5 75 FB 
  1448)      6061.6  Rx     18EF1C8F  8  0D 61 0B 00 1C 00 80 03 
  1449)      6062.7  Rx     18EF1C8F  8  0D 62 17 00 15 00 0C 00 
  1450)      6071.2  Rx     18EF1CCD  8  A2 00 00 00 00 00 00 00 
  1451)      6080.7  Rx     18EF1C8F  8  0D 70 00 95 7C B5 74 FB 
  1452)      6081.6  Rx     18EF1C8F  8  0D 71 F2 FF 25 00 82 03 
  1453)      6082.6  Rx     18EF1C8F  8  0D 72 17 00 FD FF 0B 00 
  1454)      6091.3  Rx     18EF1CCD  8  A3 00 00 00 00 00 00 00 
  1455)      6096.3  Rx     18EFCD1C  8  A1 01 00 00 00 00 00 00 
  1456)      6100.7  Rx     18EF1C8F  8  0D 80 00 B5 CA B5 74 FB 
  1457)      6101.6  Rx     18EF1C8F  8  0D 81 08 00 1D 00 82 03 
  1458)      6102.7  Rx     18EF1C8F  8  0D 82 18 00 12 00 0D 00 
  1459)      6111.3  Rx     18EF1CCD  8  A1 40 00 00 00 00 00 00 
  1460)      6120.7  Rx     18EF1C8F  8  0D 90 00 D5 18 B6 74 FB 
  1461)      6121.6  Rx     18EF1C8F  8  0D 91 F5 FF 24 00 82 03 
  1462)      6122.6  Rx     18EF1C8F  8  0D 92 18 00 00 00 10 00 
  1463)      6140.7  Rx     18EF1C8F  8  0D A0 00 F5 66 B6 75 FB 
  1464)      6141.7  Rx     18EF1C8F  8  0D A1 05 00 1F 00 86 03 
  1465)      6142.6  Rx     18EF1C8F  8  0D A2 18 00 12 00 0E 00 
  1466)      6160.7  Rx     18EF1C8F  8  0D B0 00 15 B5 B6 75 FB 
  1467)      6161.6  Rx     18EF1C8F  8  0D B1 F7 FF 22 00 80 03 
  1468)      6162.7  Rx     18EF1C8F  8  0D B2 19 00 01 00 0F 00 
  1469)      6171.5  Rx     18EF1CCD  8  A2 00 00 00 00 00 00 00 
  1470)      6180.8  Rx     18EF1C8F  8  0D C0 00 35 03 B7 75 FB 
  1471)      6181.7  Rx     18EF1C8F  8  0D C1 00 00 1F 00 86 03 
  1472)      6182.7  Rx     18EF1C8F  8  0D C2 15 00 13 00 0D 00 
  1473)      6191.5  Rx     18EF1CCD  8  A3 00 00 00 00 00 00 00 
  1474)      6198.8  Rx     18EFCD1C  8  A0 00 14 00 00 00 00 00 
  1475)      6199.4  Rx     18EF1CCD  8  A0 00 14 00 B2 07 00 00 
  1476)      6200.7  Rx     18EF1C8F  8  0D D0 00 57 51 B7 75 FB 
  1477)      6201.7  Rx     18EF1C8F  8  0D D1 F9 FF 1F 00 7E 03 
  1478)      6202.7  Rx     18EF1C8F  8  0D D2 1A 00 08 00 11 00 
  1479)      6211.6  Rx     18EF1CCD  8  A1 40 00 00 00 00 00 00 
  1480)      6216.3  Rx     18EFCD1C  8  A0 00 2A 00 00 00 00 00 
  1481)      6217.0  Rx     18EF1CCD  8  A0 00 2A 00 41 06 00 00 
  1482)      6220.8  Rx     18EF1C8F  8  0D E0 00 75 9F B7 75 FB 
  1483)      6221.7  Rx     18EF1C8F  8  0D E1 FC FF 25 00 87 03 
  1484)      6222.7  Rx     18EF1C8F  8  0D E2 18 00 0D 00 0C 00 
  1485)      6235.3  Rx     18EFCD1C  8  A0 00 1B 00 00 00 00 00 
  1486)      6235.9  Rx     18EF1CCD  8  A0 00 1B 00 00 00 00 00 
  1487)      6240.8  Rx     18EF1C8F  8  0D F0 00 95 ED B7 75 FB 
  1488)      6241.7  Rx     18EF1C8F  8  0D F1 00 00 1C 00 80 03 
  1489)      6242.7  Rx     18EF1C8F  8  0D F2 18 00 0B 00 0F 00 
  1490)      6255.3  Rx     18EFCD1C  8  A0 00 00 00 00 00 00 00 
  1491)      6256.0  Rx     18EF1CCD  8  A0 00 00 00 01 00 00 00 
  1492)      6260.8  Rx     18EF1C8F  8  0D 00 00 B7 3B B8 74 FB 
  1493)      6261.7  Rx     18EF1C8F  8  0D 01 F7 FF 25 00 88 03 
  1494)      6262.7  Rx     18EF1C8F  8  0D 02 15 00 0B 00 0B 00 
  1495)      6271.7  Rx     18EF1CCD  8  A2 00 00 00 00 00 00 00 
  1496)      6280.8  Rx     18EF1C8F  8  0D 10 00 D5 89 B8 74 FB 
  1497)      6281.7  Rx     18EF1C8F  8  0D 11 06 00 1B 00 81 03 
  1498)      6282.7  Rx     18EF1C8F  8  0D 12 19 00 10 00 10 00 
  1499)      6291.8  Rx     18EF1CCD  8  A3 00 00 00 00 00 00 00 
  1500)      6296.1  Rx     18EFCD1C  8  A1 01 00 00 00 00 00 00 
  1501)      6300.7  Rx     18EF1C8F  8  0D 20 00 F5 D7 B8 74 FB 
  1502)      6301.7  Rx     18EF1C8F  8  0D 21 F2 FF 23 00 88 03 
  1503)      6302.7  Rx     18EF1C8F  8  0D 22 18 00 04 00 12 00 
  1504)      6311.8  Rx     18EF1CCD  8  A1 40 00 00 00 00 00 00 
  1505)      6320.8  Rx     18EF1C8F  8  0D 30 00 15 26 B9 75 FB 
  1506)      6321.7  Rx     18EF1C8F  8  0D 31 0A 00 1D 00 82 03 
  1507)      6322.7  Rx     18EF1C8F  8  0D 32 17 00 14 00 11 00 
  1508)      6340.8  Rx     18EF1C8F  8  0D 40 00 35 74 B9 74 FB 
  1509)      6341.7  Rx     18EF1C8F  8  0D 41 F1 FF 23 00 85 03 
  1510)      6342.7  Rx     18EF1C8F  8  0D 42 13 00 04 00 0E 00 
